
!*************************************************************************
!! ASITIC Ver 10.20.99.0.0.0
!!  Data generated by the <2Port> command in <slow> mode.
!! Generated on Thu Apr 11 17:21:13 1974
!# Spiral Data:	Name = <BL_250-S>, Balun
!# L1 = 224.00, L2 = 26.00, Origin = <113.00,126.00>
!# Sides =   4, Metal =   2, Exit Metal =   1
!# W = 10.00, S = 16.00, N =  1.00
!# Theta =  0.00, Phase =   1
!# Technolog File Data <BiCMOS.tek> @ <.>
!# Auto-Cell Mode:  <alpha> = 0.050000, <beta> = 0.800000
!# Metal Layers
!# Name=MSUB      Met=0  Lyr=  1  Mz=50.00  T=0.40  RS=0.04  Col=BLUE    
!# Name=M2        Met=1  Lyr=  2  Mz=47.00  T=0.80  RS=0.05  Col=GREEN   
!# Name=M3        Met=2  Lyr=  2  Mz=45.00  T=2.00  RS=0.02  Col=RED     
!# Substrate Layers
!# Lyr=    0  Eps=  12  Rho=1e+05  DZ=8.5e+02  T=8e+02
!# Lyr=    1  Eps=  12  Rho=1e+03  DZ=  52  T=   2
!# Lyr=    2  Eps=   4  Rho=1e+14  DZ=  50  T=  50
!*************************************************************************
# GHZ S MA S11 mag    S11 phase  S12 mag    S12 phase  S21 mag    S21 phase  S22 mag    S22 phase  
1.000000000000000e+00  2.002749840916578e-02  5.031722911331117e+01  9.794718061223953e-01  -3.042531473014051e+00  9.794718061223953e-01  -3.042531473014051e+00  2.258130461028883e-02  53.779178910867     
1.500000000000000e+00  2.720942421188215e-02  6.946782322990487e+01  9.749289908380588e-01  -4.469680409373904e+00  9.749289908380588e-01  -4.469680409373904e+00  3.128294506400352e-02  70.0477421402524    
2.000000000000000e+00  3.801070388264234e-02  8.031142910616273e+01  9.697328964864304e-01  -5.821416628605580e+00  9.697328964864304e-01  -5.821416628605580e+00  4.306027903400612e-02  79.0762066455269    
2.500000000000000e+00  5.085477239756520e-02  8.545853702244079e+01  9.643348013162958e-01  -7.087356758762089e+00  9.643348013162958e-01  -7.087356758762089e+00  5.657579124061388e-02  83.5095361059632    
3.000000000000000e+00  6.500599598132689e-02  8.750395784477659e+01  9.589935410317891e-01  -8.297136278960073e+00  9.589935410317891e-01  -8.297136278960073e+00  7.125805306431116e-02  85.3825899299839    
3.500000000000000e+00  7.978466733718133e-02  8.796726174945425e+01  9.539122480893395e-01  -9.462719385825055e+00  9.539122480893395e-01  -9.462719385825055e+00  8.651193319577673e-02  85.8978155497601    
4.000000000000000e+00  9.797686189894730e-02  8.714553449762960e+01  9.488144150558924e-01  -1.078893774295342e+01  9.488144150558924e-01  -1.078893774295342e+01  1.051654497237993e-01  85.3201449199169    
4.500000000000000e+00  1.134973428496243e-01  8.626972062899253e+01  9.441491976516987e-01  -1.192955605167949e+01  9.441491976516987e-01  -1.192955605167949e+01  1.211393739444001e-01  84.610764386984     
5.000000000000000e+00  1.291135360764114e-01  8.513645806213027e+01  9.396475410949610e-01  -1.306529161377424e+01  9.396475410949610e-01  -1.306529161377424e+01  1.372032500713025e-01  83.6533879710564    
5.500000000000000e+00  1.445022567977310e-01  8.387313371336219e+01  9.352403495197275e-01  -1.418587218251954e+01  9.352403495197275e-01  -1.418587218251954e+01  1.530477134761308e-01  82.5603246964205    
6.000000000000000e+00  1.597327474573803e-01  8.251772166442558e+01  9.308230356788364e-01  -1.530061902880267e+01  9.308230356788364e-01  -1.530061902880267e+01  1.687358450336410e-01  81.3688524359927    
6.500000000000000e+00  1.747922199452968e-01  8.115090896901722e+01  9.264623782648381e-01  -1.641099867132562e+01  9.264623782648381e-01  -1.641099867132562e+01  1.842549923299036e-01  80.1556273967155    
7.000000000000000e+00  1.896639392490283e-01  7.977316930655152e+01  9.220700484604365e-01  -1.751794864699065e+01  9.220700484604365e-01  -1.751794864699065e+01  1.995866658258254e-01  78.922431879184     
7.500000000000001e+00  2.043312164803343e-01  7.836232723572246e+01  9.174966249055426e-01  -1.862204623773176e+01  9.174966249055426e-01  -1.862204623773176e+01  2.147125109706941e-01  77.6497174682511    
8.000000000000000e+00  2.187991742947281e-01  7.699511715043251e+01  9.129501866869405e-01  -1.972238282079623e+01  9.129501866869405e-01  -1.972238282079623e+01  2.296365581350051e-01  76.4105840990134    
8.500000000000000e+00  2.330622811055076e-01  7.564155678047763e+01  9.083054504682042e-01  -2.081938929931480e+01  9.083054504682042e-01  -2.081938929931480e+01  2.443518283427646e-01  75.1780167307249    
9.000000000000000e+00  2.472031025101941e-01  7.431099363965939e+01  9.035895466771817e-01  -2.191762959985623e+01  9.035895466771817e-01  -2.191762959985623e+01  2.589351246939252e-01  73.9615513284939    
9.500000000000000e+00  2.610561838399605e-01  7.299061442201067e+01  8.987190302446753e-01  -2.300747775881128e+01  8.987190302446753e-01  -2.300747775881128e+01  2.732287479259728e-01  72.7500625217757    
1.000000000000000e+01  2.746979548154438e-01  7.168752886630003e+01  8.937239451231375e-01  -2.409298120866051e+01  8.937239451231375e-01  -2.409298120866051e+01  2.873036899106902e-01  71.5507977806437    
1.050000000000000e+01  2.892942322672061e-01  7.031273116929179e+01  8.882636999742548e-01  -2.525034969683011e+01  8.882636999742548e-01  -2.525034969683011e+01  3.023256871349841e-01  70.2806724524298    
1.100000000000000e+01  3.025506608433756e-01  6.904089761347755e+01  8.829749522137185e-01  -2.632928197318795e+01  8.829749522137185e-01  -2.632928197318795e+01  3.159973212162654e-01  69.1037191967645    
1.150000000000000e+01  3.155875220892095e-01  6.778564668806911e+01  8.775558008405603e-01  -2.740255008460205e+01  8.775558008405603e-01  -2.740255008460205e+01  3.294392841570940e-01  67.9397151078143    
1.200000000000000e+01  3.283502735044527e-01  6.655987471457853e+01  8.720785727637156e-01  -2.846578074891355e+01  8.720785727637156e-01  -2.846578074891355e+01  3.425943215825978e-01  66.8008899922515    
1.250000000000000e+01  3.409432222045023e-01  6.533678329521011e+01  8.664093561789656e-01  -2.952658116512443e+01  8.664093561789656e-01  -2.952658116512443e+01  3.555701034431074e-01  65.6627913858641    
1.300000000000000e+01  3.533110014305609e-01  6.412896703451079e+01  8.606175823166478e-01  -3.058059122897844e+01  8.606175823166478e-01  -3.058059122897844e+01  3.683086220387520e-01  64.5372684768514    
1.350000000000000e+01  3.654518757265052e-01  6.293602508644937e+01  8.547075329284707e-01  -3.162746435272053e+01  8.547075329284707e-01  -3.162746435272053e+01  3.808075919451929e-01  63.4241570217992    
1.400000000000000e+01  3.771653844964484e-01  6.174659263004533e+01  8.486004613758092e-01  -3.265390292341957e+01  8.486004613758092e-01  -3.265390292341957e+01  3.928647752638407e-01  62.3129394863329    
1.450000000000000e+01  3.888374640732328e-01  6.058271357754971e+01  8.424692153288027e-01  -3.368472133389358e+01  8.424692153288027e-01  -3.368472133389358e+01  4.048680763931183e-01  61.2245821063992    
1.500000000000000e+01  4.002787336942371e-01  5.943272004942165e+01  8.362360747947120e-01  -3.470747716713505e+01  8.362360747947120e-01  -3.470747716713505e+01  4.166265759887489e-01  60.1481961876353    
1.550000000000000e+01  4.114883928140168e-01  5.829633257684781e+01  8.299070702536320e-01  -3.572190981106284e+01  8.299070702536320e-01  -3.572190981106284e+01  4.281391117180420e-01  59.0836428003096    
1.600000000000000e+01  4.224812010401744e-01  5.717763423964354e+01  8.235211288948644e-01  -3.672844539563665e+01  8.235211288948644e-01  -3.672844539563665e+01  4.394175390422537e-01  58.0345182424846    
1.650000000000000e+01  4.332280509805507e-01  5.606764315676330e+01  8.170195521324960e-01  -3.772565265671187e+01  8.170195521324960e-01  -3.772565265671187e+01  4.504376428066486e-01  56.993156786625     
1.700000000000000e+01  4.437425756570135e-01  5.497056307236262e+01  8.104412108919234e-01  -3.871388427737858e+01  8.104412108919234e-01  -3.871388427737858e+01  4.612102096564934e-01  55.9632628066757    
1.750000000000000e+01  4.540251106454808e-01  5.388620278880006e+01  8.037926815878671e-01  -3.969296321145375e+01  8.037926815878671e-01  -3.969296321145375e+01  4.717353541465836e-01  54.9447308700829    