
!*************************************************************************
!! ASITIC Ver 10.20.99.0.0.0
!!  Data generated by the <2Port> command in <slow> mode.
!! Generated on Thu Apr 11 17:21:13 1974
!# Spiral Data:	Name = <BL_250-P>, Balun
!# L1 = 250.00, L2 = 26.00, Origin = <100.00,100.00>
!# Sides =   4, Metal =   2, Exit Metal =   1
!# W = 10.00, S = 16.00, N =  2.00
!# Theta =  0.00, Phase =   1
!# Technolog File Data <BiCMOS.tek> @ <.>
!# Auto-Cell Mode:  <alpha> = 0.050000, <beta> = 0.800000
!# Metal Layers
!# Name=MSUB      Met=0  Lyr=  1  Mz=50.00  T=0.40  RS=0.04  Col=BLUE    
!# Name=M2        Met=1  Lyr=  2  Mz=47.00  T=0.80  RS=0.05  Col=GREEN   
!# Name=M3        Met=2  Lyr=  2  Mz=45.00  T=2.00  RS=0.02  Col=RED     
!# Substrate Layers
!# Lyr=    0  Eps=  12  Rho=1e+05  DZ=8.5e+02  T=8e+02
!# Lyr=    1  Eps=  12  Rho=1e+03  DZ=  52  T=   2
!# Lyr=    2  Eps=   4  Rho=1e+14  DZ=  50  T=  50
!*************************************************************************
# GHZ S MA S11 mag    S11 phase  S12 mag    S12 phase  S21 mag    S21 phase  S22 mag    S22 phase  
1.000000000000000e+00  7.328018558769392e-02  6.361840054380560e+01  9.484944934807730e-01  -7.534280488150597e+00  9.484944934807730e-01  -7.534280488150597e+00  7.642798802574718e-02  64.3304296022399    
1.500000000000000e+00  1.110044133808985e-01  7.207727581240970e+01  9.346302593096260e-01  -1.090938413347526e+01  9.346302593096260e-01  -1.090938413347526e+01  1.155352296843962e-01  72.0484323989283    
2.000000000000000e+00  1.535286445051550e-01  7.409480140785416e+01  9.199442417849834e-01  -1.408373081671249e+01  9.199442417849834e-01  -1.408373081671249e+01  1.589343249147986e-01  73.8110877849632    
2.500000000000000e+00  1.970028153062346e-01  7.341274488514210e+01  9.049446844877438e-01  -1.711443954140393e+01  9.049446844877438e-01  -1.711443954140393e+01  2.030885305918757e-01  73.0834038453797    
3.000000000000000e+00  2.402676437240100e-01  7.151425510084655e+01  8.892697032620145e-01  -2.007948939160286e+01  8.892697032620145e-01  -2.007948939160286e+01  2.469605722652826e-01  71.2186481969251    
3.500000000000000e+00  2.820113173084205e-01  6.917188650217105e+01  8.731967904422061e-01  -2.296420726956713e+01  8.731967904422061e-01  -2.296420726956713e+01  2.892751925047214e-01  68.9339687667028    
4.000000000000000e+00  3.272381665938449e-01  6.633435050362945e+01  8.550150354733212e-01  -2.613562455075617e+01  8.550150354733212e-01  -2.613562455075617e+01  3.350867075831246e-01  66.1727828648924    
4.500000000000000e+00  3.660543530583750e-01  6.368175750749505e+01  8.372180486415989e-01  -2.894793163698166e+01  8.372180486415989e-01  -2.894793163698166e+01  3.744321273362612e-01  63.5857989896608    
5.000000000000000e+00  4.030797449194028e-01  6.101508381530180e+01  8.186516023487005e-01  -3.170971302706948e+01  8.186516023487005e-01  -3.170971302706948e+01  4.119594300001215e-01  60.9829658300031    
5.500000000000000e+00  4.381344265735002e-01  5.838052145186487e+01  7.994426301845339e-01  -3.440870509625645e+01  7.994426301845339e-01  -3.440870509625645e+01  4.474896896110834e-01  58.4096618966335    
6.000000000000000e+00  4.712857071152072e-01  5.578336417553979e+01  7.795783354178314e-01  -3.704757782017357e+01  7.795783354178314e-01  -3.704757782017357e+01  4.810849184385413e-01  55.8710855975164    
6.500000000000000e+00  5.025679739231340e-01  5.325016568738742e+01  7.592799171100667e-01  -3.962553975963242e+01  7.592799171100667e-01  -3.962553975963242e+01  5.127790513026659e-01  53.3936636339526    
7.000000000000000e+00  5.320128726245053e-01  5.077858617971985e+01  7.385873023785496e-01  -4.214142569675430e+01  7.385873023785496e-01  -4.214142569675430e+01  5.426015463639158e-01  50.9753810190967    
7.500000000000001e+00  5.595839058162312e-01  4.836847792758108e+01  7.175672394452522e-01  -4.458812944596971e+01  7.175672394452522e-01  -4.458812944596971e+01  5.705141798618107e-01  48.616361748723     
8.000000000000000e+00  5.854988410992126e-01  4.602769528679765e+01  6.963837336111781e-01  -4.697818630164871e+01  6.963837336111781e-01  -4.697818630164871e+01  5.967359852496065e-01  46.3245715367046    
8.500000000000000e+00  6.097455092443507e-01  4.375269028538971e+01  6.750893659374095e-01  -4.930628339579503e+01  6.750893659374095e-01  -4.930628339579503e+01  6.212540163149886e-01  44.0967029518445    
9.000000000000000e+00  6.324087506382834e-01  4.153424157704251e+01  6.536730500541618e-01  -5.157491093441785e+01  6.536730500541618e-01  -5.157491093441785e+01  6.441515602622870e-01  41.9237133267346    
9.500000000000000e+00  6.535276166027388e-01  3.938808397615406e+01  6.323853067325131e-01  -5.378201857326821e+01  6.323853067325131e-01  -5.378201857326821e+01  6.654719345611537e-01  39.8214312519613    
1.000000000000000e+01  6.731972068079343e-01  3.730408207699324e+01  6.112009067891745e-01  -5.593107990222354e+01  6.112009067891745e-01  -5.593107990222354e+01  6.853092534936932e-01  37.7798591277636    
1.050000000000000e+01  6.924578928642384e-01  3.519952008081629e+01  5.892514606689009e-01  -5.812217806478294e+01  5.892514606689009e-01  -5.812217806478294e+01  7.047058235374100e-01  35.7169549862838    
1.100000000000000e+01  7.094339293143083e-01  3.323278671905704e+01  5.683885605366277e-01  -6.016253532250702e+01  5.683885605366277e-01  -6.016253532250702e+01  7.217839216076021e-01  33.7899710025652    
1.150000000000000e+01  7.251865739822383e-01  3.132213866207439e+01  5.477686848025121e-01  -6.215095002406115e+01  5.477686848025121e-01  -6.215095002406115e+01  7.376078398309660e-01  31.9178552785777    
1.200000000000000e+01  7.397755341329236e-01  2.946785692413583e+01  5.274550961744702e-01  -6.408780852423938e+01  5.274550961744702e-01  -6.408780852423938e+01  7.522376568128513e-01  30.1007672866135    
1.250000000000000e+01  7.533038663998866e-01  2.766231549599850e+01  5.074058822603498e-01  -6.598002639703184e+01  5.074058822603498e-01  -6.598002639703184e+01  7.657791545123727e-01  28.3314488076097    
1.300000000000000e+01  7.658228747994236e-01  2.590569893165652e+01  4.876708468476145e-01  -6.782799452584317e+01  4.876708468476145e-01  -6.782799452584317e+01  7.782839013817827e-01  26.6099471056562    
1.350000000000000e+01  7.773976442081653e-01  2.419560763872630e+01  4.682626317770572e-01  -6.963441245758317e+01  4.682626317770572e-01  -6.963441245758317e+01  7.898180664096274e-01  24.9338807130066    
1.400000000000000e+01  7.879814531901383e-01  2.253424961328361e+01  4.492450923491578e-01  -7.138743829407169e+01  4.492450923491578e-01  -7.138743829407169e+01  8.003357868461418e-01  23.3055142132669    
1.450000000000000e+01  7.978501944974998e-01  2.091035530771883e+01  4.305148607535558e-01  -7.311849759528536e+01  4.305148607535558e-01  -7.311849759528536e+01  8.101144460555761e-01  21.7134987599102    
1.500000000000000e+01  8.069487635718994e-01  1.932599630333028e+01  4.121250047977931e-01  -7.481635286261323e+01  4.121250047977931e-01  -7.481635286261323e+01  8.190996059414856e-01  20.1599440356481    
1.550000000000000e+01  8.153278488980602e-01  1.777895923151918e+01  3.940739168523051e-01  -7.648386408360483e+01  3.940739168523051e-01  -7.648386408360483e+01  8.273428635478625e-01  18.6426307817537    
1.600000000000000e+01  8.231277223541863e-01  1.627957107015746e+01  3.765646596427997e-01  -7.810379783850330e+01  3.765646596427997e-01  -7.810379783850330e+01  8.341671067855182e-01  17.0755306356939    
1.650000000000000e+01  8.301761272917243e-01  1.480317251123326e+01  3.591965108989907e-01  -7.971759607907357e+01  3.591965108989907e-01  -7.971759607907357e+01  8.411583344591866e-01  15.6279690747073    
1.700000000000000e+01  8.366377744457265e-01  1.335774707799058e+01  3.421511210270418e-01  -8.130995961279289e+01  3.421511210270418e-01  -8.130995961279289e+01  8.475496154662765e-01  14.2109240694544    
1.750000000000000e+01  8.425503195118237e-01  1.194136399081808e+01  3.254199042855291e-01  -8.288408092455919e+01  3.254199042855291e-01  -8.288408092455919e+01  8.533792002745678e-01  12.822471735633     