
!*************************************************************************
!! ASITIC Ver 10.20.99.0.0.0
!!  Data generated by the <2Port> command in <slow> mode.
!! Generated on Thu Apr 11 17:21:13 1974
!# Spiral Data:	Name = <BL_250-S>, Balun
!# L1 = 224.00, L2 = 26.00, Origin = <113.00,126.00>
!# Sides =   4, Metal =   4, Exit Metal =   3
!# W = 10.00, S = 16.00, N =  1.00
!# Theta =  0.00, Phase =   1
!# Technolog File Data <CMOS.tek> @ <.>
!# Auto-Cell Mode:  <alpha> = 0.050000, <beta> = 0.800000
!# Metal Layers
!# Name=M1        Met=0  Lyr=  1  Mz=48.70  T=0.50  RS=0.07  Col=YELLOW  
!# Name=M2        Met=1  Lyr=  1  Mz=47.60  T=0.50  RS=0.06  Col=LIGHTSKYBLUE1
!# Name=M3        Met=2  Lyr=  1  Mz=46.50  T=0.50  RS=0.06  Col=MEDIUM PURPLE
!# Name=M4        Met=3  Lyr=  1  Mz=45.50  T=0.50  RS=0.06  Col=LIGHT GREEN
!# Name=M5        Met=4  Lyr=  1  Mz=44.00  T=1.00  RS=0.03  Col=GREY    
!# Substrate Layers
!# Lyr=    0  Eps=  12  Rho=  10  DZ=7.5e+02  T=7e+02
!# Lyr=    1  Eps= 3.9  Rho=1e+14  DZ=  50  T=  50
!*************************************************************************
# GHZ S MA S11 mag    S11 phase  S12 mag    S12 phase  S21 mag    S21 phase  S22 mag    S22 phase  
1.000000000000000e+00  3.037995127037624e-02  3.354917139200627e+01  9.753998041207088e-01  -3.026018272600651e+00  9.753998041207088e-01  -3.026018272600651e+00  3.188319376295728e-02  37.6181433357092    
1.500000000000000e+00  3.668992582568579e-02  4.352100704281349e+01  9.750042072391578e-01  -4.547140016101889e+00  9.750042072391578e-01  -4.547140016101889e+00  3.947345103006832e-02  47.8734417891615    
2.000000000000000e+00  4.390403990682151e-02  4.973366932737546e+01  9.744631494685474e-01  -6.058367055968919e+00  9.744631494685474e-01  -6.058367055968919e+00  4.799021645349760e-02  54.0698920111655    
2.500000000000000e+00  5.171024799171273e-02  5.364000310193049e+01  9.737579370091962e-01  -7.569340545864976e+00  9.737579370091962e-01  -7.569340545864976e+00  5.707670722542359e-02  57.9029385607153    
3.000000000000000e+00  5.984550358416995e-02  5.603976124361447e+01  9.728956391696847e-01  -9.078298854318286e+00  9.728956391696847e-01  -9.078298854318286e+00  6.645728114455267e-02  60.2621223836871    
3.500000000000000e+00  6.804169071901853e-02  5.746798150356392e+01  9.719580201037433e-01  -1.057886925347512e+01  9.719580201037433e-01  -1.057886925347512e+01  7.586996660403354e-02  61.7030412146462    
4.000000000000000e+00  7.656714429126588e-02  5.833047545724882e+01  9.709344242472001e-01  -1.209140000988421e+01  9.709344242472001e-01  -1.209140000988421e+01  8.557989271373527e-02  62.5905225293139    
4.500000000000000e+00  8.501993964340157e-02  5.863433234257599e+01  9.697537258371497e-01  -1.359246571832684e+01  9.697537258371497e-01  -1.359246571832684e+01  9.518123579148252e-02  62.9755161516275    
5.000000000000000e+00  9.331713941253307e-02  5.860969004691263e+01  9.685380160209432e-01  -1.508166463698822e+01  9.685380160209432e-01  -1.508166463698822e+01  1.046028198255809e-01  63.0674532659919    
5.500000000000000e+00  1.017839968762166e-01  5.832073958198037e+01  9.671544812781718e-01  -1.657685665186287e+01  9.671544812781718e-01  -1.657685665186287e+01  1.141514273782217e-01  62.9096779226504    
6.000000000000000e+00  1.100086502422712e-01  5.786451573382333e+01  9.657807479507324e-01  -1.805768619593896e+01  9.657807479507324e-01  -1.805768619593896e+01  1.234373721779942e-01  62.6089986899458    
6.500000000000000e+00  1.183411651370890e-01  5.731839868684203e+01  9.643979298891936e-01  -1.954471424257751e+01  9.643979298891936e-01  -1.954471424257751e+01  1.328028052704287e-01  62.2167464532311    
7.000000000000000e+00  1.264517081402110e-01  5.661293286935161e+01  9.629111304577240e-01  -2.101745838004553e+01  9.629111304577240e-01  -2.101745838004553e+01  1.419106716760697e-01  61.6904514014309    
7.500000000000001e+00  1.344909339191526e-01  5.581931950947704e+01  9.613697388793035e-01  -2.248583985652881e+01  9.613697388793035e-01  -2.248583985652881e+01  1.509129745728676e-01  61.0847721886388    
8.000000000000000e+00  1.425635430512916e-01  5.489979107018021e+01  9.596260531853612e-01  -2.395413222642918e+01  9.596260531853612e-01  -2.395413222642918e+01  1.598948004620281e-01  60.3636915234327    
8.500000000000000e+00  1.504534695220432e-01  5.397266249795199e+01  9.579693532147483e-01  -2.541396914080896e+01  9.579693532147483e-01  -2.541396914080896e+01  1.686726182907914e-01  59.6379510094566    
9.000000000000000e+00  1.582213568198342e-01  5.305369338999818e+01  9.564183160836955e-01  -2.686891301238720e+01  9.564183160836955e-01  -2.686891301238720e+01  1.773101007318343e-01  58.9178004432976    
9.500000000000000e+00  1.659432442262361e-01  5.204172246029181e+01  9.546917935424882e-01  -2.832013276883631e+01  9.546917935424882e-01  -2.832013276883631e+01  1.858442711841735e-01  58.1156359815211    
1.000000000000000e+01  1.735783466580204e-01  5.099591289449867e+01  9.529275845050121e-01  -2.976703806076839e+01  9.529275845050121e-01  -2.976703806076839e+01  1.942505353737135e-01  57.282982568771     
1.050000000000000e+01  1.812398499303035e-01  4.986314159801859e+01  9.509334603445886e-01  -3.121395615014904e+01  9.509334603445886e-01  -3.121395615014904e+01  2.026126215052006e-01  56.3698518902707    
1.100000000000000e+01  1.901727257690538e-01  4.892860255411544e+01  9.493563851628691e-01  -3.274144962091896e+01  9.493563851628691e-01  -3.274144962091896e+01  2.122427812201264e-01  55.5832949236622    
1.150000000000000e+01  1.976101700609380e-01  4.780596329484950e+01  9.474955702513224e-01  -3.417974381973593e+01  9.474955702513224e-01  -3.417974381973593e+01  2.203193692737279e-01  54.6790380327304    
1.200000000000000e+01  2.049966504078516e-01  4.668369410333180e+01  9.456588770526206e-01  -3.561639829412075e+01  9.456588770526206e-01  -3.561639829412075e+01  2.283043352329627e-01  53.7709950945724    
1.250000000000000e+01  2.122432872193476e-01  4.552822141742696e+01  9.437530322815776e-01  -3.704609016978842e+01  9.437530322815776e-01  -3.704609016978842e+01  2.360971068705308e-01  52.8363859938746    
1.300000000000000e+01  2.193895144271129e-01  4.435956594533290e+01  9.418286650113179e-01  -3.847136041351384e+01  9.418286650113179e-01  -3.847136041351384e+01  2.437409730489603e-01  51.8895150981947    
1.350000000000000e+01  2.264647427230448e-01  4.317660432181596e+01  9.398690845367311e-01  -3.989340921961008e+01  9.398690845367311e-01  -3.989340921961008e+01  2.512601095443416e-01  50.9269902476448    
1.400000000000000e+01  2.334058864207535e-01  4.198666373334344e+01  9.379167171608250e-01  -4.130986936166738e+01  9.379167171608250e-01  -4.130986936166738e+01  2.585985604395623e-01  49.9598897027446    
1.450000000000000e+01  2.402412353626237e-01  4.078835377653898e+01  9.359565311386577e-01  -4.272192568303293e+01  9.359565311386577e-01  -4.272192568303293e+01  2.657797439568790e-01  48.9846691719652    
1.500000000000000e+01  2.468957578353447e-01  3.955628833150563e+01  9.338906699812177e-01  -4.412380667595555e+01  9.338906699812177e-01  -4.412380667595555e+01  2.727096495678654e-01  47.980435001612     
1.550000000000000e+01  2.535099218587459e-01  3.834430166807206e+01  9.319214432560121e-01  -4.552677614635378e+01  9.319214432560121e-01  -4.552677614635378e+01  2.795629543276260e-01  46.9916260958222    
1.600000000000000e+01  2.600136939765025e-01  3.712708519901993e+01  9.299552777122918e-01  -4.692543156069681e+01  9.299552777122918e-01  -4.692543156069681e+01  2.862519126451736e-01  45.997318911435     
1.650000000000000e+01  2.664057347811679e-01  3.590541779990959e+01  9.279957669254675e-01  -4.831982348089820e+01  9.279957669254675e-01  -4.831982348089820e+01  2.927744847805208e-01  44.9981423156847    
1.700000000000000e+01  2.725615267595329e-01  3.468426099978521e+01  9.260754566368234e-01  -4.970240506901055e+01  9.260754566368234e-01  -4.970240506901055e+01  2.990128361472454e-01  44.0015742244374    
1.750000000000000e+01  2.787238146109612e-01  3.345634266746164e+01  9.241429947122259e-01  -5.108828012848918e+01  9.241429947122259e-01  -5.108828012848918e+01  3.051953930530138e-01  42.9948953004875    