
!*************************************************************************
!! ASITIC Ver 10.20.99.0.0.0
!!  Data generated by the <2Port> command in <slow> mode.
!! Generated on Thu Apr 11 17:21:13 1974
!# Spiral Data:	Name = <BL_180-S>, Balun
!# L1 = 158.00, L2 = 22.00, Origin = <111.00,212.00>
!# Sides =   4, Metal =   2, Exit Metal =   1
!# W =  8.00, S = 14.00, N =  0.00
!# Theta =  0.00, Phase =   1
!# Technolog File Data <BiCMOS.tek> @ <.>
!# Auto-Cell Mode:  <alpha> = 0.050000, <beta> = 0.800000
!# Metal Layers
!# Name=MSUB      Met=0  Lyr=  1  Mz=50.00  T=0.40  RS=0.04  Col=BLUE    
!# Name=M2        Met=1  Lyr=  2  Mz=47.00  T=0.80  RS=0.05  Col=GREEN   
!# Name=M3        Met=2  Lyr=  2  Mz=45.00  T=2.00  RS=0.02  Col=RED     
!# Substrate Layers
!# Lyr=    0  Eps=  12  Rho=1e+05  DZ=8.5e+02  T=8e+02
!# Lyr=    1  Eps=  12  Rho=1e+03  DZ=  52  T=   2
!# Lyr=    2  Eps=   4  Rho=1e+14  DZ=  50  T=  50
!*************************************************************************
# GHZ S MA S11 mag    S11 phase  S12 mag    S12 phase  S21 mag    S21 phase  S22 mag    S22 phase  
1.000000000000000e+00  5.564715442621687e-04  -1.191572356452538e+01  9.994445880448397e-01  -6.210599512301083e-02  9.994445880448397e-01  -6.210599512301083e-02  5.539793017174206e-04  9.53650883680154    
1.500000000000000e+00  5.777878066685806e-04  -1.965461989671594e+01  9.994313746715142e-01  -9.182980797869870e-02  9.994313746715142e-01  -9.182980797869870e-02  5.602843350039780e-04  11.8937504912438    
2.000000000000000e+00  5.986692576125785e-04  -2.563792540856522e+01  9.994170149430185e-01  -1.223185222855618e-01  9.994170149430185e-01  -1.223185222855618e-01  5.681967839820651e-04  15.6913309404456    
2.500000000000000e+00  6.086510711776159e-04  -3.105065660211170e+01  9.994115846991469e-01  -1.532626447512122e-01  9.994115846991469e-01  -1.532626447512122e-01  5.695063404247189e-04  20.7037430114202    
3.000000000000000e+00  6.324330547757903e-04  -3.641089184560339e+01  9.993956014047876e-01  -1.837059837964816e-01  9.993956014047876e-01  -1.837059837964816e-01  5.781749532269301e-04  24.7530901736042    
3.500000000000000e+00  6.596945269937853e-04  -4.094425821306090e+01  9.993734148050766e-01  -2.142649733843500e-01  9.993734148050766e-01  -2.142649733843500e-01  5.938369184937693e-04  28.8940269264055    
4.000000000000000e+00  6.318202366792560e-04  -4.020997784770081e+01  9.993525413964301e-01  -2.493256001958288e-01  9.993525413964301e-01  -2.493256001958288e-01  6.562421834129819e-04  38.9611889346805    
4.500000000000000e+00  6.601815525905421e-04  -4.501698379231093e+01  9.993277148138673e-01  -2.794269873323487e-01  9.993277148138673e-01  -2.794269873323487e-01  6.765462402338035e-04  42.1882895994868    
5.000000000000000e+00  6.821266478626090e-04  -4.911387070579613e+01  9.993039111443880e-01  -3.099357156949398e-01  9.993039111443880e-01  -3.099357156949398e-01  7.031867547574712e-04  45.999169084669     
5.500000000000000e+00  7.050726661039045e-04  -5.300256930147265e+01  9.992791057347583e-01  -3.403291320389273e-01  9.992791057347583e-01  -3.403291320389273e-01  7.322974933197447e-04  49.645136217314     
6.000000000000000e+00  7.160130709679176e-04  -5.587265168194096e+01  9.992521342535694e-01  -3.715496802920790e-01  9.992521342535694e-01  -3.715496802920790e-01  7.779925184131143e-04  53.7629490351214    
6.500000000000000e+00  7.388565347481450e-04  -5.933985202956081e+01  9.992251274260147e-01  -4.018125931721284e-01  9.992251274260147e-01  -4.018125931721284e-01  8.145497536809161e-04  56.997785403133     
7.000000000000000e+00  7.621840065830214e-04  -6.262486713770868e+01  9.991975219905823e-01  -4.319706400290599e-01  9.991975219905823e-01  -4.319706400290599e-01  8.538216494554697e-04  60.0416814538121    
7.500000000000001e+00  8.058329865446307e-04  -6.491068444128209e+01  9.991506081950108e-01  -4.612702068959604e-01  9.991506081950108e-01  -4.612702068959604e-01  8.927899482501950e-04  61.4327582075352    
8.000000000000000e+00  8.315502839282418e-04  -6.774631461482070e+01  9.991203823595209e-01  -4.911280590255492e-01  9.991203823595209e-01  -4.911280590255492e-01  9.354883393292749e-04  64.0293155638776    
8.500000000000000e+00  8.574239354326164e-04  -7.042594650015126e+01  9.990898847289064e-01  -5.208899380961014e-01  9.990898847289064e-01  -5.208899380961014e-01  9.805764594100470e-04  66.4553679633234    
9.000000000000000e+00  8.833817095691705e-04  -7.295988581870124e+01  9.990592034683109e-01  -5.505607542098919e-01  9.990592034683109e-01  -5.505607542098919e-01  1.027978571130477e-03  68.7156213924511    
9.500000000000000e+00  8.991420996481467e-04  -7.666695615195337e+01  9.990509651743215e-01  -5.804171987266388e-01  9.990509651743215e-01  -5.804171987266388e-01  1.075054036250590e-03  72.0357523208427    
1.000000000000000e+01  9.243828916503383e-04  -7.901226518831037e+01  9.990218117442694e-01  -6.099906341932861e-01  9.990218117442694e-01  -6.099906341932861e-01  1.128290901366230e-03  74.0303706966345    
1.050000000000000e+01  9.132607012574992e-04  -8.080737985968898e+01  9.989917305894529e-01  -6.416115391738799e-01  9.989917305894529e-01  -6.416115391738799e-01  1.219828602968584e-03  76.240869561124     
1.100000000000000e+01  9.362942618516290e-04  -8.299875084531679e+01  9.989625707258553e-01  -6.711507151138559e-01  9.989625707258553e-01  -6.711507151138559e-01  1.279243278667300e-03  77.8868804753971    
1.150000000000000e+01  9.573085480948589e-04  -8.471568663745113e+01  9.989274795972505e-01  -7.007724698184602e-01  9.989274795972505e-01  -7.007724698184602e-01  1.344085578952167e-03  79.1690993060247    
1.200000000000000e+01  9.801217824307147e-04  -8.670999467078474e+01  9.988982651883589e-01  -7.301799108099949e-01  9.988982651883589e-01  -7.301799108099949e-01  1.406820241198957e-03  80.5601122038726    
1.250000000000000e+01  1.002841626877689e-03  -8.861633321219936e+01  9.988691881625086e-01  -7.595304063924676e-01  9.988691881625086e-01  -7.595304063924676e-01  1.471129093791709e-03  81.8416575415727    
1.300000000000000e+01  1.025460209412713e-03  -9.044079351643614e+01  9.988402653649859e-01  -7.888273842207854e-01  9.988402653649859e-01  -7.888273842207854e-01  1.536897128341985e-03  83.022795922992     
1.350000000000000e+01  1.097937446963499e-03  -9.051563415446888e+01  9.987807818402396e-01  -8.151875449844300e-01  9.987807818402396e-01  -8.151875449844300e-01  1.557175752626332e-03  82.8123226395713    
1.400000000000000e+01  1.122184500703441e-03  -9.207196486279823e+01  9.987506927221552e-01  -8.442265082013701e-01  9.987506927221552e-01  -8.442265082013701e-01  1.622252787039344e-03  83.8391665615906    
1.450000000000000e+01  1.146279639915256e-03  -9.356378234548264e+01  9.987207880121953e-01  -8.732182970688086e-01  9.987207880121953e-01  -8.732182970688086e-01  1.688447798897432e-03  84.7898508248013    
1.500000000000000e+01  1.170223152410060e-03  -9.499565369624594e+01  9.986910712791983e-01  -9.021656008163386e-01  9.986910712791983e-01  -9.021656008163386e-01  1.755680390397397e-03  85.6709241420872    
1.550000000000000e+01  1.194016302808458e-03  -9.637178958272632e+01  9.986615437744308e-01  -9.310709086120577e-01  9.986615437744308e-01  -9.310709086120577e-01  1.823877184630697e-03  86.4884065855847    
1.600000000000000e+01  1.173761907460771e-03  -9.950419332420793e+01  9.986636075512341e-01  -9.627248746741564e-01  9.986636075512341e-01  -9.627248746741564e-01  1.940675261261446e-03  88.228610639407     
1.650000000000000e+01  1.196002084810765e-03  -1.008648768362398e+02  9.986356392796752e-01  -9.916870865484937e-01  9.986356392796752e-01  -9.916870865484937e-01  2.013333292100925e-03  88.9177944412756    
1.700000000000000e+01  1.218126605086775e-03  -1.021792861690819e+02  9.986078452111818e-01  -1.020615395443570e+00  9.986078452111818e-01  -1.020615395443570e+00  2.086797663535423e-03  89.5585703702179    
1.750000000000000e+01  1.240138361807922e-03  -1.034504678093835e+02  9.985802206097768e-01  -1.049511521393026e+00  9.985802206097768e-01  -1.049511521393026e+00  2.161017388970760e-03  90.1551513401017    