
!*************************************************************************
!! ASITIC Ver 10.20.99.0.0.0
!!  Data generated by the <2Port> command in <slow> mode.
!! Generated on Thu Apr 11 17:21:13 1974
!# Spiral Data:	Name = <BL_180-S>, Balun
!# L1 = 158.00, L2 = 22.00, Origin = <111.00,212.00>
!# Sides =   4, Metal =   4, Exit Metal =   3
!# W =  8.00, S = 14.00, N =  0.00
!# Theta =  0.00, Phase =   1
!# Technolog File Data <CMOS.tek> @ <.>
!# Auto-Cell Mode:  <alpha> = 0.050000, <beta> = 0.800000
!# Metal Layers
!# Name=M1        Met=0  Lyr=  1  Mz=48.70  T=0.50  RS=0.07  Col=YELLOW  
!# Name=M2        Met=1  Lyr=  1  Mz=47.60  T=0.50  RS=0.06  Col=LIGHTSKYBLUE1
!# Name=M3        Met=2  Lyr=  1  Mz=46.50  T=0.50  RS=0.06  Col=MEDIUM PURPLE
!# Name=M4        Met=3  Lyr=  1  Mz=45.50  T=0.50  RS=0.06  Col=LIGHT GREEN
!# Name=M5        Met=4  Lyr=  1  Mz=44.00  T=1.00  RS=0.03  Col=GREY    
!# Substrate Layers
!# Lyr=    0  Eps=  12  Rho=  10  DZ=7.5e+02  T=7e+02
!# Lyr=    1  Eps= 3.9  Rho=1e+14  DZ=  50  T=  50
!*************************************************************************
# GHZ S MA S11 mag    S11 phase  S12 mag    S12 phase  S21 mag    S21 phase  S22 mag    S22 phase  
1.000000000000000e+00  8.282563033874358e-04  -2.898778008105716e+00  9.991727464140496e-01  -6.025391492976957e-02  9.991727464140496e-01  -6.025391492976957e-02  8.401225668857118e-04  10.0743514833162    
1.500000000000000e+00  8.331435999910433e-04  -4.354570960406774e+00  9.991691325218605e-01  -9.035647176626120e-02  9.991691325218605e-01  -9.035647176626120e-02  8.593189728203364e-04  14.8345276567578    
2.000000000000000e+00  8.336446027037257e-04  -5.351737653376544e+00  9.991697716967575e-01  -1.208532054942117e-01  9.991697716967575e-01  -1.208532054942117e-01  8.824372202359826e-04  19.8706386848957    
2.500000000000000e+00  8.400751032453314e-04  -6.420845411210388e+00  9.991648609928683e-01  -1.512532177583250e-01  9.991648609928683e-01  -1.512532177583250e-01  9.163083652951776e-04  24.3753101648748    
3.000000000000000e+00  8.467098498196051e-04  -7.743015388060697e+00  9.991605265429380e-01  -1.814274664252466e-01  9.991605265429380e-01  -1.814274664252466e-01  9.529987698648396e-04  28.3451014537699    
3.500000000000000e+00  8.583169599500005e-04  -9.771926954711475e+00  9.991534399560921e-01  -2.109445873208997e-01  9.991534399560921e-01  -2.109445873208997e-01  9.901744957476490e-04  31.3594466578322    
4.000000000000000e+00  8.680298860874857e-04  -1.122044893968126e+01  9.991476441691757e-01  -2.409420721125686e-01  9.991476441691757e-01  -2.409420721125686e-01  1.033528949508951e-03  34.5738619783096    
4.500000000000000e+00  8.700008330832628e-04  -1.112984040590753e+01  9.991452870914547e-01  -2.723263147669190e-01  9.991452870914547e-01  -2.723263147669190e-01  1.092106028112900e-03  38.6365970570227    
5.000000000000000e+00  8.798322381723697e-04  -1.241778824440726e+01  9.991394128084735e-01  -3.024369857064929e-01  9.991394128084735e-01  -3.024369857064929e-01  1.143336284603985e-03  41.3303653690196    
5.500000000000000e+00  9.088067379361632e-04  -1.364979714680975e+01  9.991152123979350e-01  -3.323229491575118e-01  9.991152123979350e-01  -3.323229491575118e-01  1.207401930552865e-03  43.05157168281      
6.000000000000000e+00  9.231591251344252e-04  -1.495145822744319e+01  9.991061105569727e-01  -3.622949474391868e-01  9.991061105569727e-01  -3.622949474391868e-01  1.262808691576971e-03  45.1302938620919    
6.500000000000000e+00  9.383188948004996e-04  -1.625111138211489e+01  9.990968181774388e-01  -3.922271409850151e-01  9.990968181774388e-01  -3.922271409850151e-01  1.319322818444329e-03  47.0067370078042    
7.000000000000000e+00  9.322365160075727e-04  -1.814152324824378e+01  9.991113288058227e-01  -4.219639768043747e-01  9.991113288058227e-01  -4.219639768043747e-01  1.359005565232777e-03  49.3917818820548    
7.500000000000001e+00  9.459051332573955e-04  -1.946134545889278e+01  9.991049245076599e-01  -4.518682041757799e-01  9.991049245076599e-01  -4.518682041757799e-01  1.416158184370266e-03  51.0462767091626    
8.000000000000000e+00  9.601056088479847e-04  -2.076884734568417e+01  9.990985979701993e-01  -4.817483977857067e-01  9.990985979701993e-01  -4.817483977857067e-01  1.473989171096920e-03  52.5651495200351    
8.500000000000000e+00  9.719790838634718e-04  -2.052918718769941e+01  9.990857410333255e-01  -5.130594084592663e-01  9.990857410333255e-01  -5.130594084592663e-01  1.556848751358941e-03  54.3104210199358    
9.000000000000000e+00  9.866083981027569e-04  -2.176513668796568e+01  9.990791952619669e-01  -5.429588881620721e-01  9.990791952619669e-01  -5.429588881620721e-01  1.617037939161913e-03  55.579758192454     
9.500000000000000e+00  1.001654882003645e-03  -2.298631906661016e+01  9.990727902860900e-01  -5.728389227851850e-01  9.990727902860900e-01  -5.728389227851850e-01  1.677575856668241e-03  56.7564499725938    
1.000000000000000e+01  1.017102694993698e-03  -2.419079261142200e+01  9.990665321611675e-01  -6.027014695049113e-01  9.990665321611675e-01  -6.027014695049113e-01  1.738409503969653e-03  57.8507929602314    
1.050000000000000e+01  1.115513130175489e-03  -2.755865036488650e+01  9.990040880732224e-01  -6.283671583712356e-01  9.990040880732224e-01  -6.283671583712356e-01  1.767685765560886e-03  56.0934656030673    
1.100000000000000e+01  1.080339881120258e-03  -2.733532087404874e+01  9.990330688625666e-01  -6.608297450134801e-01  9.990330688625666e-01  -6.608297450134801e-01  1.848215442063682e-03  58.8345278249073    
1.150000000000000e+01  1.099482623019388e-03  -2.848831820650889e+01  9.990256919558940e-01  -6.905382150577837e-01  9.990256919558940e-01  -6.905382150577837e-01  1.908289383409480e-03  59.6983225735617    
1.200000000000000e+01  1.074294182690893e-03  -2.841905261291489e+01  9.990468738599656e-01  -7.226099252453942e-01  9.990468738599656e-01  -7.226099252453942e-01  1.991426904038085e-03  61.8042696406774    
1.250000000000000e+01  1.090893155484089e-03  -2.951650762716687e+01  9.990416371558439e-01  -7.524407186188820e-01  9.990416371558439e-01  -7.524407186188820e-01  2.053752021275662e-03  62.6018586909911    
1.300000000000000e+01  1.107810493837753e-03  -3.059209704381312e+01  9.990365381055749e-01  -7.822626448289912e-01  9.990365381055749e-01  -7.822626448289912e-01  2.116231074270954e-03  63.3549247084742    
1.350000000000000e+01  1.125037330470058e-03  -3.164550784076377e+01  9.990315716720201e-01  -8.120765240154842e-01  9.990315716720201e-01  -8.120765240154842e-01  2.178850594347064e-03  64.0673257917331    
1.400000000000000e+01  1.151791187628140e-03  -3.365835278343710e+01  9.990295049496024e-01  -8.406479846705779e-01  9.990295049496024e-01  -8.406479846705779e-01  2.220885837357571e-03  64.5751073127336    
1.450000000000000e+01  1.170206160426493e-03  -3.467293200425602e+01  9.990249002697610e-01  -8.704113230207273e-01  9.990249002697610e-01  -8.704113230207273e-01  2.283051805432342e-03  65.222642004765     
1.500000000000000e+01  1.188914632606905e-03  -3.566372213776238e+01  9.990204068871934e-01  -9.001689839675315e-01  9.990204068871934e-01  -9.001689839675315e-01  2.345339786161407e-03  65.8383330802378    
1.550000000000000e+01  1.207907492847244e-03  -3.663093562670111e+01  9.990160195601930e-01  -9.299214413401103e-01  9.990160195601930e-01  -9.299214413401103e-01  2.407741346017670e-03  66.4245997640198    
1.600000000000000e+01  1.227413199778404e-03  -3.728776685459853e+01  9.990078725508774e-01  -9.599439315268452e-01  9.990078725508774e-01  -9.599439315268452e-01  2.476151619431175e-03  66.9432821291874    
1.650000000000000e+01  1.246989145289218e-03  -3.820594661290307e+01  9.990034789967128e-01  -9.896894692130485e-01  9.990034789967128e-01  -9.896894692130485e-01  2.538854001747607e-03  67.4727940199389    
1.700000000000000e+01  1.266825050828561e-03  -3.910184897737597e+01  9.989991773991160e-01  -1.019430500068066e+00  9.989991773991160e-01  -1.019430500068066e+00  2.601639288559661e-03  67.9789526613567    
1.750000000000000e+01  1.286912285452889e-03  -3.997588172910760e+01  9.989949638676315e-01  -1.049167334116381e+00  9.989949638676315e-01  -1.049167334116381e+00  2.664502012685322e-03  68.4633695198378    