
!*************************************************************************
!! ASITIC Ver 10.20.99.0.0.0
!!  Data generated by the <2Port> command in <slow> mode.
!! Generated on Thu Apr 11 17:21:13 1974
!# Spiral Data:	Name = <BL_200-S>, Balun
!# L1 = 178.00, L2 = 22.00, Origin = <111.00,122.00>
!# Sides =   4, Metal =   4, Exit Metal =   3
!# W =  8.00, S = 14.00, N =  1.00
!# Theta =  0.00, Phase =   1
!# Technolog File Data <CMOS.tek> @ <.>
!# Auto-Cell Mode:  <alpha> = 0.050000, <beta> = 0.800000
!# Metal Layers
!# Name=M1        Met=0  Lyr=  1  Mz=48.70  T=0.50  RS=0.07  Col=YELLOW  
!# Name=M2        Met=1  Lyr=  1  Mz=47.60  T=0.50  RS=0.06  Col=LIGHTSKYBLUE1
!# Name=M3        Met=2  Lyr=  1  Mz=46.50  T=0.50  RS=0.06  Col=MEDIUM PURPLE
!# Name=M4        Met=3  Lyr=  1  Mz=45.50  T=0.50  RS=0.06  Col=LIGHT GREEN
!# Name=M5        Met=4  Lyr=  1  Mz=44.00  T=1.00  RS=0.03  Col=GREY    
!# Substrate Layers
!# Lyr=    0  Eps=  12  Rho=  10  DZ=7.5e+02  T=7e+02
!# Lyr=    1  Eps= 3.9  Rho=1e+14  DZ=  50  T=  50
!*************************************************************************
# GHZ S MA S11 mag    S11 phase  S12 mag    S12 phase  S21 mag    S21 phase  S22 mag    S22 phase  
1.000000000000000e+00  2.845052025410036e-02  2.964692440069752e+01  9.757299341830818e-01  -2.308879337347646e+00  9.757299341830818e-01  -2.308879337347646e+00  2.955924336787826e-02  33.4170604601982    
1.500000000000000e+00  3.309492617689626e-02  3.950739215259908e+01  9.754732185060135e-01  -3.462248887682813e+00  9.754732185060135e-01  -3.462248887682813e+00  3.522624001708504e-02  43.7854985311938    
2.000000000000000e+00  3.883018763786328e-02  4.660154013514001e+01  9.751056035606235e-01  -4.627578172386754e+00  9.751056035606235e-01  -4.627578172386754e+00  4.205567737139276e-02  50.9134496633652    
2.500000000000000e+00  4.517530435686098e-02  5.140644041201656e+01  9.746048133432111e-01  -5.791839633888494e+00  9.746048133432111e-01  -5.791839633888494e+00  4.948957484972296e-02  55.6300952116123    
3.000000000000000e+00  5.171115198380345e-02  5.461362510948138e+01  9.740414100695142e-01  -6.945061348362832e+00  9.740414100695142e-01  -6.945061348362832e+00  5.709613931295589e-02  58.7650194423094    
3.500000000000000e+00  5.858146011828218e-02  5.681480179467360e+01  9.733473149465935e-01  -8.103222870552239e+00  9.733473149465935e-01  -8.103222870552239e+00  6.501391572592718e-02  60.9044953523379    
4.000000000000000e+00  6.544784878232777e-02  5.826703347814950e+01  9.726048526443524e-01  -9.252055896423027e+00  9.726048526443524e-01  -9.252055896423027e+00  7.290943057262078e-02  62.3423967527726    
4.500000000000000e+00  7.264051117539053e-02  5.927440003579483e+01  9.717726846468305e-01  -1.041384677349806e+01  9.717726846468305e-01  -1.041384677349806e+01  8.110954520881943e-02  63.3418023516001    
5.000000000000000e+00  7.962829059224927e-02  5.982630517068433e+01  9.708814116960478e-01  -1.155856079353334e+01  9.708814116960478e-01  -1.155856079353334e+01  8.908750737847673e-02  63.9379302096666    
5.500000000000000e+00  8.680167136105110e-02  6.003494613947758e+01  9.697845727181673e-01  -1.270836707969412e+01  9.697845727181673e-01  -1.270836707969412e+01  9.721981932080402e-02  64.2118523138345    
6.000000000000000e+00  9.379215603788367e-02  6.007624653045919e+01  9.687445178300889e-01  -1.384731167238739e+01  9.687445178300889e-01  -1.384731167238739e+01  1.051622212059569e-01  64.3399390837543    
6.500000000000000e+00  1.007580677402070e-01  5.994932357789215e+01  9.676465602019984e-01  -1.498311549860447e+01  9.676465602019984e-01  -1.498311549860447e+01  1.130619843113554e-01  64.3150248094107    
7.000000000000000e+00  1.077876632422162e-01  5.976694820424657e+01  9.666042245598004e-01  -1.612321432531495e+01  9.666042245598004e-01  -1.612321432531495e+01  1.210151808141366e-01  64.2319463450093    
7.500000000000001e+00  1.146888949449727e-01  5.940578064331700e+01  9.654195058014234e-01  -1.725332606270365e+01  9.654195058014234e-01  -1.725332606270365e+01  1.288149895007069e-01  63.9948725141374    
8.000000000000000e+00  1.215473467589517e-01  5.895836024087964e+01  9.641883735746961e-01  -1.838036138644383e+01  9.641883735746961e-01  -1.838036138644383e+01  1.365531519926262e-01  63.6802069966177    
8.500000000000000e+00  1.286137538009120e-01  5.843634216302947e+01  9.628468770013100e-01  -1.951825964555875e+01  9.628468770013100e-01  -1.951825964555875e+01  1.444698158138161e-01  63.2891029791527    
9.000000000000000e+00  1.353892428298506e-01  5.785769769593971e+01  9.615255930911161e-01  -2.063984062410404e+01  9.615255930911161e-01  -2.063984062410404e+01  1.520848305908000e-01  62.8566681793165    
9.500000000000000e+00  1.421134689443160e-01  5.723008766553200e+01  9.601651254666400e-01  -2.175838410078173e+01  9.601651254666400e-01  -2.175838410078173e+01  1.596280301725251e-01  62.3804906221189    
1.000000000000000e+01  1.487845870852344e-01  5.656116790224321e+01  9.587675458598495e-01  -2.287389932101476e+01  9.587675458598495e-01  -2.287389932101476e+01  1.670969466530831e-01  61.8674835278481    
1.050000000000000e+01  1.553444340862146e-01  5.573710811039423e+01  9.570349378417833e-01  -2.397909049385840e+01  9.570349378417833e-01  -2.397909049385840e+01  1.744027191845366e-01  61.2199056544133    
1.100000000000000e+01  1.633232468196134e-01  5.522172860588192e+01  9.558752099365779e-01  -2.517597959651640e+01  9.558752099365779e-01  -2.517597959651640e+01  1.831501831786862e-01  60.7959123542708    
1.150000000000000e+01  1.698910069567772e-01  5.445990426046914e+01  9.543776758524618e-01  -2.628621700833228e+01  9.543776758524618e-01  -2.628621700833228e+01  1.904478123744125e-01  60.1989436446591    
1.200000000000000e+01  1.765462141430138e-01  5.371796587957350e+01  9.529444397445747e-01  -2.740278672141328e+01  9.529444397445747e-01  -2.740278672141328e+01  1.978156919531445e-01  59.6129835929966    
1.250000000000000e+01  1.830051093654857e-01  5.291511336337990e+01  9.513936028469728e-01  -2.850754167413178e+01  9.513936028469728e-01  -2.850754167413178e+01  2.049571372124498e-01  58.9793633112179    
1.300000000000000e+01  1.894029831999827e-01  5.209520561447592e+01  9.498157475313295e-01  -2.960924163439444e+01  9.498157475313295e-01  -2.960924163439444e+01  2.120125723807030e-01  58.3306653555112    
1.350000000000000e+01  1.957386451021261e-01  5.126038798281107e+01  9.482126673158384e-01  -3.070786839331828e+01  9.482126673158384e-01  -3.070786839331828e+01  2.189801906817757e-01  57.6688073331472    
1.400000000000000e+01  2.019125006052922e-01  5.041044806414935e+01  9.465918121900293e-01  -3.179723133526659e+01  9.465918121900293e-01  -3.179723133526659e+01  2.257595901019453e-01  56.9950271707349    
1.450000000000000e+01  2.081174956301896e-01  4.955136465826253e+01  9.449442575871585e-01  -3.288945810026578e+01  9.449442575871585e-01  -3.288945810026578e+01  2.325436535580339e-01  56.3118218199693    
1.500000000000000e+01  2.142571236456194e-01  4.868220384767778e+01  9.432769589432959e-01  -3.397856382761297e+01  9.432769589432959e-01  -3.397856382761297e+01  2.392350014592984e-01  55.6197624005859    
1.550000000000000e+01  2.203304158845525e-01  4.780418701688128e+01  9.415917830065644e-01  -3.506453493415525e+01  9.415917830065644e-01  -3.506453493415525e+01  2.458321170090645e-01  54.9199333037295    
1.600000000000000e+01  2.263355799213237e-01  4.690746838653671e+01  9.398456555332090e-01  -3.614640584681982e+01  9.398456555332090e-01  -3.614640584681982e+01  2.523251589519408e-01  54.2024231589341    
1.650000000000000e+01  2.322721655514822e-01  4.601472019240135e+01  9.381287304972862e-01  -3.722595455566490e+01  9.381287304972862e-01  -3.722595455566490e+01  2.587278892770008e-01  53.4896846778014    
1.700000000000000e+01  2.381397816468861e-01  4.511599156842696e+01  9.363996410928778e-01  -3.830233813459389e+01  9.363996410928778e-01  -3.830233813459389e+01  2.650322268043711e-01  52.7717188317516    
1.750000000000000e+01  2.439376791347687e-01  4.421202655434026e+01  9.346602976719474e-01  -3.937555384638630e+01  9.346602976719474e-01  -3.937555384638630e+01  2.712369524702153e-01  52.0491796751212    