
!*************************************************************************
!! ASITIC Ver 10.20.99.0.0.0
!!  Data generated by the <2Port> command in <slow> mode.
!! Generated on Thu Apr 11 17:21:13 1974
!# Spiral Data:	Name = <BL_200-S>, Balun
!# L1 = 178.00, L2 = 22.00, Origin = <111.00,122.00>
!# Sides =   4, Metal =   2, Exit Metal =   1
!# W =  8.00, S = 14.00, N =  1.00
!# Theta =  0.00, Phase =   1
!# Technolog File Data <BiCMOS.tek> @ <.>
!# Auto-Cell Mode:  <alpha> = 0.050000, <beta> = 0.800000
!# Metal Layers
!# Name=MSUB      Met=0  Lyr=  1  Mz=50.00  T=0.40  RS=0.04  Col=BLUE    
!# Name=M2        Met=1  Lyr=  2  Mz=47.00  T=0.80  RS=0.05  Col=GREEN   
!# Name=M3        Met=2  Lyr=  2  Mz=45.00  T=2.00  RS=0.02  Col=RED     
!# Substrate Layers
!# Lyr=    0  Eps=  12  Rho=1e+05  DZ=8.5e+02  T=8e+02
!# Lyr=    1  Eps=  12  Rho=1e+03  DZ=  52  T=   2
!# Lyr=    2  Eps=   4  Rho=1e+14  DZ=  50  T=  50
!*************************************************************************
# GHZ S MA S11 mag    S11 phase  S12 mag    S12 phase  S21 mag    S21 phase  S22 mag    S22 phase  
1.000000000000000e+00  1.893356908110759e-02  4.120741339926645e+01  9.815196832095575e-01  -2.319536092973451e+00  9.815196832095575e-01  -2.319536092973451e+00  2.082464278924076e-02  45.5443401278721    
1.500000000000000e+00  2.343102338479827e-02  5.832344374030279e+01  9.788470731154814e-01  -3.442700323779770e+00  9.788470731154814e-01  -3.442700323779770e+00  2.676665168687517e-02  60.8459100779809    
2.000000000000000e+00  3.001598202132658e-02  7.026004745410449e+01  9.755982031472963e-01  -4.514848916837236e+00  9.755982031472963e-01  -4.514848916837236e+00  3.451310773530929e-02  70.8137795976844    
2.500000000000000e+00  3.866231400204241e-02  7.777837414607976e+01  9.720004791050524e-01  -5.558846670834162e+00  9.720004791050524e-01  -5.558846670834162e+00  4.401212553637842e-02  77.0264630254238    
3.000000000000000e+00  4.832560751501621e-02  8.208385169909971e+01  9.682795980153099e-01  -6.549225416517725e+00  9.682795980153099e-01  -6.549225416517725e+00  5.433878442929838e-02  80.6496887353926    
3.500000000000000e+00  5.904536819542650e-02  8.429284972770151e+01  9.644647255853167e-01  -7.519395929524912e+00  9.644647255853167e-01  -7.519395929524912e+00  6.560054857968736e-02  82.5739835771152    
4.000000000000000e+00  7.309782025488371e-02  8.505424048867961e+01  9.606193161879526e-01  -8.630739529307101e+00  9.606193161879526e-01  -8.630739529307101e+00  8.013179900781177e-02  83.3551340747808    
4.500000000000000e+00  8.475154426870936e-02  8.526222793041242e+01  9.569835119788861e-01  -9.563311939827463e+00  9.569835119788861e-01  -9.563311939827463e+00  9.224068027735463e-02  83.5886431439771    
5.000000000000000e+00  9.656347255731103e-02  8.504545143709929e+01  9.535098715895871e-01  -1.048089978751686e+01  9.535098715895871e-01  -1.048089978751686e+01  1.044904372584934e-01  83.4506061894609    
5.500000000000000e+00  1.084355823346117e-01  8.453163529199009e+01  9.501344558665035e-01  -1.138735378781537e+01  9.501344558665035e-01  -1.138735378781537e+01  1.167915389671411e-01  83.0448437034023    
6.000000000000000e+00  1.204095159985431e-01  8.379456434586929e+01  9.467814274503907e-01  -1.229200612234380e+01  9.467814274503907e-01  -1.229200612234380e+01  1.291877791363330e-01  82.4336856236608    
6.500000000000000e+00  1.322415739937712e-01  8.296559240999044e+01  9.435280490308442e-01  -1.318470118155224e+01  9.435280490308442e-01  -1.318470118155224e+01  1.414439491494910e-01  81.7318950569415    
7.000000000000000e+00  1.440021721547731e-01  8.205821401478086e+01  9.403056509840642e-01  -1.407278451945076e+01  9.403056509840642e-01  -1.407278451945076e+01  1.536287884022768e-01  80.9522530682497    
7.500000000000001e+00  1.555974563391344e-01  8.104892825171976e+01  9.369477320124563e-01  -1.495339986646998e+01  9.369477320124563e-01  -1.495339986646998e+01  1.656501036618185e-01  80.0716054981822    
8.000000000000000e+00  1.671552812510680e-01  8.006150697631867e+01  9.337156017541499e-01  -1.583412440235459e+01  9.337156017541499e-01  -1.583412440235459e+01  1.776329642638596e-01  79.2063678937092    
8.500000000000000e+00  1.786043174416921e-01  7.905690296261167e+01  9.304611122682841e-01  -1.671220076683205e+01  9.304611122682841e-01  -1.671220076683205e+01  1.895070282130508e-01  78.3199291955954    
9.000000000000000e+00  1.899395968519305e-01  7.804378625878448e+01  9.271716802641566e-01  -1.758783748271970e+01  9.271716802641566e-01  -1.758783748271970e+01  2.012668143970271e-01  77.4207359655488    
9.500000000000000e+00  2.012160822011050e-01  7.705586357636396e+01  9.239382411245146e-01  -1.846389663014795e+01  9.239382411245146e-01  -1.846389663014795e+01  2.129614543155265e-01  76.5406096728698    
1.000000000000000e+01  2.123228234448605e-01  7.604213189603951e+01  9.205585884405700e-01  -1.933527037010398e+01  9.205585884405700e-01  -1.933527037010398e+01  2.244898000757261e-01  75.6324407198134    
1.050000000000000e+01  2.246226887887950e-01  7.495690410916869e+01  9.169368833831720e-01  -2.028654034562630e+01  9.169368833831720e-01  -2.028654034562630e+01  2.372108277702904e-01  74.656951346912     
1.100000000000000e+01  2.355475775675757e-01  7.394990760534139e+01  9.134074552624755e-01  -2.115717875211283e+01  9.134074552624755e-01  -2.115717875211283e+01  2.485521871659458e-01  73.7475309323804    
1.150000000000000e+01  2.462613966760750e-01  7.293474780411563e+01  9.097384244321122e-01  -2.201991020079295e+01  9.097384244321122e-01  -2.201991020079295e+01  2.596770339394351e-01  72.8270711864129    
1.200000000000000e+01  2.569294244203150e-01  7.194220797462719e+01  9.060625069885855e-01  -2.288454650457441e+01  9.060625069885855e-01  -2.288454650457441e+01  2.707538129183770e-01  71.9256240341242    
1.250000000000000e+01  2.674708307903099e-01  7.095768514919709e+01  9.023114798894314e-01  -2.374614932782361e+01  9.023114798894314e-01  -2.374614932782361e+01  2.816994098410884e-01  71.0293137004068    
1.300000000000000e+01  2.778846319545001e-01  6.998146647102965e+01  8.984843550274865e-01  -2.460454213210273e+01  8.984843550274865e-01  -2.460454213210273e+01  2.925123593671090e-01  70.1386432343361    
1.350000000000000e+01  2.878287732390188e-01  6.899178246346212e+01  8.944500374872595e-01  -2.543843811335623e+01  8.944500374872595e-01  -2.543843811335623e+01  3.028496823472978e-01  69.2329519913215    
1.400000000000000e+01  2.979662462828937e-01  6.803296083970372e+01  8.904682572499552e-01  -2.628861238849627e+01  8.904682572499552e-01  -2.628861238849627e+01  3.133746644090189e-01  68.3549829144713    
1.450000000000000e+01  3.079732327882421e-01  6.708268774639203e+01  8.864114980508445e-01  -2.713503094400401e+01  8.864114980508445e-01  -2.713503094400401e+01  3.237628450779550e-01  67.4834483685363    
1.500000000000000e+01  3.178488922344162e-01  6.614091149237002e+01  8.822808899850286e-01  -2.797752876260778e+01  8.822808899850286e-01  -2.797752876260778e+01  3.340130167111212e-01  66.6184490297803    
1.550000000000000e+01  3.275924223453145e-01  6.520755435685155e+01  8.780779087969884e-01  -2.881594678316603e+01  8.780779087969884e-01  -2.881594678316603e+01  3.441240344753644e-01  65.76004557243      
1.600000000000000e+01  3.373387584798409e-01  6.429329686806953e+01  8.738750182144973e-01  -2.965836024583659e+01  8.738750182144973e-01  -2.965836024583659e+01  3.542268906460505e-01  64.9179420632771    
1.650000000000000e+01  3.468227504374962e-01  6.337630262375344e+01  8.695336077206838e-01  -3.048865418902132e+01  8.695336077206838e-01  -3.048865418902132e+01  3.640634240066367e-01  64.0725841234377    
1.700000000000000e+01  3.561725509113638e-01  6.246741080800275e+01  8.651256309069767e-01  -3.131444027108851e+01  8.651256309069767e-01  -3.131444027108851e+01  3.737578515142314e-01  63.2338479707907    
1.750000000000000e+01  3.653875819261795e-01  6.156651797064408e+01  8.606534927719461e-01  -3.213558729172446e+01  8.606534927719461e-01  -3.213558729172446e+01  3.833093370353314e-01  62.4017237767281    