
!*************************************************************************
!! ASITIC Ver 10.20.99.0.0.0
!!  Data generated by the <2Port> command in <slow> mode.
!! Generated on Thu Apr 11 17:21:13 1974
!# Spiral Data:	Name = <BL_200-P>, Balun
!# L1 = 200.00, L2 = 22.00, Origin = <100.00,100.00>
!# Sides =   4, Metal =   2, Exit Metal =   1
!# W =  8.00, S = 14.00, N =  2.00
!# Theta =  0.00, Phase =   1
!# Technolog File Data <BiCMOS.tek> @ <.>
!# Auto-Cell Mode:  <alpha> = 0.050000, <beta> = 0.800000
!# Metal Layers
!# Name=MSUB      Met=0  Lyr=  1  Mz=50.00  T=0.40  RS=0.04  Col=BLUE    
!# Name=M2        Met=1  Lyr=  2  Mz=47.00  T=0.80  RS=0.05  Col=GREEN   
!# Name=M3        Met=2  Lyr=  2  Mz=45.00  T=2.00  RS=0.02  Col=RED     
!# Substrate Layers
!# Lyr=    0  Eps=  12  Rho=1e+05  DZ=8.5e+02  T=8e+02
!# Lyr=    1  Eps=  12  Rho=1e+03  DZ=  52  T=   2
!# Lyr=    2  Eps=   4  Rho=1e+14  DZ=  50  T=  50
!*************************************************************************
# GHZ S MA S11 mag    S11 phase  S12 mag    S12 phase  S21 mag    S21 phase  S22 mag    S22 phase  
1.000000000000000e+00  6.261869902418796e-02  5.438244155921883e+01  9.533104273943824e-01  -5.799602753220122e+00  9.533104273943824e-01  -5.799602753220122e+00  6.432831095725872e-02  55.6226729315866    
1.500000000000000e+00  8.837299549736480e-02  6.550644099721937e+01  9.443372313473116e-01  -8.524716672067939e+00  9.443372313473116e-01  -8.524716672067939e+00  9.144478428340791e-02  66.1190914169454    
2.000000000000000e+00  1.184270134719517e-01  7.043131159696132e+01  9.342126946536380e-01  -1.108501980833864e+01  9.342126946536380e-01  -1.108501980833864e+01  1.224445482000027e-01  70.6297446395542    
2.500000000000000e+00  1.510443442581515e-01  7.204988615615045e+01  9.233927138313839e-01  -1.355097890816129e+01  9.233927138313839e-01  -1.355097890816129e+01  1.557427845246058e-01  72.0504235241536    
3.000000000000000e+00  1.842701298636660e-01  7.200127136293830e+01  9.123543857043434e-01  -1.592751975835608e+01  9.123543857043434e-01  -1.592751975835608e+01  1.895171185645297e-01  71.9258709861296    
3.500000000000000e+00  2.177863952024593e-01  7.095912132898280e+01  9.006718768483998e-01  -1.826816161529095e+01  9.006718768483998e-01  -1.826816161529095e+01  2.235111622299103e-01  70.8728546635656    
4.000000000000000e+00  2.556003471502199e-01  6.926091906191890e+01  8.877800575356405e-01  -2.087565977021626e+01  8.877800575356405e-01  -2.087565977021626e+01  2.617922370002786e-01  69.2009767645678    
4.500000000000000e+00  2.880810064004866e-01  6.750482679852634e+01  8.753176989033407e-01  -2.315905001316289e+01  8.753176989033407e-01  -2.315905001316289e+01  2.946936023055383e-01  67.4774695243905    
5.000000000000000e+00  3.195010692572479e-01  6.561131647534592e+01  8.624068744473158e-01  -2.540074565604321e+01  8.624068744473158e-01  -2.540074565604321e+01  3.265173558319382e-01  65.623782307393     
5.500000000000000e+00  3.498688226757840e-01  6.364515135226085e+01  8.490225053108915e-01  -2.760739378171085e+01  8.490225053108915e-01  -2.760739378171085e+01  3.572722993343428e-01  63.7007587162089    
6.000000000000000e+00  3.790443712207552e-01  6.163454339977153e+01  8.350913539490513e-01  -2.977250602376452e+01  8.350913539490513e-01  -2.977250602376452e+01  3.868169538777903e-01  61.7347074024725    
6.500000000000000e+00  4.071687354780985e-01  5.963157706906568e+01  8.208111764172760e-01  -3.190661909402663e+01  8.208111764172760e-01  -3.190661909402663e+01  4.152949700225217e-01  59.7762416966884    
7.000000000000000e+00  4.341558730375092e-01  5.763833988746865e+01  8.061342619038642e-01  -3.400386094024409e+01  8.061342619038642e-01  -3.400386094024409e+01  4.426179241449956e-01  57.8270713171712    
7.500000000000001e+00  4.600177095523448e-01  5.565714127459228e+01  7.910414457141310e-01  -3.606430627902211e+01  7.910414457141310e-01  -3.606430627902211e+01  4.687952192840115e-01  55.889235395146     
8.000000000000000e+00  4.847328846874142e-01  5.371015733603202e+01  7.756958917423861e-01  -3.808528002954526e+01  7.756958917423861e-01  -3.808528002954526e+01  4.938080087119568e-01  53.9847117097055    
8.500000000000000e+00  5.083295904955382e-01  5.179444604009903e+01  7.600919142824110e-01  -4.006726512346819e+01  7.600919142824110e-01  -4.006726512346819e+01  5.176823419161657e-01  52.1105319761392    
9.000000000000000e+00  5.308262810856570e-01  4.991294249791009e+01  7.442782106881862e-01  -4.200990709490273e+01  7.442782106881862e-01  -4.200990709490273e+01  5.404362670992945e-01  50.2696212359252    
9.500000000000000e+00  5.520254047529403e-01  4.805174205034077e+01  7.281461911964595e-01  -4.389600548294118e+01  7.281461911964595e-01  -4.389600548294118e+01  5.618689515633430e-01  48.4483770226967    
1.000000000000000e+01  5.723742790074287e-01  4.624415353085001e+01  7.120535277856872e-01  -4.575767981399513e+01  7.120535277856872e-01  -4.575767981399513e+01  5.824334297180013e-01  46.6795603654664    
1.050000000000000e+01  5.932144163171225e-01  4.438816417542506e+01  6.950438173514691e-01  -4.770639526761556e+01  6.950438173514691e-01  -4.770639526761556e+01  6.034730495578428e-01  44.8619301193693    
1.100000000000000e+01  6.115625071406926e-01  4.265386137672399e+01  6.787927644989340e-01  -4.949375060368339e+01  6.787927644989340e-01  -4.949375060368339e+01  6.219949063143925e-01  43.1646299053257    
1.150000000000000e+01  6.287946021698223e-01  4.096871865376604e+01  6.626643117566767e-01  -5.122848310943982e+01  6.626643117566767e-01  -5.122848310943982e+01  6.393800184856729e-01  41.5156243336928    
1.200000000000000e+01  6.452593834391631e-01  3.931058343804764e+01  6.464661314058778e-01  -5.293880607336769e+01  6.464661314058778e-01  -5.293880607336769e+01  6.559782213965073e-01  39.8929045811917    
1.250000000000000e+01  6.608360276158377e-01  3.768962551200189e+01  6.303379426178557e-01  -5.461182155483993e+01  6.303379426178557e-01  -5.461182155483993e+01  6.716685832116610e-01  38.3065998700391    
1.300000000000000e+01  6.755613730915325e-01  3.610515619255074e+01  6.143066214345483e-01  -5.624838169250870e+01  6.143066214345483e-01  -5.624838169250870e+01  6.864883577014341e-01  36.7560394723693    
1.350000000000000e+01  6.894591001644494e-01  3.455168398647149e+01  5.983395484909841e-01  -5.784801434580491e+01  5.983395484909841e-01  -5.784801434580491e+01  7.004597966873353e-01  35.2355890482165    
1.400000000000000e+01  7.025914279697122e-01  3.303774291707715e+01  5.825689992333680e-01  -5.941437672006094e+01  5.825689992333680e-01  -5.941437672006094e+01  7.136493426672738e-01  33.7541015412831    
1.450000000000000e+01  7.149826045573381e-01  3.155764105612245e+01  5.669570455287183e-01  -6.094728756142447e+01  5.669570455287183e-01  -6.094728756142447e+01  7.260798559425932e-01  32.3057431252924    
1.500000000000000e+01  7.266682294011698e-01  3.011037200057015e+01  5.515185156570470e-01  -6.244785348567890e+01  5.515185156570470e-01  -6.244785348567890e+01  7.377874245470649e-01  30.8895127434382    
1.550000000000000e+01  7.376830141964953e-01  2.869489416729890e+01  5.362657194638524e-01  -6.391721572780554e+01  5.362657194638524e-01  -6.391721572780554e+01  7.488072482467781e-01  29.5043715832584    
1.600000000000000e+01  7.478031275599418e-01  2.732197530068688e+01  5.213520168920801e-01  -6.532740142715130e+01  5.213520168920801e-01  -6.532740142715130e+01  7.589158188858862e-01  28.1612749872384    
1.650000000000000e+01  7.575765864410298e-01  2.596724028888452e+01  5.065050865910814e-01  -6.673700183157541e+01  5.065050865910814e-01  -6.673700183157541e+01  7.686620617388822e-01  26.8354866815492    
1.700000000000000e+01  7.667770047741527e-01  2.464105784817373e+01  4.918676489012804e-01  -6.811894235088698e+01  4.918676489012804e-01  -6.811894235088698e+01  7.778197790495606e-01  25.5375445823422    
1.750000000000000e+01  7.754343325989339e-01  2.334234784064150e+01  4.774440341517501e-01  -6.947442242720014e+01  4.774440341517501e-01  -6.947442242720014e+01  7.864193662449620e-01  24.2663630841647    