
!*************************************************************************
!! ASITIC Ver 10.20.99.0.0.0
!!  Data generated by the <2Port> command in <slow> mode.
!! Generated on Thu Apr 11 17:21:13 1974
!# Spiral Data:	Name = <BL_180-P>, Balun
!# L1 = 180.00, L2 = 22.00, Origin = <100.00,100.00>
!# Sides =   4, Metal =   4, Exit Metal =   3
!# W =  8.00, S = 14.00, N =  1.00
!# Theta =  0.00, Phase =   1
!# Technolog File Data <CMOS.tek> @ <.>
!# Auto-Cell Mode:  <alpha> = 0.050000, <beta> = 0.800000
!# Metal Layers
!# Name=M1        Met=0  Lyr=  1  Mz=48.70  T=0.50  RS=0.07  Col=YELLOW  
!# Name=M2        Met=1  Lyr=  1  Mz=47.60  T=0.50  RS=0.06  Col=LIGHTSKYBLUE1
!# Name=M3        Met=2  Lyr=  1  Mz=46.50  T=0.50  RS=0.06  Col=MEDIUM PURPLE
!# Name=M4        Met=3  Lyr=  1  Mz=45.50  T=0.50  RS=0.06  Col=LIGHT GREEN
!# Name=M5        Met=4  Lyr=  1  Mz=44.00  T=1.00  RS=0.03  Col=GREY    
!# Substrate Layers
!# Lyr=    0  Eps=  12  Rho=  10  DZ=7.5e+02  T=7e+02
!# Lyr=    1  Eps= 3.9  Rho=1e+14  DZ=  50  T=  50
!*************************************************************************
# GHZ S MA S11 mag    S11 phase  S12 mag    S12 phase  S21 mag    S21 phase  S22 mag    S22 phase  
1.000000000000000e+00  2.900728041618811e-02  3.031632189329424e+01  9.754351323626568e-01  -2.329987113144393e+00  9.754351323626568e-01  -2.329987113144393e+00  3.008718124145332e-02  33.8478807846764    
1.500000000000000e+00  3.390963743968194e-02  4.024040305912116e+01  9.751673143091465e-01  -3.493869337471657e+00  9.751673143091465e-01  -3.493869337471657e+00  3.597708525078065e-02  44.2210656523927    
2.000000000000000e+00  3.993407247147540e-02  4.730119972817111e+01  9.747838978905812e-01  -4.669968370913705e+00  9.747838978905812e-01  -4.669968370913705e+00  4.305316568685237e-02  51.2979619579081    
2.500000000000000e+00  4.657439293533942e-02  5.204115427812029e+01  9.742625492041308e-01  -5.844786217430628e+00  9.742625492041308e-01  -5.844786217430628e+00  5.073724590574636e-02  55.948964688988     
3.000000000000000e+00  5.340408153112355e-02  5.518265699825806e+01  9.736748346109954e-01  -7.008410036051307e+00  9.736748346109954e-01  -7.008410036051307e+00  5.859287281344332e-02  59.0223347593784    
3.500000000000000e+00  6.062385771670508e-02  5.735014535770028e+01  9.729568579988814e-01  -8.180634249642683e+00  9.729568579988814e-01  -8.180634249642683e+00  6.681621157107348e-02  61.1277452240393    
4.000000000000000e+00  6.778973003819609e-02  5.874564790594523e+01  9.721833055947701e-01  -9.340261047227283e+00  9.721833055947701e-01  -9.340261047227283e+00  7.496727157037575e-02  62.5134339598436    
4.500000000000000e+00  7.517338269743354e-02  5.961053155770163e+01  9.712479888176372e-01  -1.050471813588447e+01  9.712479888176372e-01  -1.050471813588447e+01  8.330970011147665e-02  63.3913382777835    
5.000000000000000e+00  8.243939908659680e-02  6.011314825135208e+01  9.703026109494775e-01  -1.165901034826785e+01  9.703026109494775e-01  -1.165901034826785e+01  9.152236530396883e-02  63.9405164146999    
5.500000000000000e+00  8.992836240135750e-02  6.034779618312355e+01  9.692351561372032e-01  -1.282246718640213e+01  9.692351561372032e-01  -1.282246718640213e+01  9.993374918615090e-02  64.2310396965094    
6.000000000000000e+00  9.719193168278681e-02  6.035411924108949e+01  9.681486331340370e-01  -1.397107568453363e+01  9.681486331340370e-01  -1.397107568453363e+01  1.081078207332204e-01  64.322807263868     
6.500000000000000e+00  1.044262662281803e-01  6.019553809626900e+01  9.670012542254641e-01  -1.511638126466755e+01  9.670012542254641e-01  -1.511638126466755e+01  1.162350796803203e-01  64.2637724590976    
7.000000000000000e+00  1.117226351400851e-01  5.998125000386331e+01  9.659061535305122e-01  -1.626593807749811e+01  9.659061535305122e-01  -1.626593807749811e+01  1.244138608733540e-01  64.1464836857266    
7.500000000000001e+00  1.188826757633921e-01  5.959337621080564e+01  9.646666102678890e-01  -1.740521677652146e+01  9.646666102678890e-01  -1.740521677652146e+01  1.324323782561373e-01  63.8785458391425    
8.000000000000000e+00  1.259947568929937e-01  5.912125982290111e+01  9.633782583124240e-01  -1.854123833734220e+01  9.633782583124240e-01  -1.854123833734220e+01  1.403844991338789e-01  63.5343404948874    
8.500000000000000e+00  1.333112061961479e-01  5.857535986904614e+01  9.619760164789234e-01  -1.968803304064400e+01  9.619760164789234e-01  -1.968803304064400e+01  1.485117578797891e-01  63.1145867393383    
9.000000000000000e+00  1.403294611788372e-01  5.797531917471649e+01  9.605931689469560e-01  -2.081822465008308e+01  9.605931689469560e-01  -2.081822465008308e+01  1.563307292897602e-01  62.6548114916597    
9.500000000000000e+00  1.472907804734284e-01  5.732763290554369e+01  9.591692900955213e-01  -2.194518281170214e+01  9.591692900955213e-01  -2.194518281170214e+01  1.640726447177642e-01  62.1521853299346    
1.000000000000000e+01  1.541931680338465e-01  5.663980847022849e+01  9.577066335050672e-01  -2.306891260350199e+01  9.577066335050672e-01  -2.306891260350199e+01  1.717348937605259e-01  61.613531198471     
1.050000000000000e+01  1.610467520197887e-01  5.584556100615201e+01  9.560091253686256e-01  -2.418752357381431e+01  9.560091253686256e-01  -2.418752357381431e+01  1.793078457136419e-01  60.9796421915093    
1.100000000000000e+01  1.692398492461427e-01  5.527796925331914e+01  9.547190967084441e-01  -2.539099715191976e+01  9.547190967084441e-01  -2.539099715191976e+01  1.882230461708746e-01  60.5051967816368    
1.150000000000000e+01  1.760250720261755e-01  5.450051679373385e+01  9.531549839359581e-01  -2.650912202021222e+01  9.531549839359581e-01  -2.650912202021222e+01  1.957019145314198e-01  59.8849075313795    
1.200000000000000e+01  1.828377141151626e-01  5.372173415117789e+01  9.516021807482963e-01  -2.762960868013541e+01  9.516021807482963e-01  -2.762960868013541e+01  2.031864310711115e-01  59.259160303181     
1.250000000000000e+01  1.894970354785467e-01  5.290429941493890e+01  9.499799998821650e-01  -2.874155542106974e+01  9.499799998821650e-01  -2.874155542106974e+01  2.104926748731324e-01  58.603037450643     
1.300000000000000e+01  1.960886911758533e-01  5.207049387996253e+01  9.483301964982851e-01  -2.985022764664373e+01  9.483301964982851e-01  -2.985022764664373e+01  2.177068093869923e-01  57.9323526732499    
1.350000000000000e+01  2.026113905744607e-01  5.122241843695654e+01  9.466547458176773e-01  -3.095560565318824e+01  9.466547458176773e-01  -3.095560565318824e+01  2.248269506005162e-01  57.2489980027412    
1.400000000000000e+01  2.089155333677247e-01  5.035775215683520e+01  9.449614310425846e-01  -3.204851779081408e+01  9.449614310425846e-01  -3.204851779081408e+01  2.317029155472966e-01  56.5534811884205    
1.450000000000000e+01  2.152915015084613e-01  4.948685881879538e+01  9.432422109866856e-01  -3.314692117755538e+01  9.432422109866856e-01  -3.314692117755538e+01  2.386247648297087e-01  55.8499960942456    
1.500000000000000e+01  2.215951508845239e-01  4.860643116803273e+01  9.415034355738908e-01  -3.424198312603308e+01  9.415034355738908e-01  -3.424198312603308e+01  2.454476024168602e-01  55.1380934427022    
1.550000000000000e+01  2.278254542338163e-01  4.771766223077660e+01  9.397471413430074e-01  -3.533369066968918e+01  9.397471413430074e-01  -3.533369066968918e+01  2.521698795218275e-01  54.4188407758039    
1.600000000000000e+01  2.340296789137026e-01  4.681379666412262e+01  9.379335947342398e-01  -3.642404747964720e+01  9.379335947342398e-01  -3.642404747964720e+01  2.588314241829611e-01  53.6837171815949    
1.650000000000000e+01  2.401111649953727e-01  4.591093209701428e+01  9.361455556910908e-01  -3.750900866844094e+01  9.361455556910908e-01  -3.750900866844094e+01  2.653485243490432e-01  52.9520125637002    
1.700000000000000e+01  2.461164900302652e-01  4.500253004018043e+01  9.343461400845713e-01  -3.859058603414069e+01  9.343461400845713e-01  -3.859058603414069e+01  2.717607906344418e-01  52.2154566602266    
1.750000000000000e+01  2.520448755726581e-01  4.408931572964568e+01  9.325374189134370e-01  -3.966877901395334e+01  9.325374189134370e-01  -3.966877901395334e+01  2.780670026240563e-01  51.4746920539404    