
!*************************************************************************
!! ASITIC Ver 10.20.99.0.0.0
!!  Data generated by the <2Port> command in <slow> mode.
!! Generated on Thu Apr 11 17:21:13 1974
!# Spiral Data:	Name = <BL_250-P>, Balun
!# L1 = 250.00, L2 = 26.00, Origin = <100.00,100.00>
!# Sides =   4, Metal =   4, Exit Metal =   3
!# W = 10.00, S = 16.00, N =  2.00
!# Theta =  0.00, Phase =   1
!# Technolog File Data <CMOS.tek> @ <.>
!# Auto-Cell Mode:  <alpha> = 0.050000, <beta> = 0.800000
!# Metal Layers
!# Name=M1        Met=0  Lyr=  1  Mz=48.70  T=0.50  RS=0.07  Col=YELLOW  
!# Name=M2        Met=1  Lyr=  1  Mz=47.60  T=0.50  RS=0.06  Col=LIGHTSKYBLUE1
!# Name=M3        Met=2  Lyr=  1  Mz=46.50  T=0.50  RS=0.06  Col=MEDIUM PURPLE
!# Name=M4        Met=3  Lyr=  1  Mz=45.50  T=0.50  RS=0.06  Col=LIGHT GREEN
!# Name=M5        Met=4  Lyr=  1  Mz=44.00  T=1.00  RS=0.03  Col=GREY    
!# Substrate Layers
!# Lyr=    0  Eps=  12  Rho=  10  DZ=7.5e+02  T=7e+02
!# Lyr=    1  Eps= 3.9  Rho=1e+14  DZ=  50  T=  50
!*************************************************************************
# GHZ S MA S11 mag    S11 phase  S12 mag    S12 phase  S21 mag    S21 phase  S22 mag    S22 phase  
1.000000000000000e+00  8.700536085884507e-02  4.569689014009639e+01  9.457533575728886e-01  -7.623198041047003e+00  9.457533575728886e-01  -7.623198041047003e+00  8.870846908093696e-02  47.2976043212469    
1.500000000000000e+00  1.163842498992410e-01  5.200782382188253e+01  9.424264055081319e-01  -1.141655223160224e+01  9.424264055081319e-01  -1.141655223160224e+01  1.194975121821091e-01  53.7023443551254    
2.000000000000000e+00  1.470894217085699e-01  5.408475392382051e+01  9.379473030594970e-01  -1.516810159138599e+01  9.379473030594970e-01  -1.516810159138599e+01  1.515223856681190e-01  55.8618043738885    
2.500000000000000e+00  1.782665760578336e-01  5.408383197059457e+01  9.322722897334637e-01  -1.889693157523481e+01  9.322722897334637e-01  -1.889693157523481e+01  1.839070525770490e-01  55.9725615644828    
3.000000000000000e+00  2.088566500493115e-01  5.297738664364794e+01  9.257395806712395e-01  -2.257265751652489e+01  9.257395806712395e-01  -2.257265751652489e+01  2.155957308547391e-01  55.0072529474515    
3.500000000000000e+00  2.384448626713445e-01  5.123392953403782e+01  9.184949562884520e-01  -2.618515202633778e+01  9.184949562884520e-01  -2.618515202633778e+01  2.461706668560893e-01  53.4277226173508    
4.000000000000000e+00  2.673036122688509e-01  4.911139642640335e+01  9.105846912870328e-01  -2.975890112876122e+01  9.105846912870328e-01  -2.975890112876122e+01  2.758985369076940e-01  51.4799257243158    
4.500000000000000e+00  2.949436009419364e-01  4.673414827032611e+01  9.021297882592909e-01  -3.326823691924253e+01  9.021297882592909e-01  -3.326823691924253e+01  3.042812146889914e-01  49.2895092266396    
5.000000000000000e+00  3.211755458525559e-01  4.421717074118085e+01  8.933830445821787e-01  -3.670578112842143e+01  8.933830445821787e-01  -3.670578112842143e+01  3.311312951267220e-01  46.9677083976512    
5.500000000000000e+00  3.462642501390016e-01  4.159719710610871e+01  8.842871423787998e-01  -4.008791561081171e+01  8.842871423787998e-01  -4.008791561081171e+01  3.567024525797943e-01  44.5473249188958    
6.000000000000000e+00  3.699489828547698e-01  3.893735909337689e+01  8.751355866953701e-01  -4.340114654925274e+01  8.751355866953701e-01  -4.340114654925274e+01  3.807393541490973e-01  42.0908771674027    
6.500000000000000e+00  3.926406219471145e-01  3.624122740827969e+01  8.658204606388650e-01  -4.667011316409300e+01  8.658204606388650e-01  -4.667011316409300e+01  4.036428878717308e-01  39.5978587230125    
7.000000000000000e+00  4.137860979084133e-01  3.354663436053652e+01  8.566518275214299e-01  -4.986131767896509e+01  8.566518275214299e-01  -4.986131767896509e+01  4.248663973583966e-01  37.1099850189309    
7.500000000000001e+00  4.336876479649014e-01  3.085664360005428e+01  8.476018587713038e-01  -5.299291082037348e+01  8.476018587713038e-01  -5.299291082037348e+01  4.447080697566806e-01  34.6272770183991    
8.000000000000000e+00  4.523833453064520e-01  2.816526797564820e+01  8.386183046519897e-01  -5.606556025979570e+01  8.386183046519897e-01  -5.606556025979570e+01  4.631961633924346e-01  32.1436442482815    
8.500000000000000e+00  4.698964442851011e-01  2.550724304964726e+01  8.299935822258950e-01  -5.908304430708468e+01  8.299935822258950e-01  -5.908304430708468e+01  4.803734220407529e-01  29.6923713624539    
9.000000000000000e+00  4.864765665967836e-01  2.288136872908424e+01  8.217063173000448e-01  -6.206010019684431e+01  8.217063173000448e-01  -6.206010019684431e+01  4.964925289656258e-01  27.2695823425871    
9.500000000000000e+00  5.017822943736183e-01  2.027197094523565e+01  8.137226129388268e-01  -6.497363981112913e+01  8.137226129388268e-01  -6.497363981112913e+01  5.111940063881435e-01  24.8644975684159    
1.000000000000000e+01  5.160479436419683e-01  1.768923025714975e+01  8.061162396942645e-01  -6.783879959756455e+01  8.061162396942645e-01  -6.783879959756455e+01  5.247232127836928e-01  22.4843552358922    
1.050000000000000e+01  5.293698377652296e-01  1.512413668314654e+01  7.988106330548508e-01  -7.066044758926495e+01  7.988106330548508e-01  -7.066044758926495e+01  5.371708880772226e-01  20.119391899105     
1.100000000000000e+01  5.431990553002348e-01  1.257964391225814e+01  7.917372474213115e-01  -7.353710981883187e+01  7.917372474213115e-01  -7.353710981883187e+01  5.499970695299422e-01  17.7600685874775    
1.150000000000000e+01  5.546391899067297e-01  1.007589768350215e+01  7.854027066532085e-01  -7.627549143210256e+01  7.854027066532085e-01  -7.627549143210256e+01  5.603174996312033e-01  15.4511923829802    
1.200000000000000e+01  5.652030000018101e-01  7.597182884545570e+00  7.795046432910971e-01  -7.897428294685763e+01  7.795046432910971e-01  -7.897428294685763e+01  5.696415387406196e-01  13.1636627671802    
1.250000000000000e+01  5.749519857532523e-01  5.142835504899030e+00  7.741106059614061e-01  -8.164090443177035e+01  7.741106059614061e-01  -8.164090443177035e+01  5.780292433235494e-01  10.8977205714154    
1.300000000000000e+01  5.839126998573819e-01  2.710886777802740e+00  7.692005931878696e-01  -8.427605932662033e+01  7.692005931878696e-01  -8.427605932662033e+01  5.855119010132400e-01  8.65047318261709    
1.350000000000000e+01  5.920877676912055e-01  2.999047245708220e-01  7.647449907412819e-01  -8.687837204601769e+01  7.647449907412819e-01  -8.687837204601769e+01  5.920937789492547e-01  6.42004944730847    
1.400000000000000e+01  5.995733775125490e-01  -2.092131271023446e+00  7.608111471667616e-01  -8.945889796143224e+01  7.608111471667616e-01  -8.945889796143224e+01  5.978769359529539e-01  4.20426334424528    
1.450000000000000e+01  6.063664223665536e-01  -4.467100098189609e+00  7.573672556070243e-01  -9.201636436501781e+01  7.573672556070243e-01  -9.201636436501781e+01  6.028599425564838e-01  2.00077408630494    
1.500000000000000e+01  6.124367737827380e-01  -6.828778389790946e+00  7.543435492804516e-01  -9.454681053531262e+01  7.543435492804516e-01  -9.454681053531262e+01  6.070122834668011e-01  -0.194896106302091  
1.550000000000000e+01  6.179187871232008e-01  -9.175111428157559e+00  7.518674117650801e-01  -9.706583070157787e+01  7.518674117650801e-01  -9.706583070157787e+01  6.104791611269165e-01  -2.38052069774514   
1.600000000000000e+01  6.214011989652111e-01  -1.144572122256885e+01  7.504690912407112e-01  -9.949981261337176e+01  7.504690912407112e-01  -9.949981261337176e+01  6.132342945144115e-01  -5.21796601963757   
1.650000000000000e+01  6.255381234435110e-01  -1.377091384289590e+01  7.489151042923381e-01  -1.019859602269473e+02  7.489151042923381e-01  -1.019859602269473e+02  6.153860807178395e-01  -7.35882299607982   
1.700000000000000e+01  6.291884964072489e-01  -1.608094388282478e+01  7.478217187795345e-01  -1.044628071205889e+02  7.478217187795345e-01  -1.044628071205889e+02  6.169545543939843e-01  -9.48513027642357   
1.750000000000000e+01  6.322518847235734e-01  -1.839246824284408e+01  7.471645550318360e-01  -1.069294577477822e+02  7.471645550318360e-01  -1.069294577477822e+02  6.178098696078401e-01  -11.6125184943867   