
!*************************************************************************
!! ASITIC Ver 10.20.99.0.0.0
!!  Data generated by the <2Port> command in <slow> mode.
!! Generated on Thu Apr 11 17:21:13 1974
!# Spiral Data:	Name = <BL_200-P>, Balun
!# L1 = 200.00, L2 = 22.00, Origin = <100.00,100.00>
!# Sides =   4, Metal =   4, Exit Metal =   3
!# W =  8.00, S = 14.00, N =  2.00
!# Theta =  0.00, Phase =   1
!# Technolog File Data <CMOS.tek> @ <.>
!# Auto-Cell Mode:  <alpha> = 0.050000, <beta> = 0.800000
!# Metal Layers
!# Name=M1        Met=0  Lyr=  1  Mz=48.70  T=0.50  RS=0.07  Col=YELLOW  
!# Name=M2        Met=1  Lyr=  1  Mz=47.60  T=0.50  RS=0.06  Col=LIGHTSKYBLUE1
!# Name=M3        Met=2  Lyr=  1  Mz=46.50  T=0.50  RS=0.06  Col=MEDIUM PURPLE
!# Name=M4        Met=3  Lyr=  1  Mz=45.50  T=0.50  RS=0.06  Col=LIGHT GREEN
!# Name=M5        Met=4  Lyr=  1  Mz=44.00  T=1.00  RS=0.03  Col=GREY    
!# Substrate Layers
!# Lyr=    0  Eps=  12  Rho=  10  DZ=7.5e+02  T=7e+02
!# Lyr=    1  Eps= 3.9  Rho=1e+14  DZ=  50  T=  50
!*************************************************************************
# GHZ S MA S11 mag    S11 phase  S12 mag    S12 phase  S21 mag    S21 phase  S22 mag    S22 phase  
1.000000000000000e+00  7.731039969992994e-02  4.139986232242057e+01  9.461325560674613e-01  -5.817968921030912e+00  9.461325560674613e-01  -5.817968921030912e+00  7.816573630998061e-02  42.649685102281     
1.500000000000000e+00  9.964575992656950e-02  4.942651379705764e+01  9.439900640483194e-01  -8.712614020797631e+00  9.439900640483194e-01  -8.712614020797631e+00  1.014502656233353e-01  50.815504342371     
2.000000000000000e+00  1.241299181610094e-01  5.327514033563823e+01  9.409621240470845e-01  -1.160287080619566e+01  9.409621240470845e-01  -1.160287080619566e+01  1.268764214302513e-01  54.7119761387919    
2.500000000000000e+00  1.494716810197497e-01  5.482169473510232e+01  9.370905012376708e-01  -1.447944587675801e+01  9.370905012376708e-01  -1.447944587675801e+01  1.531043125019323e-01  56.3063681779622    
3.000000000000000e+00  1.746411702168038e-01  5.506460838819724e+01  9.326244688297228e-01  -1.731558938120186e+01  9.326244688297228e-01  -1.731558938120186e+01  1.791040785667225e-01  56.6169876190137    
3.500000000000000e+00  1.999036595382437e-01  5.454224465784891e+01  9.275157475052729e-01  -2.014356003863675e+01  9.275157475052729e-01  -2.014356003863675e+01  2.051400835411616e-01  56.1743143353217    
4.000000000000000e+00  2.244338141818637e-01  5.349381700403995e+01  9.218716393684464e-01  -2.292147862118177e+01  9.218716393684464e-01  -2.292147862118177e+01  2.303846228335438e-01  55.2218990819202    
4.500000000000000e+00  2.485883402860406e-01  5.209347655954799e+01  9.156082065251215e-01  -2.567581257467577e+01  9.156082065251215e-01  -2.567581257467577e+01  2.551896870057621e-01  53.9260463535102    
5.000000000000000e+00  2.718930691900556e-01  5.048841573074392e+01  9.090440595209821e-01  -2.838427457626460e+01  9.090440595209821e-01  -2.838427457626460e+01  2.790873426765020e-01  52.4338838873966    
5.500000000000000e+00  2.947198269238302e-01  4.873356090826650e+01  9.020954861152721e-01  -3.107065324788558e+01  9.020954861152721e-01  -3.107065324788558e+01  3.024437177291476e-01  50.79522568854      
6.000000000000000e+00  3.165613701707586e-01  4.687020985984115e+01  8.948906340705929e-01  -3.370528082343590e+01  8.948906340705929e-01  -3.370528082343590e+01  3.247506186270557e-01  49.0540039406995    
6.500000000000000e+00  3.376132003440754e-01  4.493540806918975e+01  8.874595649284773e-01  -3.630119494059207e+01  8.874595649284773e-01  -3.630119494059207e+01  3.462016795844909e-01  47.2442585430184    
7.000000000000000e+00  3.580303025214245e-01  4.291141026496403e+01  8.795746980625307e-01  -3.886594138811097e+01  8.795746980625307e-01  -3.886594138811097e+01  3.669385547685850e-01  45.3471848086113    
7.500000000000001e+00  3.774558718185072e-01  4.089700433692514e+01  8.718337338139071e-01  -4.138300191711424e+01  8.718337338139071e-01  -4.138300191711424e+01  3.866259494270627e-01  43.4614755676906    
8.000000000000000e+00  3.960669384802351e-01  3.886563915441946e+01  8.640274337810779e-01  -4.386091847945778e+01  8.640274337810779e-01  -4.386091847945778e+01  4.054297208662113e-01  41.5597608241572    
8.500000000000000e+00  4.138202148193513e-01  3.684743104999624e+01  8.563488010557950e-01  -4.629782317017730e+01  8.563488010557950e-01  -4.629782317017730e+01  4.233122887538776e-01  39.6717910954351    
9.000000000000000e+00  4.308275083653220e-01  3.480996461476804e+01  8.485597566020460e-01  -4.869888286295311e+01  8.485597566020460e-01  -4.869888286295311e+01  4.403741257551489e-01  37.7646853477855    
9.500000000000000e+00  4.470518533463286e-01  3.277774438770765e+01  8.408313143541498e-01  -5.106242293354022e+01  8.408313143541498e-01  -5.106242293354022e+01  4.565835203661009e-01  35.8626992040475    
1.000000000000000e+01  4.625104422265652e-01  3.075482488611324e+01  8.331978394167733e-01  -5.338927389875864e+01  8.331978394167733e-01  -5.338927389875864e+01  4.719579716730392e-01  33.9696204184338    
1.050000000000000e+01  4.777448821013844e-01  2.872917514106042e+01  8.254948720510186e-01  -5.571419495333992e+01  8.254948720510186e-01  -5.571419495333992e+01  4.870371204106393e-01  32.0691123724923    
1.100000000000000e+01  4.934095058622887e-01  2.671661123390869e+01  8.178075432850668e-01  -5.808284913002733e+01  8.178075432850668e-01  -5.808284913002733e+01  5.024714068787764e-01  30.174393556764     
1.150000000000000e+01  5.067444025705879e-01  2.473405518097260e+01  8.106023577033588e-01  -6.030996492616677e+01  8.106023577033588e-01  -6.030996492616677e+01  5.155180147976282e-01  28.3186000263998    
1.200000000000000e+01  5.191683657686438e-01  2.277137066512288e+01  8.036296628387372e-01  -6.248787673721110e+01  8.036296628387372e-01  -6.248787673721110e+01  5.275864511632925e-01  26.4826326141125    
1.250000000000000e+01  5.311536674789079e-01  2.082421663347314e+01  7.968432850242326e-01  -6.465039518075066e+01  7.968432850242326e-01  -6.465039518075066e+01  5.391522055821347e-01  24.6596160775836    
1.300000000000000e+01  5.425027414951638e-01  1.889513811030863e+01  7.902904836568051e-01  -6.678284997165849e+01  7.902904836568051e-01  -6.678284997165849e+01  5.500177718809538e-01  22.8530790402663    
1.350000000000000e+01  5.532390376499182e-01  1.698416865535633e+01  7.839849894546019e-01  -6.888657023068575e+01  7.839849894546019e-01  -6.888657023068575e+01  5.602078383779250e-01  21.0628864965312    
1.400000000000000e+01  5.635291733622184e-01  1.508459599328317e+01  7.778394013142547e-01  -7.097145611933580e+01  7.778394013142547e-01  -7.097145611933580e+01  5.698904133525796e-01  19.2802121619769    
1.450000000000000e+01  5.731104177404163e-01  1.320910160676139e+01  7.720572420702538e-01  -7.302186140220091e+01  7.720572420702538e-01  -7.302186140220091e+01  5.788043309915436e-01  17.52138675133      
1.500000000000000e+01  5.821460504366138e-01  1.135072285980078e+01  7.665515655458680e-01  -7.504761503096212e+01  7.665515655458680e-01  -7.504761503096212e+01  5.871140827925899e-01  15.7774120780602    
1.550000000000000e+01  5.906569320196157e-01  9.508865165567382e+00  7.613287532777165e-01  -7.705009241076887e+01  7.613287532777165e-01  -7.705009241076887e+01  5.948420254795526e-01  14.0475253614254    
1.600000000000000e+01  5.984952821879215e-01  7.678245323483381e+00  7.563283742119856e-01  -7.901632940625557e+01  7.563283742119856e-01  -7.901632940625557e+01  6.018369575189527e-01  12.3267327650574    
1.650000000000000e+01  6.060105390719709e-01  5.867588176357300e+00  7.516833853165903e-01  -8.097579927772958e+01  7.516833853165903e-01  -8.097579927772958e+01  6.084597525529996e-01  10.6226708067988    
1.700000000000000e+01  6.130577328823772e-01  4.071229804851862e+00  7.473325927538430e-01  -8.291607323869326e+01  7.473325927538430e-01  -8.291607323869326e+01  6.145622545221293e-01  8.92994897700037    
1.750000000000000e+01  6.196535130672547e-01  2.288328567178825e+00  7.432777423357684e-01  -8.483848229351227e+01  7.432777423357684e-01  -8.483848229351227e+01  6.201628412823439e-01  7.2475404096584     