
!*************************************************************************
!! ASITIC Ver 10.20.99.0.0.0
!!  Data generated by the <2Port> command in <slow> mode.
!! Generated on Thu Apr 11 17:21:13 1974
!# Spiral Data:	Name = <BL_180-P>, Balun
!# L1 = 180.00, L2 = 22.00, Origin = <100.00,100.00>
!# Sides =   4, Metal =   2, Exit Metal =   1
!# W =  8.00, S = 14.00, N =  1.00
!# Theta =  0.00, Phase =   1
!# Technolog File Data <BiCMOS.tek> @ <.>
!# Auto-Cell Mode:  <alpha> = 0.050000, <beta> = 0.800000
!# Metal Layers
!# Name=MSUB      Met=0  Lyr=  1  Mz=50.00  T=0.40  RS=0.04  Col=BLUE    
!# Name=M2        Met=1  Lyr=  2  Mz=47.00  T=0.80  RS=0.05  Col=GREEN   
!# Name=M3        Met=2  Lyr=  2  Mz=45.00  T=2.00  RS=0.02  Col=RED     
!# Substrate Layers
!# Lyr=    0  Eps=  12  Rho=1e+05  DZ=8.5e+02  T=8e+02
!# Lyr=    1  Eps=  12  Rho=1e+03  DZ=  52  T=   2
!# Lyr=    2  Eps=   4  Rho=1e+14  DZ=  50  T=  50
!*************************************************************************
# GHZ S MA S11 mag    S11 phase  S12 mag    S12 phase  S21 mag    S21 phase  S22 mag    S22 phase  
1.000000000000000e+00  1.951029322960408e-02  4.199478139582233e+01  9.813318067638572e-01  -2.340044038308215e+00  9.813318067638572e-01  -2.340044038308215e+00  2.133678018992550e-02  46.0041087763758    
1.500000000000000e+00  2.433211963427066e-02  5.872387899360338e+01  9.786624611801839e-01  -3.474056025613256e+00  9.786624611801839e-01  -3.474056025613256e+00  2.753543569882692e-02  61.0554089791814    
2.000000000000000e+00  3.120326417630938e-02  7.022547239928824e+01  9.754144172342788e-01  -4.557252859863859e+00  9.754144172342788e-01  -4.557252859863859e+00  3.551959415821564e-02  70.7791595028259    
2.500000000000000e+00  4.009622893662274e-02  7.745576589270563e+01  9.718114139671320e-01  -5.612800039522405e+00  9.718114139671320e-01  -5.612800039522405e+00  4.523909442437878e-02  76.8270190410244    
3.000000000000000e+00  4.997610081730916e-02  8.160887287072201e+01  9.680791225916854e-01  -6.614767250757470e+00  9.680791225916854e-01  -6.614767250757470e+00  5.576943052295320e-02  80.3551787416248    
3.500000000000000e+00  6.090286141679214e-02  8.374912574834909e+01  9.642441468894480e-01  -7.596823684058098e+00  9.642441468894480e-01  -7.596823684058098e+00  6.723019024110236e-02  82.228985948181     
4.000000000000000e+00  7.519003768256577e-02  8.450046367716486e+01  9.603639820017094e-01  -8.722064719495462e+00  9.603639820017094e-01  -8.722064719495462e+00  8.198786889376740e-02  82.9899322985245    
4.500000000000000e+00  8.708752298446786e-02  8.469696545223053e+01  9.566905187317908e-01  -9.669273188582475e+00  9.566905187317908e-01  -9.669273188582475e+00  9.433365481437228e-02  83.207417887227     
5.000000000000000e+00  9.910070394099932e-02  8.448059825994589e+01  9.531730094797286e-01  -1.059910703955396e+01  9.531730094797286e-01  -1.059910703955396e+01  1.067785022800916e-01  83.0609771619583    
5.500000000000000e+00  1.111720459408015e-01  8.397210085714526e+01  9.497468871873234e-01  -1.151769773401078e+01  9.497468871873234e-01  -1.151769773401078e+01  1.192721498543508e-01  82.650541750696     
6.000000000000000e+00  1.232143358939468e-01  8.322047418404317e+01  9.462759999061947e-01  -1.242702569974495e+01  9.462759999061947e-01  -1.242702569974495e+01  1.317326882658736e-01  82.0144691459151    
6.500000000000000e+00  1.352251541457287e-01  8.239870620549020e+01  9.429519531753400e-01  -1.333063161008630e+01  9.429519531753400e-01  -1.333063161008630e+01  1.441599138294994e-01  81.3101658359929    
7.000000000000000e+00  1.471609122220010e-01  8.149823132917230e+01  9.396534079909014e-01  -1.422939504433228e+01  9.396534079909014e-01  -1.422939504433228e+01  1.565116505613503e-01  80.5282806659188    
7.500000000000001e+00  1.590281293971354e-01  8.052864537187374e+01  9.363118497527333e-01  -1.512587006399711e+01  9.363118497527333e-01  -1.512587006399711e+01  1.687924104502408e-01  79.6771788304482    
8.000000000000000e+00  1.707651218364219e-01  7.954781332899005e+01  9.330048352009701e-01  -1.601748792106860e+01  9.330048352009701e-01  -1.601748792106860e+01  1.809451512756480e-01  78.8106017496262    
8.500000000000000e+00  1.823893563233576e-01  7.854887183879970e+01  9.296713248797397e-01  -1.690624786194357e+01  9.296713248797397e-01  -1.690624786194357e+01  1.929847883685406e-01  77.9224860288856    
9.000000000000000e+00  1.938955387838074e-01  7.754052179137128e+01  9.262990277082200e-01  -1.779234985157592e+01  9.262990277082200e-01  -1.779234985157592e+01  2.049055668422734e-01  77.0212638953665    
9.500000000000000e+00  2.053384345469093e-01  7.655584409238381e+01  9.229787222413419e-01  -1.867867887482772e+01  9.229787222413419e-01  -1.867867887482772e+01  2.167563651355475e-01  76.1381855706202    
1.000000000000000e+01  2.166066349043814e-01  7.554527307520651e+01  9.195092830392462e-01  -1.956006042155208e+01  9.195092830392462e-01  -1.956006042155208e+01  2.284358014606760e-01  75.2273272871151    
1.050000000000000e+01  2.290752727471403e-01  7.446332060236077e+01  9.157872134387918e-01  -2.052196108896006e+01  9.157872134387918e-01  -2.052196108896006e+01  2.413141624938476e-01  74.2488556463318    
1.100000000000000e+01  2.401512889509044e-01  7.345813043149370e+01  9.121615118272146e-01  -2.140214343353312e+01  9.121615118272146e-01  -2.140214343353312e+01  2.527959448571764e-01  73.3361925028764    
1.150000000000000e+01  2.510090439257527e-01  7.244454287646917e+01  9.083938796340186e-01  -2.227402714003527e+01  9.083938796340186e-01  -2.227402714003527e+01  2.640536894327984e-01  72.4125677335564    
1.200000000000000e+01  2.618167716764634e-01  7.145289051855050e+01  9.046170246335673e-01  -2.314767893834584e+01  9.046170246335673e-01  -2.314767893834584e+01  2.752592917388759e-01  71.5075723440333    
1.250000000000000e+01  2.724919700644147e-01  7.046889557603954e+01  9.007631002851453e-01  -2.401802775098946e+01  9.007631002851453e-01  -2.401802775098946e+01  2.863277567541169e-01  70.6076159349836    
1.300000000000000e+01  2.830335278186514e-01  6.949290663223289e+01  8.968313877698899e-01  -2.488489174833124e+01  8.968313877698899e-01  -2.488489174833124e+01  2.972575144914023e-01  69.713237677406     
1.350000000000000e+01  2.931765872742496e-01  6.851068545554344e+01  8.927324325667698e-01  -2.573159342497330e+01  8.927324325667698e-01  -2.573159342497330e+01  3.077821486536806e-01  68.8108342530416    
1.400000000000000e+01  3.034341052444168e-01  6.755156745493566e+01  8.886444510158708e-01  -2.658998743284302e+01  8.886444510158708e-01  -2.658998743284302e+01  3.184163041660765e-01  67.9290201812607    
1.450000000000000e+01  3.135548925308075e-01  6.660083725264656e+01  8.844804704621750e-01  -2.744434487173741e+01  8.844804704621750e-01  -2.744434487173741e+01  3.289074517655228e-01  67.0536563589694    
1.500000000000000e+01  3.235380530031762e-01  6.565848489191330e+01  8.802418809182668e-01  -2.829449719101236e+01  8.802418809182668e-01  -2.829449719101236e+01  3.392543447406398e-01  66.1848695628749    
1.550000000000000e+01  3.333827472722163e-01  6.472447017528353e+01  8.759304152122939e-01  -2.914028239857305e+01  8.759304152122939e-01  -2.914028239857305e+01  3.494558166800577e-01  65.3227440793843    
1.600000000000000e+01  3.431219271322481e-01  6.380285975840469e+01  8.715751882388174e-01  -2.998338797226891e+01  8.715751882388174e-01  -2.998338797226891e+01  3.595410637592485e-01  64.4709234069471    
1.650000000000000e+01  3.526896043383303e-01  6.288530716271471e+01  8.671248758916350e-01  -3.082012441294530e+01  8.671248758916350e-01  -3.082012441294530e+01  3.694506836625363e-01  63.6222178640375    
1.700000000000000e+01  3.621167499086913e-01  6.197587625960862e+01  8.626083787932276e-01  -3.165205660090767e+01  8.626083787932276e-01  -3.165205660090767e+01  3.792119680408181e-01  62.7802669830162    
1.750000000000000e+01  3.714028234452874e-01  6.107448689930497e+01  8.580283387584844e-01  -3.247905332695316e+01  8.580283387584844e-01  -3.247905332695316e+01  3.888241311464110e-01  61.9450753417801    