
!*************************************************************************
!! ASITIC Ver 10.20.99.0.0.0
!!  Data generated by the <2Port> command in <slow> mode.
!! Generated on Thu Apr 11 17:21:13 1974
!# Spiral Data:	Name = <C4>, User-defined Structure, Origin = <100.00,200.00>
!# Sides =   1, Metal =   4, Exit Metal =   3
!# W = 100.00, S =  0.00, N =  0.00
!# Theta =  0.00, Phase =   1
!# Technolog File Data <CMOS.tek> @ <.>
!# Auto-Cell Mode:  <alpha> = 0.050000, <beta> = 0.800000
!# Metal Layers
!# Name=M1        Met=0  Lyr=  1  Mz=48.70  T=0.50  RS=0.07  Col=YELLOW  
!# Name=M2        Met=1  Lyr=  1  Mz=47.60  T=0.50  RS=0.06  Col=LIGHTSKYBLUE1
!# Name=M3        Met=2  Lyr=  1  Mz=46.50  T=0.50  RS=0.06  Col=MEDIUM PURPLE
!# Name=M4        Met=3  Lyr=  1  Mz=45.50  T=0.50  RS=0.06  Col=LIGHT GREEN
!# Name=M5        Met=4  Lyr=  1  Mz=44.00  T=1.00  RS=0.03  Col=GREY    
!# Substrate Layers
!# Lyr=    0  Eps=  12  Rho=  10  DZ=7.5e+02  T=7e+02
!# Lyr=    1  Eps= 3.9  Rho=1e+14  DZ=  50  T=  50
!*************************************************************************
# GHZ S MA S11 mag    S11 phase  S12 mag    S12 phase  S21 mag    S21 phase  S22 mag    S22 phase  
1.000000000000000e+00  9.774944877787786e-03  -8.629490114296004e+01  9.983502763713722e-01  -2.134122963641342e+00  9.983502763713722e-01  -2.134122963641342e+00  8.971729136817024e-03  -81.9629239175809   
1.500000000000000e+00  1.465540003332331e-02  -8.898326427213102e+01  9.982109494774170e-01  -3.195438427967686e+00  9.982109494774170e-01  -3.195438427967686e+00  1.343193042548991e-02  -86.1780426077638   
2.000000000000000e+00  1.952173227152290e-02  -9.089083096099611e+01  9.980668444079135e-01  -4.257227154574831e+00  9.980668444079135e-01  -4.257227154574831e+00  1.788380766890792e-02  -88.9002489220127   
2.500000000000000e+00  2.434528508732394e-02  -9.247304782808678e+01  9.979113200692670e-01  -5.320303087198890e+00  9.979113200692670e-01  -5.320303087198890e+00  2.229701371763194e-02  -91.0051148583911   
3.000000000000000e+00  2.910702571615513e-02  -9.388848195112131e+01  9.977420827485866e-01  -6.385156542939299e+00  9.977420827485866e-01  -6.385156542939299e+00  2.665351316897065e-02  -92.7961392776669   
3.500000000000000e+00  3.378653487960400e-02  -9.520705205663153e+01  9.975587597769078e-01  -7.452492881691175e+00  9.975587597769078e-01  -7.452492881691175e+00  3.093359068387159e-02  -94.4064369972675   
4.000000000000000e+00  3.836919386794656e-02  -9.646399111511680e+01  9.973611440484478e-01  -8.522713740282803e+00  9.973611440484478e-01  -8.522713740282803e+00  3.512374614859613e-02  -95.9031743694297   
4.500000000000000e+00  4.283821774077439e-02  -9.768037020187967e+01  9.971504340727597e-01  -9.596455314267695e+00  9.971504340727597e-01  -9.596455314267695e+00  3.920678364246113e-02  -97.3255906157642   
5.000000000000000e+00  4.717719997848489e-02  -9.886854283791247e+01  9.969276887349090e-01  -1.067425536453731e+01  9.969276887349090e-01  -1.067425536453731e+01  4.316751094153949e-02  -98.6969570444503   
5.500000000000000e+00  5.137091959900546e-02  -1.000368849306255e+02  9.966944567958789e-01  -1.175666418523763e+01  9.966944567958789e-01  -1.175666418523763e+01  4.699074050110980e-02  -100.032887322297   
6.000000000000000e+00  5.540136921514711e-02  -1.011911361718981e+02  9.964526569374178e-01  -1.284420177060998e+01  9.964526569374178e-01  -1.284420177060998e+01  5.066194469721685e-02  -101.343651034699   
6.500000000000000e+00  5.925218351024713e-02  -1.023356703104407e+02  9.962045312010980e-01  -1.393763119881111e+01  9.962045312010980e-01  -1.393763119881111e+01  5.416257809035763e-02  -102.637669246188   
7.000000000000000e+00  6.290335839126444e-02  -1.034741267804053e+02  9.959530698659756e-01  -1.503761543238814e+01  9.959530698659756e-01  -1.503761543238814e+01  5.747584862135054e-02  -103.920988594877   
7.500000000000001e+00  6.633826399859984e-02  -1.046085695662312e+02  9.957003918320647e-01  -1.614491575768095e+01  9.957003918320647e-01  -1.614491575768095e+01  6.058361397534766e-02  -105.1982589314     
8.000000000000000e+00  6.953704813386337e-02  -1.057409065393019e+02  9.954491610330102e-01  -1.726024187863893e+01  9.954491610330102e-01  -1.726024187863893e+01  6.346862497483750e-02  -106.472921319959   
8.500000000000000e+00  7.247952869094217e-02  -1.068728140638294e+02  9.952022932007889e-01  -1.838444897850076e+01  9.952022932007889e-01  -1.838444897850076e+01  6.611129811550452e-02  -107.748398769087   
9.000000000000000e+00  7.514757357588447e-02  -1.080058220782601e+02  9.949629514018359e-01  -1.951836575995054e+01  9.949629514018359e-01  -1.951836575995054e+01  6.849257999410029e-02  -109.028247417837   
9.500000000000000e+00  7.751320088044640e-02  -1.091408536899329e+02  9.947338786991565e-01  -2.066315578456933e+01  9.947338786991565e-01  -2.066315578456933e+01  7.058798140065824e-02  -110.314424042129   
1.000000000000000e+01  7.955348061569834e-02  -1.102796294123539e+02  9.945192811945732e-01  -2.181991175271548e+01  9.945192811945732e-01  -2.181991175271548e+01  7.237408456525275e-02  -111.610893488757   
1.050000000000000e+01  8.124646405839563e-02  -1.114218696782716e+02  9.943205626275909e-01  -2.298962974326152e+01  9.943205626275909e-01  -2.298962974326152e+01  7.382969175138095e-02  -112.919089390429   
1.100000000000000e+01  8.253502102871327e-02  -1.125931570015650e+02  9.940962456495025e-01  -2.417395486597074e+01  9.940962456495025e-01  -2.417395486597074e+01  7.489175415425650e-02  -114.207304251607   
1.150000000000000e+01  8.344905296123825e-02  -1.137455989862201e+02  9.939350905633995e-01  -2.537344861501631e+01  9.939350905633995e-01  -2.537344861501631e+01  7.560293134930157e-02  -115.545938472665   
1.200000000000000e+01  8.392276799041412e-02  -1.149042570527350e+02  9.938006825955915e-01  -2.659044445140418e+01  9.938006825955915e-01  -2.659044445140418e+01  7.589286914295693e-02  -116.907589488277   
1.250000000000000e+01  8.393167281058968e-02  -1.160677476669363e+02  9.936926369669492e-01  -2.782603124579187e+01  9.936926369669492e-01  -2.782603124579187e+01  7.573864739639483e-02  -118.293619543253   
1.300000000000000e+01  8.343375140367180e-02  -1.172358865796621e+02  9.936139915765656e-01  -2.908246102886483e+01  9.936139915765656e-01  -2.908246102886483e+01  7.509837729983977e-02  -119.709846069101   
1.350000000000000e+01  8.239808715600105e-02  -1.184064939974325e+02  9.935644101773444e-01  -3.036121289885458e+01  9.935644101773444e-01  -3.036121289885458e+01  7.394264219675703e-02  -121.159947398142   
1.400000000000000e+01  8.077538796764366e-02  -1.195786512001780e+02  9.935465766542504e-01  -3.166489885064095e+01  9.935465766542504e-01  -3.166489885064095e+01  7.222284075059790e-02  -122.652510629068   
1.450000000000000e+01  7.852181235897263e-02  -1.207477826427803e+02  9.935589348675928e-01  -3.299583823732272e+01  9.935589348675928e-01  -3.299583823732272e+01  6.989596881783687e-02  -124.195224364507   
1.500000000000000e+01  7.558963611914084e-02  -1.219074302884507e+02  9.935993934911919e-01  -3.435654262601076e+01  9.935993934911919e-01  -3.435654262601076e+01  6.691529568422844e-02  -125.798981519528   
1.550000000000000e+01  7.192343201535051e-02  -1.230472603981185e+02  9.936646003858223e-01  -3.575001297273949e+01  9.936646003858223e-01  -3.575001297273949e+01  6.322624179393967e-02  -127.479609147409   
1.600000000000000e+01  6.746066075346450e-02  -1.241507795879118e+02  9.937499300643644e-01  -3.717966092840474e+01  9.937499300643644e-01  -3.717966092840474e+01  5.876706354392153e-02  -129.261367636354   
1.650000000000000e+01  6.214551114660299e-02  -1.251867971198576e+02  9.938447335870899e-01  -3.864855696760645e+01  9.938447335870899e-01  -3.864855696760645e+01  5.348269153711083e-02  -131.177774611618   
1.700000000000000e+01  5.590325941378387e-02  -1.261030695667746e+02  9.939386201956774e-01  -4.016093067175837e+01  9.939386201956774e-01  -4.016093067175837e+01  4.729885627670877e-02  -133.292934236      
1.750000000000000e+01  4.866066478674436e-02  -1.267977613730363e+02  9.940162187689408e-01  -4.172104414759417e+01  9.940162187689408e-01  -4.172104414759417e+01  4.014224830961967e-02  -135.728965247756   