
!*************************************************************************
!! ASITIC Ver 10.20.99.0.0.0
!!  Data generated by the <2Port> command in <slow> mode.
!! Generated on Thu Apr 11 17:21:13 1974
!# Spiral Data:	Name = <C2>, User-defined Structure, Origin = <100.00,100.00>
!# Sides =   1, Metal =   4, Exit Metal =   3
!# W = 80.00, S =  0.00, N =  0.00
!# Theta =  0.00, Phase =   1
!# Technolog File Data <CMOS.tek> @ <.>
!# Auto-Cell Mode:  <alpha> = 0.050000, <beta> = 0.800000
!# Metal Layers
!# Name=M1        Met=0  Lyr=  1  Mz=48.70  T=0.50  RS=0.07  Col=YELLOW  
!# Name=M2        Met=1  Lyr=  1  Mz=47.60  T=0.50  RS=0.06  Col=LIGHTSKYBLUE1
!# Name=M3        Met=2  Lyr=  1  Mz=46.50  T=0.50  RS=0.06  Col=MEDIUM PURPLE
!# Name=M4        Met=3  Lyr=  1  Mz=45.50  T=0.50  RS=0.06  Col=LIGHT GREEN
!# Name=M5        Met=4  Lyr=  1  Mz=44.00  T=1.00  RS=0.03  Col=GREY    
!# Substrate Layers
!# Lyr=    0  Eps=  12  Rho=  10  DZ=7.5e+02  T=7e+02
!# Lyr=    1  Eps= 3.9  Rho=1e+14  DZ=  50  T=  50
!*************************************************************************
# GHZ S MA S11 mag    S11 phase  S12 mag    S12 phase  S21 mag    S21 phase  S22 mag    S22 phase  
1.000000000000000e+00  4.744217133579059e-03  -8.426672782642700e+01  9.990324474152148e-01  -8.916360850151885e-01  9.990324474152148e-01  -8.916360850151885e-01  4.397270488239306e-03  -78.3649337873072   
1.500000000000000e+00  7.094334818981190e-03  -8.662068030726071e+01  9.989764167633498e-01  -1.334191099338391e+00  9.989764167633498e-01  -1.334191099338391e+00  6.569974065818415e-03  -82.6481176285207   
2.000000000000000e+00  9.463086439136672e-03  -8.805176729591251e+01  9.989236092609665e-01  -1.776330351168565e+00  9.989236092609665e-01  -1.776330351168565e+00  8.762068901933845e-03  -85.0894894366785   
2.500000000000000e+00  1.183767566097719e-02  -8.910535509740201e+01  9.988708586669102e-01  -2.218331385022399e+00  9.988708586669102e-01  -2.218331385022399e+00  1.096037095107194e-02  -86.7673991309409   
3.000000000000000e+00  1.421426949084619e-02  -8.996575654255551e+01  9.988163408960709e-01  -2.660205205576667e+00  9.988163408960709e-01  -2.660205205576667e+00  1.316147345428111e-02  -88.0551226211057   
3.500000000000000e+00  1.658689944717310e-02  -9.071385834207851e+01  9.987595342205107e-01  -3.102221497098131e+00  9.987595342205107e-01  -3.102221497098131e+00  1.535895939609185e-02  -89.1168378909587   
4.000000000000000e+00  1.895519517648158e-02  -9.138989816633607e+01  9.986995237122539e-01  -3.544322947501302e+00  9.986995237122539e-01  -3.544322947501302e+00  1.755275328274940e-02  -90.0348963805939   
4.500000000000000e+00  2.131674548125492e-02  -9.201772512507394e+01  9.986363141196564e-01  -3.986610580214266e+00  9.986363141196564e-01  -3.986610580214266e+00  1.974025053383541e-02  -90.8570993152531   
5.000000000000000e+00  2.366982134831181e-02  -9.261079001186920e+01  9.985694315678904e-01  -4.429092551121964e+00  9.985694315678904e-01  -4.429092551121964e+00  2.192063895496388e-02  -91.6109564155227   
5.500000000000000e+00  2.601351025459623e-02  -9.317810234103280e+01  9.984986935377468e-01  -4.871813813565743e+00  9.984986935377468e-01  -4.871813813565743e+00  2.409253175987561e-02  -92.3146967083211   
6.000000000000000e+00  2.834650959615028e-02  -9.372593297127989e+01  9.984240940679142e-01  -5.314819983966862e+00  9.984240940679142e-01  -5.314819983966862e+00  2.625457548830076e-02  -92.9808069756015   
6.500000000000000e+00  3.066670388652449e-02  -9.425916888220408e+01  9.983458051362613e-01  -5.758198759146391e+00  9.983458051362613e-01  -5.758198759146391e+00  2.840469456096181e-02  -93.6182223268224   
7.000000000000000e+00  3.297411499689844e-02  -9.477977037121718e+01  9.982632553905787e-01  -6.201851428787672e+00  9.982632553905787e-01  -6.201851428787672e+00  3.054414052969369e-02  -94.2319566058517   
7.500000000000001e+00  3.526664226411379e-02  -9.529133866697936e+01  9.981772011546874e-01  -6.646009868356422e+00  9.981772011546874e-01  -6.646009868356422e+00  3.266834465273544e-02  -94.8281704316273   
8.000000000000000e+00  3.754400944123331e-02  -9.579441675604673e+01  9.980868092699932e-01  -7.090506831327410e+00  9.980868092699932e-01  -7.090506831327410e+00  3.477977375188709e-02  -95.4085394551796   
8.500000000000000e+00  3.980368554048531e-02  -9.629159755524506e+01  9.979929814205560e-01  -7.535538265186645e+00  9.979929814205560e-01  -7.535538265186645e+00  3.687450357132648e-02  -95.9772681754099   
9.000000000000000e+00  4.204700153248517e-02  -9.678354070564502e+01  9.978955638801369e-01  -7.981049016157748e+00  9.978955638801369e-01  -7.981049016157748e+00  3.895303932275808e-02  -96.5362116390127   
9.500000000000000e+00  4.426944418928057e-02  -9.727089349104014e+01  9.977944861691601e-01  -8.427142991142336e+00  9.977944861691601e-01  -8.427142991142336e+00  4.101313633033139e-02  -97.08643147424     
1.000000000000000e+01  4.647131414200121e-02  -9.775445408956870e+01  9.976897988973606e-01  -8.873803536204720e+00  9.976897988973606e-01  -8.873803536204720e+00  4.305461076285610e-02  -97.6293244368881   
1.050000000000000e+01  4.865147862504948e-02  -9.823489815559414e+01  9.975818403651143e-01  -9.321110062872375e+00  9.975818403651143e-01  -9.321110062872375e+00  4.507564723508983e-02  -98.166398863425    
1.100000000000000e+01  5.079177411464255e-02  -9.874717258480550e+01  9.974447545628240e-01  -9.769158383007689e+00  9.974447545628240e-01  -9.769158383007689e+00  4.706729013607335e-02  -98.6651734338869   
1.150000000000000e+01  5.292491655334590e-02  -9.922360959492174e+01  9.973278164517294e-01  -1.021775040780829e+01  9.973278164517294e-01  -1.021775040780829e+01  4.904520545168715e-02  -99.190951078089    
1.200000000000000e+01  5.503182407545233e-02  -9.969822856298202e+01  9.972081786888976e-01  -1.066714428070749e+01  9.972081786888976e-01  -1.066714428070749e+01  5.099858168762379e-02  -99.7134766285566   
1.250000000000000e+01  5.711137336400743e-02  -1.001717258502819e+02  9.970858993447040e-01  -1.111733489603422e+01  9.970858993447040e-01  -1.111733489603422e+01  5.292699231640209e-02  -100.233063266259   
1.300000000000000e+01  5.916421794423109e-02  -1.006433482080283e+02  9.969604295075409e-01  -1.156831260578451e+01  9.969604295075409e-01  -1.156831260578451e+01  5.483028034846725e-02  -100.749561574973   
1.350000000000000e+01  6.118615432241872e-02  -1.011144823081992e+02  9.968331228937306e-01  -1.202024531281524e+01  9.968331228937306e-01  -1.202024531281524e+01  5.670502334638119e-02  -101.264506137309   
1.400000000000000e+01  6.317960850988602e-02  -1.015841882164988e+02  9.967029081077803e-01  -1.247298561509513e+01  9.967029081077803e-01  -1.247298561509513e+01  5.855341891539634e-02  -101.777028639418   
1.450000000000000e+01  6.513926249774808e-02  -1.020537510840081e+02  9.965712643812968e-01  -1.292679986492989e+01  9.965712643812968e-01  -1.292679986492989e+01  6.037037539245088e-02  -102.288690759679   
1.500000000000000e+01  6.706619180275322e-02  -1.025227931767954e+02  9.964377250234612e-01  -1.338159602838210e+01  9.964377250234612e-01  -1.338159602838210e+01  6.215708938161547e-02  -102.799105908236   
1.550000000000000e+01  6.896015275643080e-02  -1.029910242525141e+02  9.963020758849835e-01  -1.383738456939183e+01  9.963020758849835e-01  -1.383738456939183e+01  6.391303828005221e-02  -103.308212785792   
1.600000000000000e+01  7.081627286542609e-02  -1.034595664981060e+02  9.961656918865586e-01  -1.429439868861407e+01  9.961656918865586e-01  -1.429439868861407e+01  6.563369828387271e-02  -103.81724767586    
1.650000000000000e+01  7.263544332371200e-02  -1.039280160532385e+02  9.960281302331041e-01  -1.475255843959421e+01  9.960281302331041e-01  -1.475255843959421e+01  6.732007330591612e-02  -104.325802074438   
1.700000000000000e+01  7.441762027116722e-02  -1.043960741108765e+02  9.958891725319988e-01  -1.521185990009686e+01  9.958891725319988e-01  -1.521185990009686e+01  6.897191069763797e-02  -104.833745558875   
1.750000000000000e+01  7.615762491463778e-02  -1.048648613360493e+02  9.957502349852844e-01  -1.567254942663617e+01  9.957502349852844e-01  -1.567254942663617e+01  7.058442481964322e-02  -105.342201896675   