
!*************************************************************************
!! ASITIC Ver 10.20.99.0.0.0
!!  Data generated by the <2Port> command in <slow> mode.
!! Generated on Thu Apr 11 17:21:13 1974
!# Spiral Data:	Name = <C1>, User-defined Structure, Origin = < 0.00, 0.00>
!# Sides =   1, Metal =   4, Exit Metal =   3
!# W = 60.00, S =  0.00, N =  0.00
!# Theta =  0.00, Phase =   1
!# Technolog File Data <CMOS.tek> @ <.>
!# Auto-Cell Mode:  <alpha> = 0.050000, <beta> = 0.800000
!# Metal Layers
!# Name=M1        Met=0  Lyr=  1  Mz=48.70  T=0.50  RS=0.07  Col=YELLOW  
!# Name=M2        Met=1  Lyr=  1  Mz=47.60  T=0.50  RS=0.06  Col=LIGHTSKYBLUE1
!# Name=M3        Met=2  Lyr=  1  Mz=46.50  T=0.50  RS=0.06  Col=MEDIUM PURPLE
!# Name=M4        Met=3  Lyr=  1  Mz=45.50  T=0.50  RS=0.06  Col=LIGHT GREEN
!# Name=M5        Met=4  Lyr=  1  Mz=44.00  T=1.00  RS=0.03  Col=GREY    
!# Substrate Layers
!# Lyr=    0  Eps=  12  Rho=  10  DZ=7.5e+02  T=7e+02
!# Lyr=    1  Eps= 3.9  Rho=1e+14  DZ=  50  T=  50
!*************************************************************************
# GHZ S MA S11 mag    S11 phase  S12 mag    S12 phase  S21 mag    S21 phase  S22 mag    S22 phase  
1.000000000000000e+00  1.082176735738733e-03  -5.498353824784185e+01  9.990680032551953e-01  -5.376885119538340e-01  9.990680032551953e-01  -5.376885119538340e-01  1.359249766150100e-03  -47.2118379469632   
1.500000000000000e+00  1.473512541392745e-03  -6.420661087484700e+01  9.990274522151772e-01  -8.037470477615777e-01  9.990274522151772e-01  -8.037470477615777e-01  1.815098772261388e-03  -58.3543988368511   
2.000000000000000e+00  1.900811316353408e-03  -6.984362468814571e+01  9.989935775655533e-01  -1.069308543844835e+00  9.989935775655533e-01  -1.069308543844835e+00  2.314468821307750e-03  -65.2316157020261   
2.500000000000000e+00  2.345951281758911e-03  -7.361551270594853e+01  9.989636253490435e-01  -1.334593525079858e+00  9.989636253490435e-01  -1.334593525079858e+00  2.836532151893791e-03  -69.8301806500952   
3.000000000000000e+00  2.800408037714688e-03  -7.634085855916267e+01  9.989367284226653e-01  -1.599723442431119e+00  9.989367284226653e-01  -1.599723442431119e+00  3.371131164213494e-03  -73.1286827065463   
3.500000000000000e+00  3.259738743006896e-03  -7.841844448557671e+01  9.989117685255363e-01  -1.864792871378041e+00  9.989117685255363e-01  -1.864792871378041e+00  3.912766870062317e-03  -75.6192154204575   
4.000000000000000e+00  3.720892805327282e-03  -8.007635021121929e+01  9.988885704189686e-01  -2.129893161220650e+00  9.988885704189686e-01  -2.129893161220650e+00  4.457544366174866e-03  -77.5825758592919   
4.500000000000000e+00  4.185053651556536e-03  -8.144273735117213e+01  9.988659190416171e-01  -2.394908902140976e+00  9.988659190416171e-01  -2.394908902140976e+00  5.006268905224273e-03  -79.1812401443721   
5.000000000000000e+00  4.648084607584339e-03  -8.260293994159844e+01  9.988444210636561e-01  -2.660016240842946e+00  9.988444210636561e-01  -2.660016240842946e+00  5.554873127930735e-03  -80.5204162463754   
5.500000000000000e+00  5.110573882058758e-03  -8.360919675261439e+01  9.988235438156301e-01  -2.925167284671460e+00  9.988235438156301e-01  -2.925167284671460e+00  6.103655604515541e-03  -81.6671405241492   
6.000000000000000e+00  5.571972220860962e-03  -8.449790489149460e+01  9.988030550154995e-01  -3.190389332511278e+00  9.988030550154995e-01  -3.190389332511278e+00  6.651734568870132e-03  -82.6664567095373   
6.500000000000000e+00  6.030378027538643e-03  -8.529721549740057e+01  9.987833549038039e-01  -3.455769071685542e+00  9.987833549038039e-01  -3.455769071685542e+00  7.197210733530948e-03  -83.5532928237125   
7.000000000000000e+00  6.487766098987153e-03  -8.602091991625491e+01  9.987633846369994e-01  -3.721178383046162e+00  9.987633846369994e-01  -3.721178383046162e+00  7.742206830154216e-03  -84.3469592461568   
7.500000000000001e+00  6.942404370876092e-03  -8.668580664182969e+01  9.987436647112177e-01  -3.986707878494402e+00  9.987436647112177e-01  -3.986707878494402e+00  8.284862840537871e-03  -85.0677429699993   
8.000000000000000e+00  7.392751233186024e-03  -8.730419397447244e+01  9.987244149913214e-01  -4.252438484344172e+00  9.987244149913214e-01  -4.252438484344172e+00  8.823565751859129e-03  -85.7294200131783   
8.500000000000000e+00  7.839548149692673e-03  -8.788220761769398e+01  9.987052750677697e-01  -4.518323146725735e+00  9.987052750677697e-01  -4.518323146725735e+00  9.359040081784457e-03  -86.3411759289302   
9.000000000000000e+00  8.285140533781149e-03  -8.842533692328611e+01  9.986857016958607e-01  -4.784246304775606e+00  9.986857016958607e-01  -4.784246304775606e+00  9.893218056939868e-03  -86.9100690258769   
9.500000000000000e+00  8.724107728185156e-03  -8.894047423229794e+01  9.986665744550022e-01  -5.050477963708408e+00  9.986665744550022e-01  -5.050477963708408e+00  1.042120647120608e-02  -87.4438109187564   
1.000000000000000e+01  9.158456808758861e-03  -8.943081267878678e+01  9.986474421164212e-01  -5.316892625707125e+00  9.986474421164212e-01  -5.316892625707125e+00  1.094513053359046e-02  -87.9469676368022   
1.050000000000000e+01  9.587897044538886e-03  -8.989956400062492e+01  9.986282131114267e-01  -5.583503461017993e+00  9.986282131114267e-01  -5.583503461017993e+00  1.146467409642880e-02  -88.4233000769552   
1.100000000000000e+01  9.999658090163659e-03  -9.043938123544457e+01  9.985857420186679e-01  -5.850364381044289e+00  9.985857420186679e-01  -5.850364381044289e+00  1.197826188867782e-02  -88.7599507819965   
1.150000000000000e+01  1.041863001034070e-02  -9.087638658766015e+01  9.985641784303773e-01  -6.117370064557691e+00  9.985641784303773e-01  -6.117370064557691e+00  1.248845478387731e-02  -89.1874297996399   
1.200000000000000e+01  1.083119248938075e-02  -9.129833835985379e+01  9.985425573815159e-01  -6.384660878965018e+00  9.985425573815159e-01  -6.384660878965018e+00  1.299243810073956e-02  -89.5970161020795   
1.250000000000000e+01  1.123833242832529e-02  -9.170724114645898e+01  9.985204834498551e-01  -6.652160610460348e+00  9.985204834498551e-01  -6.652160610460348e+00  1.349147576983186e-02  -89.9897274100762   
1.300000000000000e+01  1.163899243538662e-02  -9.210471344625971e+01  9.984982434199324e-01  -6.919932348472585e+00  9.984982434199324e-01  -6.919932348472585e+00  1.398438094050586e-02  -90.3681166996145   
1.350000000000000e+01  1.203290769624271e-02  -9.249184709838698e+01  9.984758113771979e-01  -7.187984809303719e+00  9.984758113771979e-01  -7.187984809303719e+00  1.447093355435800e-02  -90.7335243086888   
1.400000000000000e+01  1.241973325778979e-02  -9.286989388686072e+01  9.984532419337306e-01  -7.456335154569993e+00  9.984532419337306e-01  -7.456335154569993e+00  1.495076284498420e-02  -91.0873562781443   
1.450000000000000e+01  1.279925597877198e-02  -9.323936775757922e+01  9.984304432642847e-01  -7.724990101931480e+00  9.984304432642847e-01  -7.724990101931480e+00  1.542369431312728e-02  -91.4303299527901   
1.500000000000000e+01  1.316912005850100e-02  -9.360318693280132e+01  9.984080330173392e-01  -7.994061930085690e+00  9.984080330173392e-01  -7.994061930085690e+00  1.588763330183224e-02  -91.7647208588664   
1.550000000000000e+01  1.353293762675700e-02  -9.395788892308899e+01  9.983848540841963e-01  -8.263379535652080e+00  9.983848540841963e-01  -8.263379535652080e+00  1.634564220824759e-02  -92.0887094204706   
1.600000000000000e+01  1.388840862863806e-02  -9.430625679501587e+01  9.983615306357532e-01  -8.533050064588469e+00  9.983615306357532e-01  -8.533050064588469e+00  1.679571871822493e-02  -92.4044051508875   
1.650000000000000e+01  1.423553050369445e-02  -9.464881912685335e+01  9.983380204031805e-01  -8.803063728338229e+00  9.983380204031805e-01  -8.803063728338229e+00  1.723797017759043e-02  -92.7123262978605   
1.700000000000000e+01  1.457156410594160e-02  -9.498803519310047e+01  9.983149982029316e-01  -9.073561012207115e+00  9.983149982029316e-01  -9.073561012207115e+00  1.766981331826950e-02  -93.0142388897544   
1.750000000000000e+01  1.490018903556775e-02  -9.532025157967955e+01  9.982912099537563e-01  -9.344365371285555e+00  9.982912099537563e-01  -9.344365371285555e+00  1.809441939883940e-02  -93.3079514122431   