
!*************************************************************************
!! ASITIC Ver 10.20.99.0.0.0
!!  Data generated by the <2Port> command in <slow> mode.
!! Generated on Thu Apr 11 17:21:13 1974
!# Spiral Data:	Name = <C5>, User-defined Structure, Origin = <50.00,200.00>
!# Sides =   1, Metal =   4, Exit Metal =   3
!# W = 120.00, S =  0.00, N =  0.00
!# Theta =  0.00, Phase =   1
!# Technolog File Data <CMOS.tek> @ <.>
!# Auto-Cell Mode:  <alpha> = 0.050000, <beta> = 0.800000
!# Metal Layers
!# Name=M1        Met=0  Lyr=  1  Mz=48.70  T=0.50  RS=0.07  Col=YELLOW  
!# Name=M2        Met=1  Lyr=  1  Mz=47.60  T=0.50  RS=0.06  Col=LIGHTSKYBLUE1
!# Name=M3        Met=2  Lyr=  1  Mz=46.50  T=0.50  RS=0.06  Col=MEDIUM PURPLE
!# Name=M4        Met=3  Lyr=  1  Mz=45.50  T=0.50  RS=0.06  Col=LIGHT GREEN
!# Name=M5        Met=4  Lyr=  1  Mz=44.00  T=1.00  RS=0.03  Col=GREY    
!# Substrate Layers
!# Lyr=    0  Eps=  12  Rho=  10  DZ=7.5e+02  T=7e+02
!# Lyr=    1  Eps= 3.9  Rho=1e+14  DZ=  50  T=  50
!*************************************************************************
# GHZ S MA S11 mag    S11 phase  S12 mag    S12 phase  S21 mag    S21 phase  S22 mag    S22 phase  
1.000000000000000e+00  1.669086473187935e-02  -8.959082095771204e+01  9.981608420047924e-01  -2.963006626201365e+00  9.981608420047924e-01  -2.963006626201365e+00  1.552018295906375e-02  -86.7799858128568   
1.500000000000000e+00  2.500433420532636e-02  -9.197110667901676e+01  9.979082181396539e-01  -4.439103504852516e+00  9.979082181396539e-01  -4.439103504852516e+00  2.325508000193955e-02  -90.212230487733    
2.000000000000000e+00  3.323541302623112e-02  -9.391726417412083e+01  9.976122142333277e-01  -5.917044696764424e+00  9.976122142333277e-01  -5.917044696764424e+00  3.091292613111736e-02  -92.7305215720594   
2.500000000000000e+00  4.133489778873982e-02  -9.568294265377328e+01  9.972680672435311e-01  -7.398059812192717e+00  9.972680672435311e-01  -7.398059812192717e+00  3.844726853149788e-02  -94.8744762266666   
3.000000000000000e+00  4.926091515184485e-02  -9.735691615982714e+01  9.968765184179803e-01  -8.883230375989793e+00  9.968765184179803e-01  -8.883230375989793e+00  4.581887810148816e-02  -96.8301807317511   
3.500000000000000e+00  5.697079781797659e-02  -9.897863863083002e+01  9.964406644568445e-01  -1.037387507523166e+01  9.964406644568445e-01  -1.037387507523166e+01  5.298610658831764e-02  -98.6795245462247   
4.000000000000000e+00  6.442438632129649e-02  -1.005694845496572e+02  9.959660595447003e-01  -1.187109206734458e+01  9.959660595447003e-01  -1.187109206734458e+01  5.991207458266016e-02  -100.465445887902   
4.500000000000000e+00  7.158118424980751e-02  -1.021415504912278e+02  9.954586881987820e-01  -1.337608927353428e+01  9.954586881987820e-01  -1.337608927353428e+01  6.655878097672728e-02  -102.212074482181   
5.000000000000000e+00  7.839868235117312e-02  -1.037026419152804e+02  9.949259972298798e-01  -1.489033499788273e+01  9.949259972298798e-01  -1.489033499788273e+01  7.288450809538886e-02  -103.93526155494    
5.500000000000000e+00  8.483085454296072e-02  -1.052588738358733e+02  9.943770098097107e-01  -1.641534011457900e+01  9.943770098097107e-01  -1.641534011457900e+01  7.884726228175790e-02  -105.64599635296    
6.000000000000000e+00  9.083194965972360e-02  -1.068147372513045e+02  9.938214723010641e-01  -1.795290914543162e+01  9.938214723010641e-01  -1.795290914543162e+01  8.440087880641722e-02  -107.353005880773   
6.500000000000000e+00  9.635409986128111e-02  -1.083730211132896e+02  9.932686398175193e-01  -1.950478939086002e+01  9.932686398175193e-01  -1.950478939086002e+01  8.950100141410743e-02  -109.06200935698    
7.000000000000000e+00  1.013427230212099e-01  -1.099374490939913e+02  9.927305423295527e-01  -2.107321364496644e+01  9.927305423295527e-01  -2.107321364496644e+01  9.409528654925728e-02  -110.779463766584   
7.500000000000001e+00  1.057431377828211e-01  -1.115104873617973e+02  9.922182428507361e-01  -2.266060338306307e+01  9.922182428507361e-01  -2.266060338306307e+01  9.812927557013396e-02  -112.510787872525   
8.000000000000000e+00  1.094936684985183e-01  -1.130945335131277e+02  9.917434663912681e-01  -2.426951673890322e+01  9.917434663912681e-01  -2.426951673890322e+01  1.015465093801786e-01  -114.260601358955   
8.500000000000000e+00  1.125286945617473e-01  -1.146920243101419e+02  9.913182920058780e-01  -2.590304750764638e+01  9.913182920058780e-01  -2.590304750764638e+01  1.042822356920931e-01  -116.034610868672   
9.000000000000000e+00  1.147787572089616e-01  -1.163057080504543e+02  9.909556732108172e-01  -2.756467432684442e+01  9.909556732108172e-01  -2.756467432684442e+01  1.062655200446049e-01  -117.840041961147   
9.500000000000000e+00  1.161588527581637e-01  -1.179366127383201e+02  9.906651905591465e-01  -2.925820237347250e+01  9.906651905591465e-01  -2.925820237347250e+01  1.074208699244915e-01  -119.680864198456   
1.000000000000000e+01  1.165812251299093e-01  -1.195874723042099e+02  9.904595873169159e-01  -3.098831214449171e+01  9.904595873169159e-01  -3.098831214449171e+01  1.076578939920719e-01  -121.566948882517   
1.050000000000000e+01  1.159484837921403e-01  -1.212589013269375e+02  9.903469436935196e-01  -3.275990365810263e+01  9.903469436935196e-01  -3.275990365810263e+01  1.068830454455417e-01  -123.506394040829   
1.100000000000000e+01  1.141160089083052e-01  -1.229692296283545e+02  9.902846006218243e-01  -3.457925904352481e+01  9.902846006218243e-01  -3.457925904352481e+01  1.049316168261672e-01  -125.485851656099   
1.150000000000000e+01  1.110297556410609e-01  -1.246797122662631e+02  9.903691818060605e-01  -3.645170216191893e+01  9.903691818060605e-01  -3.645170216191893e+01  1.017924840837657e-01  -127.565104242074   
1.200000000000000e+01  1.065024098471464e-01  -1.264048048035728e+02  9.905588995672030e-01  -3.838610744420932e+01  9.905588995672030e-01  -3.838610744420932e+01  9.726278875467811e-02  -129.743587147972   
1.250000000000000e+01  1.003874463292146e-01  -1.281297762298175e+02  9.908400232900939e-01  -4.039032747894744e+01  9.908400232900939e-01  -4.039032747894744e+01  9.119925709424369e-02  -132.043874192261   
1.300000000000000e+01  9.249273403490849e-02  -1.298296924786111e+02  9.911972998414712e-01  -4.247494920315213e+01  9.911972998414712e-01  -4.247494920315213e+01  8.341251975954710e-02  -134.508040815589   
1.350000000000000e+01  8.261273092675642e-02  -1.314499914886418e+02  9.916003266640097e-01  -4.465133996990726e+01  9.916003266640097e-01  -4.465133996990726e+01  7.369952853672777e-02  -137.204927423132   
1.400000000000000e+01  7.051304137076192e-02  -1.328666579268994e+02  9.920003070324339e-01  -4.693279343977564e+01  9.920003070324339e-01  -4.693279343977564e+01  6.182707483733092e-02  -140.270609077208   
1.450000000000000e+01  5.592725082039984e-02  -1.337604391698526e+02  9.923268341303280e-01  -4.933513848885621e+01  9.923268341303280e-01  -4.933513848885621e+01  4.752664525667195e-02  -144.046771518215   
1.500000000000000e+01  3.861185450566835e-02  -1.330522310785845e+02  9.924719701387238e-01  -5.187561394363298e+01  9.924719701387238e-01  -5.187561394363298e+01  3.054175193187607e-02  -149.752696600695   
1.550000000000000e+01  1.860261275325252e-02  -1.242046602579458e+02  9.922895450216653e-01  -5.457516732059086e+01  9.922895450216653e-01  -5.457516732059086e+01  1.095757473823939e-02  -168.475423240177   
1.600000000000000e+01  9.893934337068830e-03  -1.335311902048856e+01  9.915686394929804e-01  -5.745671435586514e+01  9.915686394929804e-01  -5.745671435586514e+01  1.450023704850606e-02  51.2459278447628    
1.650000000000000e+01  3.614365716526784e-02  1.695799411308436e+01  9.900264508470893e-01  -6.054753023701488e+01  9.900264508470893e-01  -6.054753023701488e+01  4.174178863134756e-02  36.0634606730598    
1.700000000000000e+01  6.880163401634716e-02  1.891236804017147e+01  9.872735396901119e-01  -6.387731541916729e+01  9.872735396901119e-01  -6.387731541916729e+01  7.381569995990227e-02  29.9187723134624    
1.750000000000000e+01  1.067334330831234e-01  1.737682045960605e+01  9.827897715595006e-01  -6.747855727144272e+01  9.827897715595006e-01  -6.747855727144272e+01  1.109099377628757e-01  25.0365963162905    