
!*************************************************************************
!! ASITIC Ver 10.20.99.0.0.0
!!  Data generated by the <2Port> command in <slow> mode.
!! Generated on Thu Apr 11 17:21:13 1974
!# Spiral Data:	Name = <C5>, User-defined Structure, Origin = <50.00,200.00>
!# Sides =   1, Metal =   2, Exit Metal =   1
!# W = 120.00, S =  0.00, N =  0.00
!# Theta =  0.00, Phase =   1
!# Technolog File Data <BiCMOS.tek> @ <.>
!# Auto-Cell Mode:  <alpha> = 0.050000, <beta> = 0.800000
!# Metal Layers
!# Name=MSUB      Met=0  Lyr=  1  Mz=50.00  T=0.40  RS=0.04  Col=BLUE    
!# Name=M2        Met=1  Lyr=  2  Mz=47.00  T=0.80  RS=0.05  Col=GREEN   
!# Name=M3        Met=2  Lyr=  2  Mz=45.00  T=2.00  RS=0.02  Col=RED     
!# Substrate Layers
!# Lyr=    0  Eps=  12  Rho=1e+05  DZ=8.5e+02  T=8e+02
!# Lyr=    1  Eps=  12  Rho=1e+03  DZ=  52  T=   2
!# Lyr=    2  Eps=   4  Rho=1e+14  DZ=  50  T=  50
!*************************************************************************
# GHZ S MA S11 mag    S11 phase  S12 mag    S12 phase  S21 mag    S21 phase  S22 mag    S22 phase  
1.000000000000000e+00  2.463797547645091e-02  -1.497819799847250e+02  9.768118091764399e-01  -2.879178311965986e+00  9.768118091764399e-01  -2.879178311965986e+00  2.483844357098880e-02  -147.129068714669   
1.500000000000000e+00  3.209762070191499e-02  -1.703324863105441e+02  9.655742014836873e-01  -3.541571972287644e+00  9.655742014836873e-01  -3.541571972287644e+00  3.239511572670549e-02  -168.487450317324   
2.000000000000000e+00  3.814829007159192e-02  1.739077391171770e+02  9.582361157194841e-01  -4.052770678016953e+00  9.582361157194841e-01  -4.052770678016953e+00  3.851225528277808e-02  175.364173930599    
2.500000000000000e+00  4.372991223803848e-02  1.615321680808086e+02  9.535042810402842e-01  -4.542855163776558e+00  9.535042810402842e-01  -4.542855163776558e+00  4.414737039578037e-02  162.768647624706    
3.000000000000000e+00  4.926799260132930e-02  1.515740384592750e+02  9.503097656057576e-01  -5.051800616551655e+00  9.503097656057576e-01  -5.051800616551655e+00  4.973198219710109e-02  152.672719946999    
3.500000000000000e+00  5.494068619632723e-02  1.433821279620995e+02  9.480103379715726e-01  -5.588865452815357e+00  9.480103379715726e-01  -5.588865452815357e+00  5.544787537496305e-02  144.390706933528    
4.000000000000000e+00  6.086598660538481e-02  1.364005361883455e+02  9.462353317338913e-01  -6.159283191297779e+00  9.462353317338913e-01  -6.159283191297779e+00  6.141119075329259e-02  137.39844595334     
4.500000000000000e+00  6.700705661258827e-02  1.305450605927144e+02  9.447698696994222e-01  -6.751814080000481e+00  9.447698696994222e-01  -6.751814080000481e+00  6.758313705094190e-02  131.49788210979     
5.000000000000000e+00  7.340914516477488e-02  1.254717581209498e+02  9.434839747295162e-01  -7.369175285876747e+00  9.434839747295162e-01  -7.369175285876747e+00  7.401328230401713e-02  126.393046401149    
5.500000000000000e+00  8.008386917251238e-02  1.210135218884282e+02  9.422921949491172e-01  -8.010116517656991e+00  9.422921949491172e-01  -8.010116517656991e+00  8.071268882282204e-02  121.912551167438    
6.000000000000000e+00  8.705112785539403e-02  1.170424584580309e+02  9.411392090009268e-01  -8.674508556289242e+00  9.411392090009268e-01  -8.674508556289242e+00  8.770061185832559e-02  117.92599462794     
6.500000000000000e+00  9.432129135580497e-02  1.134640941972116e+02  9.399820493330459e-01  -9.362047082593749e+00  9.399820493330459e-01  -9.362047082593749e+00  9.498682453491064e-02  114.337174179692    
7.000000000000000e+00  1.019151626167983e-01  1.102032145896524e+02  9.387892850318709e-01  -1.007339843459916e+01  9.387892850318709e-01  -1.007339843459916e+01  1.025913657769228e-01  111.069515720855    
7.500000000000001e+00  1.098588299987616e-01  1.072005779091889e+02  9.375351229708848e-01  -1.080978899401595e+01  9.375351229708848e-01  -1.080978899401595e+01  1.105397135840472e-01  108.062585363922    
8.000000000000000e+00  1.181747665682847e-01  1.044097286646497e+02  9.361952962488872e-01  -1.157237026199993e+01  9.361952962488872e-01  -1.157237026199993e+01  1.188533509441984e-01  105.26949743542     
8.500000000000000e+00  1.268938696528611e-01  1.017925280092445e+02  9.347471373704157e-01  -1.236298539328580e+01  9.347471373704157e-01  -1.236298539328580e+01  1.275626234679862e-01  102.651156089651    
9.000000000000000e+00  1.360487356379824e-01  9.931773202360444e+01  9.331680706402089e-01  -1.318367124038627e+01  9.331680706402089e-01  -1.318367124038627e+01  1.366990981795137e-01  100.176015854522    
9.500000000000000e+00  1.456770915634516e-01  9.695915271089549e+01  9.314341460497690e-01  -1.403690750824374e+01  9.314341460497690e-01  -1.403690750824374e+01  1.462996703966245e-01  97.8173981915505    
1.000000000000000e+01  1.558204519343190e-01  9.469459231081518e+01  9.295194210205742e-01  -1.492550702137080e+01  9.295194210205742e-01  -1.492550702137080e+01  1.564048582251359e-01  95.5527808299871    
1.050000000000000e+01  1.665627860508599e-01  9.248626626446678e+01  9.273621447233149e-01  -1.585492299108536e+01  9.273621447233149e-01  -1.585492299108536e+01  1.670782197872609e-01  93.3459878549364    
1.100000000000000e+01  1.778863000176344e-01  9.035434245062733e+01  9.249924745439585e-01  -1.682471390280535e+01  9.249924745439585e-01  -1.682471390280535e+01  1.783384986368925e-01  91.2128177581764    
1.150000000000000e+01  1.898753037076032e-01  8.826544855397667e+01  9.223422178674306e-01  -1.784063176438695e+01  9.223422178674306e-01  -1.784063176438695e+01  1.902505003442851e-01  89.1219933898177    
1.200000000000000e+01  2.026000617052092e-01  8.620533288082247e+01  9.193688893127533e-01  -1.890780644542074e+01  9.193688893127533e-01  -1.890780644542074e+01  2.028830869275269e-01  87.0590177506483    
1.250000000000000e+01  2.161217906399454e-01  8.416136909239100e+01  9.160209631320939e-01  -2.003099655320760e+01  9.160209631320939e-01  -2.003099655320760e+01  2.162960042180755e-01  85.0111749109694    
1.300000000000000e+01  2.305250402630118e-01  8.212080116712436e+01  9.122399603342968e-01  -2.121665909683348e+01  9.122399603342968e-01  -2.121665909683348e+01  2.305720819375590e-01  82.9655398373567    
1.350000000000000e+01  2.458897280111418e-01  8.007167921020078e+01  9.079555547479210e-01  -2.247125472001052e+01  9.079555547479210e-01  -2.247125472001052e+01  2.457894236718530e-01  80.9100780301401    
1.400000000000000e+01  2.623078409871253e-01  7.800192459098298e+01  9.030851450092585e-01  -2.380237124984290e+01  9.030851450092585e-01  -2.380237124984290e+01  2.620379940276756e-01  78.8326190480332    
1.450000000000000e+01  2.798800539777040e-01  7.589924341246892e+01  8.975307427979210e-01  -2.521861244602839e+01  8.975307427979210e-01  -2.521861244602839e+01  2.794162118581021e-01  76.7207933635191    
1.500000000000000e+01  2.987103130899334e-01  7.375108970653820e+01  8.911757299890510e-01  -2.672937546497660e+01  8.911757299890510e-01  -2.672937546497660e+01  2.980255220239298e-01  74.5620125661399    
1.550000000000000e+01  3.189272093751845e-01  7.154381608335093e+01  8.838816746606355e-01  -2.834641758062052e+01  8.838816746606355e-01  -2.834641758062052e+01  3.179918450869729e-01  72.3425255264131    
1.600000000000000e+01  3.406587326039632e-01  6.926305139913089e+01  8.754819434271273e-01  -3.008246199860863e+01  8.754819434271273e-01  -3.008246199860863e+01  3.394400526509753e-01  70.0479259819013    
1.650000000000000e+01  3.640253870161568e-01  6.689391500113915e+01  8.657786689220890e-01  -3.195100732105923e+01  8.657786689220890e-01  -3.195100732105923e+01  3.624873081432924e-01  67.6633394871344    
1.700000000000000e+01  3.891696876865057e-01  6.441966022210984e+01  8.545349716297289e-01  -3.396871169005914e+01  8.545349716297289e-01  -3.396871169005914e+01  3.872725309641711e-01  65.1719696319086    
1.750000000000000e+01  4.162272902613415e-01  6.182231334296606e+01  8.414684631025373e-01  -3.615402559295988e+01  8.414684631025373e-01  -3.615402559295988e+01  4.139275061530759e-01  62.5558222231933    