
!*************************************************************************
!! ASITIC Ver 10.20.99.0.0.0
!!  Data generated by the <2Port> command in <slow> mode.
!! Generated on Thu Apr 11 17:21:13 1974
!# Spiral Data:	Name = <C1>, User-defined Structure, Origin = < 0.00, 0.00>
!# Sides =   1, Metal =   2, Exit Metal =   1
!# W = 60.00, S =  0.00, N =  0.00
!# Theta =  0.00, Phase =   1
!# Technolog File Data <BiCMOS.tek> @ <.>
!# Auto-Cell Mode:  <alpha> = 0.050000, <beta> = 0.800000
!# Metal Layers
!# Name=MSUB      Met=0  Lyr=  1  Mz=50.00  T=0.40  RS=0.04  Col=BLUE    
!# Name=M2        Met=1  Lyr=  2  Mz=47.00  T=0.80  RS=0.05  Col=GREEN   
!# Name=M3        Met=2  Lyr=  2  Mz=45.00  T=2.00  RS=0.02  Col=RED     
!# Substrate Layers
!# Lyr=    0  Eps=  12  Rho=1e+05  DZ=8.5e+02  T=8e+02
!# Lyr=    1  Eps=  12  Rho=1e+03  DZ=  52  T=   2
!# Lyr=    2  Eps=   4  Rho=1e+14  DZ=  50  T=  50
!*************************************************************************
# GHZ S MA S11 mag    S11 phase  S12 mag    S12 phase  S21 mag    S21 phase  S22 mag    S22 phase  
1.000000000000000e+00  2.471833357828966e-03  -1.150903389997095e+02  9.977985877106454e-01  -6.547154748941448e-01  9.977985877106454e-01  -6.547154748941448e-01  3.321956958479852e-03  -101.511271611281   
1.500000000000000e+00  3.662886668224279e-03  -1.296403103648794e+02  9.961997490763989e-01  -9.467482633794144e-01  9.961997490763989e-01  -9.467482633794144e-01  4.870384871352770e-03  -117.036203396434   
2.000000000000000e+00  4.883037107392144e-03  -1.424886968009943e+02  9.942985660598171e-01  -1.208016756892533e+00  9.942985660598171e-01  -1.208016756892533e+00  6.360006395657859e-03  -129.853517637401   
2.500000000000000e+00  6.121056737353516e-03  -1.539090004018322e+02  9.922840254313123e-01  -1.439003625939621e+00  9.922840254313123e-01  -1.439003625939621e+00  7.780078989010325e-03  -141.025386682543   
3.000000000000000e+00  7.371734207906148e-03  -1.640145142662344e+02  9.902990607332404e-01  -1.643453997979452e+00  9.902990607332404e-01  -1.643453997979452e+00  9.135046193186815e-03  -150.919619992603   
3.500000000000000e+00  8.630784783923694e-03  -1.729425435093144e+02  9.884335564667484e-01  -1.826681733123612e+00  9.884335564667484e-01  -1.826681733123612e+00  1.043439706048061e-02  -159.741460110354   
4.000000000000000e+00  9.877870812359199e-03  1.786807789947974e+02  9.867331963577443e-01  -1.996121234326875e+00  9.867331963577443e-01  -1.996121234326875e+00  1.168068049462692e-02  -167.801933042909   
4.500000000000000e+00  1.115744197057328e-02  1.717637915204299e+02  9.852085096291168e-01  -2.151997296543813e+00  9.852085096291168e-01  -2.151997296543813e+00  1.290810455690434e-02  -174.854998892452   
5.000000000000000e+00  1.244215542783838e-02  1.656626449959204e+02  9.838564594826811e-01  -2.299935763121307e+00  9.838564594826811e-01  -2.299935763121307e+00  1.411379970444732e-02  178.823385500017    
5.500000000000000e+00  1.373197732609406e-02  1.602569061044852e+02  9.826632792915158e-01  -2.442726975097453e+00  9.826632792915158e-01  -2.442726975097453e+00  1.530621802115688e-02  173.139211429575    
6.000000000000000e+00  1.502461090495491e-02  1.554609353057526e+02  9.816096580703110e-01  -2.582152957416162e+00  9.816096580703110e-01  -2.582152957416162e+00  1.649013846314220e-02  168.025411100225    
6.500000000000000e+00  1.632204756959269e-02  1.511757797991843e+02  9.806779336947533e-01  -2.719812896177997e+00  9.806779336947533e-01  -2.719812896177997e+00  1.767152246442430e-02  163.399898476162    
7.000000000000000e+00  1.762322363284206e-02  1.473355104255193e+02  9.798499455843598e-01  -2.856566739235913e+00  9.798499455843598e-01  -2.856566739235913e+00  1.885303033265761e-02  159.207879902227    
7.500000000000001e+00  1.892654996870488e-02  1.438821624459159e+02  9.791092940771540e-01  -2.992950692070446e+00  9.791092940771540e-01  -2.992950692070446e+00  2.003576351819239e-02  155.400694981865    
8.000000000000000e+00  2.023532409893864e-02  1.407540622692244e+02  9.784436481585137e-01  -3.129631274111861e+00  9.784436481585137e-01  -3.129631274111861e+00  2.122404165497903e-02  151.922485689736    
8.500000000000000e+00  2.154824255396226e-02  1.379122455631265e+02  9.778407029451662e-01  -3.266772910009028e+00  9.778407029451662e-01  -3.266772910009028e+00  2.241793725472624e-02  148.738321225217    
9.000000000000000e+00  2.286545503261271e-02  1.353193397950095e+02  9.772906835313397e-01  -3.404543142873229e+00  9.772906835313397e-01  -3.404543142873229e+00  2.361834977696583e-02  145.813891727109    
9.500000000000000e+00  2.418729247838508e-02  1.329438886523991e+02  9.767854364220820e-01  -3.543050993093908e+00  9.767854364220820e-01  -3.543050993093908e+00  2.482606967371975e-02  143.119068243354    
1.000000000000000e+01  2.551389092263085e-02  1.307590645193733e+02  9.763180956998165e-01  -3.682341126272358e+00  9.763180956998165e-01  -3.682341126272358e+00  2.604148952338024e-02  140.628208158949    
1.050000000000000e+01  2.685971011108408e-02  1.286678316520103e+02  9.758722406087594e-01  -3.823172375383293e+00  9.758722406087594e-01  -3.823172375383293e+00  2.726245860106675e-02  138.282870339403    
1.100000000000000e+01  2.819717583867497e-02  1.268005334978305e+02  9.754635815350565e-01  -3.964061311940238e+00  9.754635815350565e-01  -3.964061311940238e+00  2.849385408513756e-02  136.13567081479     
1.150000000000000e+01  2.953982218228527e-02  1.250651196890101e+02  9.750784255504782e-01  -4.105726785363991e+00  9.750784255504782e-01  -4.105726785363991e+00  2.973359668283577e-02  134.133670497676    
1.200000000000000e+01  3.088798374176691e-02  1.234468367934416e+02  9.747134247299419e-01  -4.248157286564467e+00  9.747134247299419e-01  -4.248157286564467e+00  3.098187795961768e-02  132.261716945213    
1.250000000000000e+01  3.224448326897505e-02  1.219309116980470e+02  9.743665088069530e-01  -4.391483550489779e+00  9.743665088069530e-01  -4.391483550489779e+00  3.224109519221841e-02  130.50437857418     
1.300000000000000e+01  3.360441560717850e-02  1.205109469240450e+02  9.740339194397509e-01  -4.535380595979790e+00  9.740339194397509e-01  -4.535380595979790e+00  3.350684355175106e-02  128.855087246606    
1.350000000000000e+01  3.497047792922690e-02  1.191752626912056e+02  9.737143951463973e-01  -4.679972413633018e+00  9.737143951463973e-01  -4.679972413633018e+00  3.478138213264916e-02  127.301295269801    
1.400000000000000e+01  3.634551309258824e-02  1.179140028695222e+02  9.734069368269577e-01  -4.825389355680159e+00  9.734069368269577e-01  -4.825389355680159e+00  3.606711924149822e-02  125.832218020616    
1.450000000000000e+01  3.772440240203295e-02  1.167232190263672e+02  9.731087416701923e-01  -4.971306175125107e+00  9.731087416701923e-01  -4.971306175125107e+00  3.735939729695331e-02  124.443890642067    
1.500000000000000e+01  3.911269917580254e-02  1.155934550876134e+02  9.728199606838049e-01  -5.118012654968384e+00  9.728199606838049e-01  -5.118012654968384e+00  3.866303707364013e-02  123.125642697785    
1.550000000000000e+01  4.050503858314738e-02  1.145220600463200e+02  9.725381949619584e-01  -5.265177229261512e+00  9.725381949619584e-01  -5.265177229261512e+00  3.997315714861226e-02  121.874793089182    
1.600000000000000e+01  4.190725929748837e-02  1.135010977975160e+02  9.722638832531987e-01  -5.413109810624035e+00  9.722638832531987e-01  -5.413109810624035e+00  4.129483808647733e-02  120.682387389495    
1.650000000000000e+01  4.331382201129720e-02  1.125287815965238e+02  9.719948962772342e-01  -5.561476667308130e+00  9.719948962772342e-01  -5.561476667308130e+00  4.262303533419958e-02  119.546625806974    
1.700000000000000e+01  4.473065462054715e-02  1.115987109978904e+02  9.717318976680929e-01  -5.710594328635536e+00  9.717318976680929e-01  -5.710594328635536e+00  4.396294711717941e-02  118.460104719624    
1.750000000000000e+01  4.615210358851123e-02  1.107096298066487e+02  9.714729532272617e-01  -5.860129725875665e+00  9.714729532272617e-01  -5.860129725875665e+00  4.530942051157351e-02  117.421624937111    