
!*************************************************************************
!! ASITIC Ver 10.20.99.0.0.0
!!  Data generated by the <2Port> command in <slow> mode.
!! Generated on Thu Apr 11 17:21:13 1974
!# Spiral Data:	Name = <C3>, User-defined Structure, Origin = <50.00,50.00>
!# Sides =   1, Metal =   4, Exit Metal =   3
!# W = 60.00, S =  0.00, N =  0.00
!# Theta =  0.00, Phase =   1
!# Technolog File Data <CMOS.tek> @ <.>
!# Auto-Cell Mode:  <alpha> = 0.050000, <beta> = 0.800000
!# Metal Layers
!# Name=M1        Met=0  Lyr=  1  Mz=48.70  T=0.50  RS=0.07  Col=YELLOW  
!# Name=M2        Met=1  Lyr=  1  Mz=47.60  T=0.50  RS=0.06  Col=LIGHTSKYBLUE1
!# Name=M3        Met=2  Lyr=  1  Mz=46.50  T=0.50  RS=0.06  Col=MEDIUM PURPLE
!# Name=M4        Met=3  Lyr=  1  Mz=45.50  T=0.50  RS=0.06  Col=LIGHT GREEN
!# Name=M5        Met=4  Lyr=  1  Mz=44.00  T=1.00  RS=0.03  Col=GREY    
!# Substrate Layers
!# Lyr=    0  Eps=  12  Rho=  10  DZ=7.5e+02  T=7e+02
!# Lyr=    1  Eps= 3.9  Rho=1e+14  DZ=  50  T=  50
!*************************************************************************
# GHZ S MA S11 mag    S11 phase  S12 mag    S12 phase  S21 mag    S21 phase  S22 mag    S22 phase  
1.000000000000000e+00  1.534161729788360e-03  -1.642367837315672e+01  9.980862795985261e-01  -1.311914400866925e+00  9.980862795985261e-01  -1.311914400866925e+00  1.948707655203288e-03  12.2369469569683    
1.500000000000000e+00  1.704437239348077e-03  -2.470832124588311e+01  9.979872842225558e-01  -1.961239713415590e+00  9.979872842225558e-01  -1.961239713415590e+00  2.050771268560688e-03  14.2001614165915    
2.000000000000000e+00  1.897182120890382e-03  -3.223608056406412e+01  9.979058363823287e-01  -2.609817072496025e+00  9.979058363823287e-01  -2.609817072496025e+00  2.127654621945780e-03  15.8593671904104    
2.500000000000000e+00  2.105885260396680e-03  -3.861202972635137e+01  9.978345161208916e-01  -3.258320975378578e+00  9.978345161208916e-01  -3.258320975378578e+00  2.189973356727054e-03  17.5662341078709    
3.000000000000000e+00  2.320244048732002e-03  -4.386804584308107e+01  9.977710749011036e-01  -3.907181567784376e+00  9.977710749011036e-01  -3.907181567784376e+00  2.243674151206332e-03  19.5330025921357    
3.500000000000000e+00  2.531932467664961e-03  -4.811139750493994e+01  9.977120789219418e-01  -4.556807356383534e+00  9.977120789219418e-01  -4.556807356383534e+00  2.296978140064655e-03  21.9087961542187    
4.000000000000000e+00  2.732187862287012e-03  -5.152160729160666e+01  9.976573041264398e-01  -5.207447958024533e+00  9.976573041264398e-01  -5.207447958024533e+00  2.355495316027286e-03  24.771645619252     
4.500000000000000e+00  2.919566937618385e-03  -5.427708931335992e+01  9.976039897406501e-01  -5.859008301544960e+00  9.976039897406501e-01  -5.859008301544960e+00  2.425068285947551e-03  28.0093042794976    
5.000000000000000e+00  3.082368764488203e-03  -5.641436510947614e+01  9.975533883779626e-01  -6.512067026745274e+00  9.975533883779626e-01  -6.512067026745274e+00  2.515106798519686e-03  31.7574560723763    
5.500000000000000e+00  3.218539254717863e-03  -5.802843090598949e+01  9.975040127157804e-01  -7.166628191103424e+00  9.975040127157804e-01  -7.166628191103424e+00  2.633116619097712e-03  35.8575095283055    
6.000000000000000e+00  3.323467859562693e-03  -5.915073755589663e+01  9.974553650619591e-01  -7.822991920291464e+00  9.974553650619591e-01  -7.822991920291464e+00  2.788986378344507e-03  40.2130759671261    
6.500000000000000e+00  3.390610188612003e-03  -5.977963181629828e+01  9.974083691178910e-01  -8.481405028482900e+00  9.974083691178910e-01  -8.481405028482900e+00  2.991557981935842e-03  44.6819516987914    
7.000000000000000e+00  3.422341699157182e-03  -5.991966492164511e+01  9.973602313378271e-01  -9.141769262755373e+00  9.973602313378271e-01  -9.141769262755373e+00  3.246188111115898e-03  48.9931601808871    
7.500000000000001e+00  3.413072769825664e-03  -5.950065353958295e+01  9.973121125132247e-01  -9.804536196900573e+00  9.973121125132247e-01  -9.804536196900573e+00  3.561993848236676e-03  53.0724260534352    
8.000000000000000e+00  3.359353389237814e-03  -5.841185632135157e+01  9.972644276281963e-01  -1.046999296803672e+01  9.972644276281963e-01  -1.046999296803672e+01  3.945935411584250e-03  56.8156283499302    
8.500000000000000e+00  3.264407781596578e-03  -5.651359523402426e+01  9.972160955091695e-01  -1.113811388107477e+01  9.972160955091695e-01  -1.113811388107477e+01  4.399459648579178e-03  60.1103449807664    
9.000000000000000e+00  3.135828625080166e-03  -5.362509875647872e+01  9.971658154795786e-01  -1.180900896823631e+01  9.971658154795786e-01  -1.180900896823631e+01  4.924574994531854e-03  62.9294600404647    
9.500000000000000e+00  2.973165474463549e-03  -4.929103295642636e+01  9.971153627489590e-01  -1.248336130210504e+01  9.971153627489590e-01  -1.248336130210504e+01  5.532005777814319e-03  65.3275191169798    
1.000000000000000e+01  2.797337869754157e-03  -4.308587795600181e+01  9.970633438751629e-01  -1.316109095980669e+01  9.970633438751629e-01  -1.316109095980669e+01  6.220316901304257e-03  67.3000329249274    
1.050000000000000e+01  2.637786324015103e-03  -3.445050619203924e+01  9.970094685393587e-01  -1.384243570762093e+01  9.970094685393587e-01  -1.384243570762093e+01  6.992871757798120e-03  68.889649608494     
1.100000000000000e+01  2.529875816316124e-03  -2.264659248434581e+01  9.969055163411296e-01  -1.452776687712064e+01  9.969055163411296e-01  -1.452776687712064e+01  7.876292644262517e-03  69.7894899735564    
1.150000000000000e+01  2.566896297027353e-03  -8.791708057880440e+00  9.968423734951363e-01  -1.521703780639113e+01  9.968423734951363e-01  -1.521703780639113e+01  8.828541441848609e-03  70.7524557152946    
1.200000000000000e+01  2.793971892565469e-03  5.681978735033596e+00  9.967764576039551e-01  -1.591064778835950e+01  9.967764576039551e-01  -1.591064778835950e+01  9.876037641372565e-03  71.4652455647796    
1.250000000000000e+01  3.241022479365593e-03  1.865097608088463e+01  9.967065898423642e-01  -1.660887225313812e+01  9.967065898423642e-01  -1.660887225313812e+01  1.102334587325244e-02  71.9590877642551    
1.300000000000000e+01  3.903488185352207e-03  2.899989109588910e+01  9.966326762821927e-01  -1.731207384091697e+01  9.966326762821927e-01  -1.731207384091697e+01  1.227650924912128e-02  72.2676794520856    
1.350000000000000e+01  4.759682950142214e-03  3.672101404360872e+01  9.965540040773606e-01  -1.802036769040507e+01  9.965540040773606e-01  -1.802036769040507e+01  1.363755344491501e-02  72.415605507535     
1.400000000000000e+01  5.792054107495010e-03  4.235361386200245e+01  9.964703169013972e-01  -1.873414528680681e+01  9.964703169013972e-01  -1.873414528680681e+01  1.511326135350934e-02  72.42752315773      
1.450000000000000e+01  6.988638188518646e-03  4.643706279043086e+01  9.963805475778513e-01  -1.945367948902427e+01  9.963805475778513e-01  -1.945367948902427e+01  1.670848274381478e-02  72.3210325780103    
1.500000000000000e+01  8.348481116244501e-03  4.942667832836590e+01  9.962856155113838e-01  -2.017960093281866e+01  9.962856155113838e-01  -2.017960093281866e+01  1.843448086035978e-02  72.1172614939314    
1.550000000000000e+01  9.862177016409070e-03  5.157935816294587e+01  9.961816739874634e-01  -2.091168987154827e+01  9.961816739874634e-01  -2.091168987154827e+01  2.028735628830706e-02  71.8208337894692    
1.600000000000000e+01  1.153526911245413e-02  5.313585271573244e+01  9.960690599449599e-01  -2.165056474474325e+01  9.960690599449599e-01  -2.165056474474325e+01  2.227822482928772e-02  71.4474610202513    
1.650000000000000e+01  1.337034928215806e-02  5.424559016163715e+01  9.959469299776819e-01  -2.239651932198618e+01  9.959469299776819e-01  -2.239651932198618e+01  2.441254442622164e-02  71.0073134552314    
1.700000000000000e+01  1.537851898277721e-02  5.502496256093421e+01  9.958155163543265e-01  -2.315031273722145e+01  9.958155163543265e-01  -2.315031273722145e+01  2.670396332983275e-02  70.5110412695843    
1.750000000000000e+01  1.755606323556852e-02  5.552717402687545e+01  9.956702622553230e-01  -2.391175289316773e+01  9.956702622553230e-01  -2.391175289316773e+01  2.914906585718362e-02  69.9593814258736    