
!*************************************************************************
!! ASITIC Ver 10.20.99.0.0.0
!!  Data generated by the <2Port> command in <slow> mode.
!! Generated on Thu Apr 11 17:21:13 1974
!# Spiral Data:	Name = <C2>, User-defined Structure, Origin = <100.00,100.00>
!# Sides =   1, Metal =   2, Exit Metal =   1
!# W = 80.00, S =  0.00, N =  0.00
!# Theta =  0.00, Phase =   1
!# Technolog File Data <BiCMOS.tek> @ <.>
!# Auto-Cell Mode:  <alpha> = 0.050000, <beta> = 0.800000
!# Metal Layers
!# Name=MSUB      Met=0  Lyr=  1  Mz=50.00  T=0.40  RS=0.04  Col=BLUE    
!# Name=M2        Met=1  Lyr=  2  Mz=47.00  T=0.80  RS=0.05  Col=GREEN   
!# Name=M3        Met=2  Lyr=  2  Mz=45.00  T=2.00  RS=0.02  Col=RED     
!# Substrate Layers
!# Lyr=    0  Eps=  12  Rho=1e+05  DZ=8.5e+02  T=8e+02
!# Lyr=    1  Eps=  12  Rho=1e+03  DZ=  52  T=   2
!# Lyr=    2  Eps=   4  Rho=1e+14  DZ=  50  T=  50
!*************************************************************************
# GHZ S MA S11 mag    S11 phase  S12 mag    S12 phase  S21 mag    S21 phase  S22 mag    S22 phase  
1.000000000000000e+00  7.386981533574597e-03  -1.134870115306035e+02  9.960607168669396e-01  -1.085019268767212e+00  9.960607168669396e-01  -1.085019268767212e+00  8.243100724394178e-03  -107.196299657105   
1.500000000000000e+00  1.055989725474060e-02  -1.240990727621381e+02  9.927626943974648e-01  -1.541099578258282e+00  9.927626943974648e-01  -1.541099578258282e+00  1.182598691641031e-02  -119.109528169427   
2.000000000000000e+00  1.332906881767467e-02  -1.338971278446859e+02  9.890709591333179e-01  -1.927311038270323e+00  9.890709591333179e-01  -1.927311038270323e+00  1.492177600248032e-02  -129.37172835617    
2.500000000000000e+00  1.569895011728046e-02  -1.428114783358127e+02  9.854162940340015e-01  -2.252056870777734e+00  9.854162940340015e-01  -2.252056870777734e+00  1.754151810455481e-02  -138.417861640787   
3.000000000000000e+00  1.772283060145372e-02  -1.508721978883615e+02  9.820523559071038e-01  -2.529538624091298e+00  9.820523559071038e-01  -2.529538624091298e+00  1.974789467084891e-02  -146.454408776965   
3.500000000000000e+00  1.946921326341602e-02  -1.581443945248025e+02  9.790842709622800e-01  -2.773789300362338e+00  9.790842709622800e-01  -2.773789300362338e+00  2.162101268396335e-02  -153.625812557745   
4.000000000000000e+00  2.094898272725096e-02  -1.649646222124311e+02  9.765283594753670e-01  -2.998908186124611e+00  9.765283594753670e-01  -2.998908186124611e+00  2.322022636382652e-02  -160.156052032544   
4.500000000000000e+00  2.233213947018188e-02  -1.709541552934866e+02  9.743490059249054e-01  -3.208810812198132e+00  9.743490059249054e-01  -3.208810812198132e+00  2.464558841759621e-02  -165.983103869997   
5.000000000000000e+00  2.360605845562590e-02  -1.764179210524832e+02  9.724985595114446e-01  -3.411537641984104e+00  9.724985595114446e-01  -3.411537641984104e+00  2.593202148179768e-02  -171.284103909824   
5.500000000000000e+00  2.480457584006535e-02  1.785817938468779e+02  9.709235286457030e-01  -3.610787326906533e+00  9.709235286457030e-01  -3.610787326906533e+00  2.711961633345186e-02  -176.130115117711   
6.000000000000000e+00  2.595416996346737e-02  1.739784527235792e+02  9.695766448824954e-01  -3.809208986162762e+00  9.695766448824954e-01  -3.809208986162762e+00  2.823945706567304e-02  179.408144249199    
6.500000000000000e+00  2.707345297014508e-02  1.697262242670151e+02  9.684159442734185e-01  -4.008208425572084e+00  9.684159442734185e-01  -4.008208425572084e+00  2.931455996786988e-02  175.283014630714    
7.000000000000000e+00  2.817692544151612e-02  1.657834339947964e+02  9.674068640861127e-01  -4.208707507347582e+00  9.674068640861127e-01  -4.208707507347582e+00  3.036225874079270e-02  171.451154937102    
7.500000000000001e+00  2.927556570041497e-02  1.621146745316682e+02  9.665212318040844e-01  -4.411252102932724e+00  9.665212318040844e-01  -4.411252102932724e+00  3.139577311130674e-02  167.876192902825    
8.000000000000000e+00  3.037686426914080e-02  1.586900595033337e+02  9.657361372864843e-01  -4.616077754251637e+00  9.657361372864843e-01  -4.616077754251637e+00  3.242485738042934e-02  164.529706854467    
8.500000000000000e+00  3.148689975948771e-02  1.554841866028141e+02  9.650331040785231e-01  -4.823307217893617e+00  9.650331040785231e-01  -4.823307217893617e+00  3.345699520498112e-02  161.386610651375    
9.000000000000000e+00  3.261123475397514e-02  1.524723976963587e+02  9.643979092766946e-01  -5.033062693623537e+00  9.643979092766946e-01  -5.033062693623537e+00  3.449896687507205e-02  158.423548503259    
9.500000000000000e+00  3.375103297809059e-02  1.496410692553592e+02  9.638173784767470e-01  -5.245106243318703e+00  9.638173784767470e-01  -5.245106243318703e+00  3.555317435790686e-02  155.627675298314    
1.000000000000000e+01  3.491125504892158e-02  1.469685054554763e+02  9.632829317686876e-01  -5.459586284229519e+00  9.632829317686876e-01  -5.459586284229519e+00  3.662511312090804e-02  152.978639626733    
1.050000000000000e+01  3.609358681078629e-02  1.443802982429509e+02  9.627721481218887e-01  -5.676829914500623e+00  9.627721481218887e-01  -5.676829914500623e+00  3.770419007250183e-02  150.444278091203    
1.100000000000000e+01  3.729835680336643e-02  1.419880591207045e+02  9.623052946531161e-01  -5.895722669305238e+00  9.623052946531161e-01  -5.895722669305238e+00  3.881589539447266e-02  148.055017493504    
1.150000000000000e+01  3.852524267629689e-02  1.397211228455408e+02  9.618637245575943e-01  -6.116575296833996e+00  9.618637245575943e-01  -6.116575296833996e+00  3.994905195538296e-02  145.782208560588    
1.200000000000000e+01  3.977848537935793e-02  1.375641071866407e+02  9.614441775451813e-01  -6.339568703239587e+00  9.614441775451813e-01  -6.339568703239587e+00  4.110775921963516e-02  143.611922180715    
1.250000000000000e+01  4.105734377011357e-02  1.355104029777971e+02  9.610424822832438e-01  -6.564518947530257e+00  9.610424822832438e-01  -6.564518947530257e+00  4.229173834846629e-02  141.538296593475    
1.300000000000000e+01  4.236251816465784e-02  1.335516610619220e+02  9.606556286952559e-01  -6.791375111101635e+00  9.606556286952559e-01  -6.791375111101635e+00  4.350189736263153e-02  139.553935220045    
1.350000000000000e+01  4.369462284137853e-02  1.316806642681414e+02  9.602810882062224e-01  -7.020089624315956e+00  9.602810882062224e-01  -7.020089624315956e+00  4.473897758065604e-02  137.652258665504    
1.400000000000000e+01  4.505229585519071e-02  1.298922985806251e+02  9.599161851392567e-01  -7.250501614346256e+00  9.599161851392567e-01  -7.250501614346256e+00  4.600198214445107e-02  135.82897316597     
1.450000000000000e+01  4.643988844104476e-02  1.281770818742084e+02  9.595602568604449e-01  -7.482837640481343e+00  9.595602568604449e-01  -7.482837640481343e+00  4.729484135674927e-02  134.075133043655    
1.500000000000000e+01  4.785605117994251e-02  1.265313221647557e+02  9.592112120470341e-01  -7.716953349074448e+00  9.592112120470341e-01  -7.716953349074448e+00  4.861648808459580e-02  132.387589470439    
1.550000000000000e+01  4.930127789926698e-02  1.249501342959339e+02  9.588677725711523e-01  -7.952834713647413e+00  9.588677725711523e-01  -7.952834713647413e+00  4.996745120432741e-02  130.761895665489    
1.600000000000000e+01  5.077617721173185e-02  1.234287340567739e+02  9.585287883283713e-01  -8.190486679723843e+00  9.585287883283713e-01  -8.190486679723843e+00  5.134831388659236e-02  129.19378305288     
1.650000000000000e+01  5.228128363660610e-02  1.219630427281405e+02  9.581932982404221e-01  -8.429911022477246e+00  9.581932982404221e-01  -8.429911022477246e+00  5.275960037130212e-02  127.67950179198     
1.700000000000000e+01  5.381717852674151e-02  1.205492512343300e+02  9.578604542936592e-01  -8.671118762620708e+00  9.578604542936592e-01  -8.671118762620708e+00  5.420185991154016e-02  126.215560762939    
1.750000000000000e+01  5.538678978085337e-02  1.191826568716677e+02  9.575300598726211e-01  -8.914269103305145e+00  9.575300598726211e-01  -8.914269103305145e+00  5.567769496275140e-02  124.797435904173    