
!*************************************************************************
!! ASITIC Ver 10.20.99.0.0.0
!!  Data generated by the <2Port> command in <slow> mode.
!! Generated on Thu Apr 11 17:21:13 1974
!# Spiral Data:	Name = <C4>, User-defined Structure, Origin = <100.00,200.00>
!# Sides =   1, Metal =   2, Exit Metal =   1
!# W = 100.00, S =  0.00, N =  0.00
!# Theta =  0.00, Phase =   1
!# Technolog File Data <BiCMOS.tek> @ <.>
!# Auto-Cell Mode:  <alpha> = 0.050000, <beta> = 0.800000
!# Metal Layers
!# Name=MSUB      Met=0  Lyr=  1  Mz=50.00  T=0.40  RS=0.04  Col=BLUE    
!# Name=M2        Met=1  Lyr=  2  Mz=47.00  T=0.80  RS=0.05  Col=GREEN   
!# Name=M3        Met=2  Lyr=  2  Mz=45.00  T=2.00  RS=0.02  Col=RED     
!# Substrate Layers
!# Lyr=    0  Eps=  12  Rho=1e+05  DZ=8.5e+02  T=8e+02
!# Lyr=    1  Eps=  12  Rho=1e+03  DZ=  52  T=   2
!# Lyr=    2  Eps=   4  Rho=1e+14  DZ=  50  T=  50
!*************************************************************************
# GHZ S MA S11 mag    S11 phase  S12 mag    S12 phase  S21 mag    S21 phase  S22 mag    S22 phase  
1.000000000000000e+00  1.648915268311303e-02  -1.374830652628850e+02  9.860129991158864e-01  -2.333234455865931e+00  9.860129991158864e-01  -2.333234455865931e+00  1.696530699042251e-02  -133.492942859917   
1.500000000000000e+00  2.262089821596837e-02  -1.565106446629562e+02  9.767952384822102e-01  -3.047443823595494e+00  9.767952384822102e-01  -3.047443823595494e+00  2.325957264288950e-02  -153.464031824914   
2.000000000000000e+00  2.774277836538890e-02  -1.720646372772196e+02  9.693204052015816e-01  -3.575888951167975e+00  9.693204052015816e-01  -3.575888951167975e+00  2.846355103323789e-02  -169.448157779177   
2.500000000000000e+00  3.231602679523712e-02  1.752179404082068e+02  9.637676294317598e-01  -4.021840601514972e+00  9.637676294317598e-01  -4.021840601514972e+00  3.307216302242383e-02  177.590411934551    
3.000000000000000e+00  3.665231772339025e-02  1.647312514703724e+02  9.597118211318399e-01  -4.441523246603792e+00  9.597118211318399e-01  -4.441523246603792e+00  3.741580435083282e-02  166.936709147534    
3.500000000000000e+00  4.092638188686941e-02  1.559725638407197e+02  9.567069407005764e-01  -4.860757189754803e+00  9.567069407005764e-01  -4.860757189754803e+00  4.168272309463106e-02  158.050804780335    
4.000000000000000e+00  4.525049756384546e-02  1.484077419502449e+02  9.544154332340922e-01  -5.294281244645660e+00  9.544154332340922e-01  -5.294281244645660e+00  4.599546527473122e-02  150.458267846841    
4.500000000000000e+00  4.965025687578749e-02  1.420666683885398e+02  9.526057807407876e-01  -5.737640166972158e+00  9.526057807407876e-01  -5.737640166972158e+00  5.036946189028377e-02  144.025737715624    
5.000000000000000e+00  5.415227992363249e-02  1.365748103020292e+02  9.511224577218842e-01  -6.195275181347171e+00  9.511224577218842e-01  -6.195275181347171e+00  5.484402924509196e-02  138.454566022672    
5.500000000000000e+00  5.877531107555845e-02  1.317614276586213e+02  9.498618527918684e-01  -6.667332372284742e+00  9.498618527918684e-01  -6.667332372284742e+00  5.943866597670851e-02  133.571633882187    
6.000000000000000e+00  6.352721941641452e-02  1.274993458115608e+02  9.487510895468370e-01  -7.153214779996476e+00  9.487510895468370e-01  -7.153214779996476e+00  6.416156011872673e-02  129.248428146151    
6.500000000000000e+00  6.841590439387717e-02  1.236882366469704e+02  9.477393929585471e-01  -7.652492416478633e+00  9.477393929585471e-01  -7.652492416478633e+00  6.902054542121830e-02  125.383202829807    
7.000000000000000e+00  7.344710714287252e-02  1.202495131043789e+02  9.467901060090672e-01  -8.164736168590830e+00  9.467901060090672e-01  -8.164736168590830e+00  7.402104223282002e-02  121.896951646151    
7.500000000000001e+00  7.862887252562097e-02  1.171202257723569e+02  9.458762039157766e-01  -8.689837201829425e+00  9.458762039157766e-01  -8.689837201829425e+00  7.917078505908368e-02  118.725581058423    
8.000000000000000e+00  8.397054762347572e-02  1.142495304106901e+02  9.449773566908855e-01  -9.227870034949055e+00  9.449773566908855e-01  -9.227870034949055e+00  8.447845069878927e-02  115.817781579191    
8.500000000000000e+00  8.947902587145350e-02  1.115973729027430e+02  9.440763174902080e-01  -9.778882523526208e+00  9.440763174902080e-01  -9.778882523526208e+00  8.995062614417192e-02  113.13247932864     
9.000000000000000e+00  9.516052463504955e-02  1.091308586298882e+02  9.431587283412829e-01  -1.034295533469298e+01  9.431587283412829e-01  -1.034295533469298e+01  9.559301379509104e-02  110.636390389561    
9.500000000000000e+00  1.010308671450239e-01  1.068214402039292e+02  9.422143813768887e-01  -1.092083158156246e+01  9.422143813768887e-01  -1.092083158156246e+01  1.014208117889907e-01  108.300387273596    
1.000000000000000e+01  1.070986773261487e-01  1.046466598244608e+02  9.412320330466053e-01  -1.151287902702876e+01  9.412320330466053e-01  -1.151287902702876e+01  1.074421737814655e-01  106.101527553195    
1.050000000000000e+01  1.134035740403611e-01  1.025624256867435e+02  9.401754547413552e-01  -1.212124493118756e+01  9.401754547413552e-01  -1.212124493118756e+01  1.136747232847868e-01  104.000180802099    
1.100000000000000e+01  1.199056478817873e-01  1.006021434772875e+02  9.390860357714053e-01  -1.274371478598480e+01  9.390860357714053e-01  -1.274371478598480e+01  1.201196983818881e-01  102.019151491935    
1.150000000000000e+01  1.266453040073354e-01  9.872672824355838e+01  9.379302871796269e-01  -1.338261479277569e+01  9.379302871796269e-01  -1.338261479277569e+01  1.267967628497980e-01  100.124432368873    
1.200000000000000e+01  1.336382825576547e-01  9.692402121337624e+01  9.366986423175787e-01  -1.403892434872062e+01  9.366986423175787e-01  -1.403892434872062e+01  1.337210847459127e-01  98.3035315672449    
1.250000000000000e+01  1.409015633263510e-01  9.518338975867592e+01  9.353811766349532e-01  -1.471373477493090e+01  9.353811766349532e-01  -1.471373477493090e+01  1.409090270421292e-01  96.5455794215981    
1.300000000000000e+01  1.484533962004756e-01  9.349550156467146e+01  9.339673173782019e-01  -1.540825202915543e+01  9.339673173782019e-01  -1.540825202915543e+01  1.483782367637013e-01  94.8409959923863    
1.350000000000000e+01  1.563174686829779e-01  9.185178342277950e+01  9.324462651025777e-01  -1.612405193276114e+01  9.324462651025777e-01  -1.612405193276114e+01  1.561516758420589e-01  93.1809674080225    
1.400000000000000e+01  1.645069580864048e-01  9.024523087762189e+01  9.308042658204356e-01  -1.686210992839271e+01  9.308042658204356e-01  -1.686210992839271e+01  1.642420049395799e-01  91.5583877391249    
1.450000000000000e+01  1.730484932971196e-01  8.866877733299715e+01  9.290282379744673e-01  -1.762426347206512e+01  9.290282379744673e-01  -1.762426347206512e+01  1.726750736698046e-01  89.9659832129248    
1.500000000000000e+01  1.819709725169772e-01  8.711594570450944e+01  9.271035291843727e-01  -1.841253890605986e+01  9.271035291843727e-01  -1.841253890605986e+01  1.814789654116620e-01  88.397089189993     
1.550000000000000e+01  1.912917034841173e-01  8.558134332108462e+01  9.250120895455891e-01  -1.922830171749527e+01  9.250120895455891e-01  -1.922830171749527e+01  1.906703746378536e-01  86.8462645615409    
1.600000000000000e+01  2.010484367629423e-01  8.405895773669968e+01  9.227358816699293e-01  -2.007423733829518e+01  9.227358816699293e-01  -2.007423733829518e+01  2.002859995698929e-01  85.3073109978524    
1.650000000000000e+01  2.112619244364741e-01  8.254394312809022e+01  9.202525691262475e-01  -2.095204667814524e+01  9.202525691262475e-01  -2.095204667814524e+01  2.103458576845086e-01  83.7753606852046    
1.700000000000000e+01  2.219746754410795e-01  8.103080570051182e+01  9.175390355294903e-01  -2.186485991395480e+01  9.175390355294903e-01  -2.186485991395480e+01  2.208913646157173e-01  82.2447447452032    
1.750000000000000e+01  2.332168979747566e-01  7.951474153191602e+01  9.145675824451510e-01  -2.281513464684570e+01  9.145675824451510e-01  -2.281513464684570e+01  2.319517715250912e-01  80.7106218765051    