
!*************************************************************************
!! ASITIC Ver 10.20.99.0.0.0
!!  Data generated by the <2Port> command in <slow> mode.
!! Generated on Thu Apr 11 17:21:13 1974
!# Spiral Data:	Name = <C3>, User-defined Structure, Origin = <50.00,50.00>
!# Sides =   1, Metal =   2, Exit Metal =   1
!# W = 60.00, S =  0.00, N =  0.00
!# Theta =  0.00, Phase =   1
!# Technolog File Data <BiCMOS.tek> @ <.>
!# Auto-Cell Mode:  <alpha> = 0.050000, <beta> = 0.800000
!# Metal Layers
!# Name=MSUB      Met=0  Lyr=  1  Mz=50.00  T=0.40  RS=0.04  Col=BLUE    
!# Name=M2        Met=1  Lyr=  2  Mz=47.00  T=0.80  RS=0.05  Col=GREEN   
!# Name=M3        Met=2  Lyr=  2  Mz=45.00  T=2.00  RS=0.02  Col=RED     
!# Substrate Layers
!# Lyr=    0  Eps=  12  Rho=1e+05  DZ=8.5e+02  T=8e+02
!# Lyr=    1  Eps=  12  Rho=1e+03  DZ=  52  T=   2
!# Lyr=    2  Eps=   4  Rho=1e+14  DZ=  50  T=  50
!*************************************************************************
# GHZ S MA S11 mag    S11 phase  S12 mag    S12 phase  S21 mag    S21 phase  S22 mag    S22 phase  
1.000000000000000e+00  4.334379213479706e-03  -1.394376176562587e+02  9.942287025614649e-01  -1.497986001678383e+00  9.942287025614649e-01  -1.497986001678383e+00  4.153155843895352e-03  -129.112959278445   
1.500000000000000e+00  7.404666739760511e-03  -1.635945027994963e+02  9.900723695609454e-01  -2.118932158785083e+00  9.900723695609454e-01  -2.118932158785083e+00  7.142435342554338e-03  -157.879814843858   
2.000000000000000e+00  1.105051628782054e-02  1.791029250628348e+02  9.857079776956397e-01  -2.649369591100493e+00  9.857079776956397e-01  -2.649369591100493e+00  1.078010083614562e-02  -177.193290582322   
2.500000000000000e+00  1.505700207742725e-02  1.660500100459815e+02  9.816457553890350e-01  -3.109479993260006e+00  9.816457553890350e-01  -3.109479993260006e+00  1.480984504016000e-02  168.747203619128    
3.000000000000000e+00  1.926824591498860e-02  1.558553418399596e+02  9.781000585271906e-01  -3.522344927386797e+00  9.781000585271906e-01  -3.522344927386797e+00  1.905701077952542e-02  157.98097195268     
3.500000000000000e+00  2.358958791884612e-02  1.476671016215329e+02  9.751006787196670e-01  -3.907066926531119e+00  9.751006787196670e-01  -3.907066926531119e+00  2.341885764781924e-02  149.438874731593    
4.000000000000000e+00  2.802338011158128e-02  1.406946686391157e+02  9.725923880832440e-01  -4.281630783650925e+00  9.725923880832440e-01  -4.281630783650925e+00  2.787906964820519e-02  142.347734384889    
4.500000000000000e+00  3.244098985008554e-02  1.351153749556363e+02  9.704850044445268e-01  -4.645029507537121e+00  9.704850044445268e-01  -4.645029507537121e+00  3.233062540785862e-02  136.590820298445    
5.000000000000000e+00  3.687054048868917e-02  1.303820196725513e+02  9.687008739672964e-01  -5.006768124668065e+00  9.687008739672964e-01  -5.006768124668065e+00  3.679254395051670e-02  131.726948977518    
5.500000000000000e+00  4.131126632809160e-02  1.263065329976610e+02  9.671708924680740e-01  -5.370078308952832e+00  9.671708924680740e-01  -5.370078308952832e+00  4.126369865220963e-02  127.553343435966    
6.000000000000000e+00  4.575548793400296e-02  1.227573787691783e+02  9.658343067764765e-01  -5.736213860701326e+00  9.658343067764765e-01  -5.736213860701326e+00  4.573636067594192e-02  123.928378261977    
6.500000000000000e+00  5.021409254832928e-02  1.196270418991605e+02  9.646485417916593e-01  -6.106622441634559e+00  9.646485417916593e-01  -6.106622441634559e+00  5.022136206401007e-02  120.738738764435    
7.000000000000000e+00  5.468621006337830e-02  1.168396302826514e+02  9.635763357223954e-01  -6.481512873045252e+00  9.635763357223954e-01  -6.481512873045252e+00  5.471784539930561e-02  117.904588798931    
7.500000000000001e+00  5.917152678291451e-02  1.143354065999957e+02  9.625882464995639e-01  -6.860863522368235e+00  9.625882464995639e-01  -6.860863522368235e+00  5.922563077723691e-02  115.363194683971    
8.000000000000000e+00  6.368430149342301e-02  1.120638541078984e+02  9.616650293028911e-01  -7.245359791790555e+00  9.616650293028911e-01  -7.245359791790555e+00  6.375892787355208e-02  113.061678869119    
8.500000000000000e+00  6.822396061512878e-02  1.099887004384425e+02  9.607881089194052e-01  -7.634722512707620e+00  9.607881089194052e-01  -7.634722512707620e+00  6.831718649085557e-02  110.962581145557    
9.000000000000000e+00  7.279491984268856e-02  1.080794072750781e+02  9.599435355480029e-01  -8.028956202673331e+00  9.599435355480029e-01  -8.028956202673331e+00  7.290479497915915e-02  109.034143938079    
9.500000000000000e+00  7.740187622856086e-02  1.063112938269926e+02  9.591202817905385e-01  -8.428084905649511e+00  9.591202817905385e-01  -8.428084905649511e+00  7.752654881625304e-02  107.250681960959    
1.000000000000000e+01  8.204870928616094e-02  1.046641113183848e+02  9.583092859578581e-01  -8.832086193249157e+00  9.583092859578581e-01  -8.832086193249157e+00  8.218619753933171e-02  105.59139090183     
1.050000000000000e+01  8.677661368025640e-02  1.030894806762125e+02  9.574788252932783e-01  -9.242769199802357e+00  9.574788252932783e-01  -9.242769199802357e+00  8.690223936999893e-02  104.013607701931    
1.100000000000000e+01  9.151651932781053e-02  1.016371068691196e+02  9.566690011422007e-01  -9.656614584806443e+00  9.566690011422007e-01  -9.656614584806443e+00  9.164973941209009e-02  102.553531523862    
1.150000000000000e+01  9.630810274771820e-02  1.002633491697610e+02  9.558524617409581e-01  -1.007543107883452e+01  9.558524617409581e-01  -1.007543107883452e+01  9.644693088988256e-02  101.173899126857    
1.200000000000000e+01  1.011558893616603e-01  9.895804525353167e+01  9.550245310676685e-01  -1.049933209879932e+01  9.550245310676685e-01  -1.049933209879932e+01  1.012981643940376e-01  99.8642929346805    
1.250000000000000e+01  1.060704533798664e-01  9.771226004861870e+01  9.541825335894674e-01  -1.092880155815165e+01  9.541825335894674e-01  -1.092880155815165e+01  1.062137108917227e-01  98.6155265988413    
1.300000000000000e+01  1.110425640805829e-01  9.651979024806542e+01  9.533200666662310e-01  -1.136319919549964e+01  9.533200666662310e-01  -1.136319919549964e+01  1.111847205172903e-01  97.421141516353     
1.350000000000000e+01  1.160828569912853e-01  9.537377686469345e+01  9.524351752897260e-01  -1.180305125993929e+01  9.524351752897260e-01  -1.180305125993929e+01  1.162214880012665e-01  96.2741295964172    
1.400000000000000e+01  1.212021484990859e-01  9.426843236049298e+01  9.515260256838606e-01  -1.224891434928445e+01  9.515260256838606e-01  -1.224891434928445e+01  1.213345354923344e-01  95.1685075150364    
1.450000000000000e+01  1.263909759227220e-01  9.319969926520243e+01  9.505870265367533e-01  -1.270018141076383e+01  9.505870265367533e-01  -1.270018141076383e+01  1.265146878810743e-01  94.100145151679     
1.500000000000000e+01  1.316672282467386e-01  9.216272540244772e+01  9.496178680902128e-01  -1.315785141613911e+01  9.496178680902128e-01  -1.315785141613911e+01  1.317793337540757e-01  93.0639957980697    
1.550000000000000e+01  1.370209344360932e-01  9.115446924117369e+01  9.486132637861097e-01  -1.362131105823830e+01  9.486132637861097e-01  -1.362131105823830e+01  1.371188082498684e-01  92.0569881226477    
1.600000000000000e+01  1.424710096766098e-01  9.017093732876552e+01  9.475727658085088e-01  -1.409164850255666e+01  9.475727658085088e-01  -1.409164850255666e+01  1.425514293018005e-01  91.0749817436663    
1.650000000000000e+01  1.480070951164139e-01  8.920979636910056e+01  9.464911768215886e-01  -1.456824769739016e+01  9.464911768215886e-01  -1.456824769739016e+01  1.480671493378792e-01  90.1156404966382    
1.700000000000000e+01  1.536486267482249e-01  8.826783248807989e+01  9.453679132308128e-01  -1.505225269975358e+01  9.453679132308128e-01  -1.505225269975358e+01  1.536848325505179e-01  89.1755933410924    
1.750000000000000e+01  1.593850325776901e-01  8.734318919434698e+01  9.441977474487401e-01  -1.554305176672508e+01  9.441977474487401e-01  -1.554305176672508e+01  1.593941928412450e-01  88.2530160667993    