
!*************************************************************************
!! ASITIC Ver 10.20.99.0.0.0
!!  Data generated by the <2Port> command in <slow> mode.
!! Generated on Thu Apr 11 17:21:13 1974
!# Spiral Data:	Name = <MM_160>, User-defined Structure, Origin = <100.00,100.00>
!# Sides =   4, Metal =   4, Exit Metal =   3
!# W = 10.00, S =  2.00, N =  3.00
!# Theta =  0.00, Phase =   1
!# Technolog File Data <CMOS.tek> @ <.>
!# Auto-Cell Mode:  <alpha> = 0.050000, <beta> = 0.800000
!# Metal Layers
!# Name=M1        Met=0  Lyr=  1  Mz=48.70  T=0.50  RS=0.07  Col=YELLOW  
!# Name=M2        Met=1  Lyr=  1  Mz=47.60  T=0.50  RS=0.06  Col=LIGHTSKYBLUE1
!# Name=M3        Met=2  Lyr=  1  Mz=46.50  T=0.50  RS=0.06  Col=MEDIUM PURPLE
!# Name=M4        Met=3  Lyr=  1  Mz=45.50  T=0.50  RS=0.06  Col=LIGHT GREEN
!# Name=M5        Met=4  Lyr=  1  Mz=44.00  T=1.00  RS=0.03  Col=GREY    
!# Substrate Layers
!# Lyr=    0  Eps=  12  Rho=  10  DZ=7.5e+02  T=7e+02
!# Lyr=    1  Eps= 3.9  Rho=1e+14  DZ=  50  T=  50
!*************************************************************************
# GHZ S MA S11 mag    S11 phase  S12 mag    S12 phase  S21 mag    S21 phase  S22 mag    S22 phase  
1.000000000000000e+00  3.699911920432373e-01  4.825163827404008e+01  8.199832840423801e-01  -2.313421070697139e+01  8.199832840423801e-01  -2.313421070697139e+01  3.646954014193362e-01  46.7377747018205    
1.500000000000000e+00  5.180430105390615e-01  4.184987000202560e+01  7.430860953041108e-01  -3.410228552028943e+01  7.430860953041108e-01  -3.410228552028943e+01  5.105053053471050e-01  39.9069470304144    
2.000000000000000e+00  6.456955479117884e-01  3.336403280198866e+01  6.464400513938781e-01  -4.444512094971579e+01  6.464400513938781e-01  -4.444512094971579e+01  6.371513097082635e-01  30.936736362591     
2.500000000000000e+00  7.535487748678775e-01  2.421478116996659e+01  5.343385723584867e-01  -5.439381303807470e+01  5.343385723584867e-01  -5.439381303807470e+01  7.454017110116317e-01  21.2666261897525    
3.000000000000000e+00  8.327743665168411e-01  1.503643414005618e+01  4.151246926151613e-01  -6.291958246369811e+01  4.151246926151613e-01  -6.291958246369811e+01  8.263701123380872e-01  11.5375127511752    
3.500000000000000e+00  8.876909728408731e-01  6.177104493040686e+00  2.952918863743234e-01  -6.960897005962335e+01  2.952918863743234e-01  -6.960897005962335e+01  8.843340592101822e-01  2.1044918629095     
4.000000000000000e+00  9.194329692344115e-01  -2.303039947237254e+00  1.797520701672644e-01  -7.169596903739014e+01  1.797520701672644e-01  -7.169596903739014e+01  9.202475194115711e-01  -6.97940833765584   
4.500000000000000e+00  9.344661501045108e-01  -1.033322800734217e+01  7.780956884764245e-02  -5.597263307593099e+01  7.780956884764245e-02  -5.597263307593099e+01  9.406895893620786e-01  -15.6408473846933   
5.000000000000000e+00  9.320115962235230e-01  -1.781974811545384e+01  6.924953810544549e-02  2.652288823463948e+01  6.924953810544549e-02  2.652288823463948e+01  9.444946064778179e-01  -23.7925414497841   
5.500000000000000e+00  9.166200536422834e-01  -2.480853167591700e+01  1.510292800201927e-01  4.705246897857748e+01  1.510292800201927e-01  4.705246897857748e+01  9.361765940451141e-01  -31.4903424337729   
6.000000000000000e+00  8.918807530219809e-01  -3.124292221883345e+01  2.327806602985125e-01  4.729093985581023e+01  2.327806602985125e-01  4.729093985581023e+01  9.192040258938730e-01  -38.6793462040151   
6.500000000000000e+00  8.610445483641149e-01  -3.729581487804950e+01  3.082861047412536e-01  4.421544064270035e+01  3.082861047412536e-01  4.421544064270035e+01  8.971718518882338e-01  -45.5456590320907   
7.000000000000000e+00  8.241426578505445e-01  -4.274458552615257e+01  3.736405903348628e-01  3.983348208883714e+01  3.736405903348628e-01  3.983348208883714e+01  8.693780633497168e-01  -51.8769458467543   
7.500000000000001e+00  7.838453188809316e-01  -4.773313535863387e+01  4.308871923470167e-01  3.523251478851554e+01  4.308871923470167e-01  3.523251478851554e+01  8.388380509756049e-01  -57.8352971127852   
8.000000000000000e+00  7.403763164744720e-01  -5.219311970132836e+01  4.799770912088695e-01  3.051816445651453e+01  4.799770912088695e-01  3.051816445651453e+01  8.054127292714277e-01  -63.3999028701322   
8.500000000000000e+00  6.960681028232342e-01  -5.629479736663887e+01  5.234086675466612e-01  2.604084714838112e+01  5.234086675466612e-01  2.604084714838112e+01  7.722357170961839e-01  -68.7375242859861   
9.000000000000000e+00  6.520285116592348e-01  -6.003093549154129e+01  5.614496355291018e-01  2.186677879982074e+01  5.614496355291018e-01  2.186677879982074e+01  7.406620331785041e-01  -73.8467035919709   
9.500000000000000e+00  6.059657696203028e-01  -6.325062537810496e+01  5.943129191233191e-01  1.769825973479729e+01  5.943129191233191e-01  1.769825973479729e+01  7.077109724342701e-01  -78.7280492354681   
1.000000000000000e+01  5.591680972864886e-01  -6.593783560547207e+01  6.228429789398591e-01  1.367232114617489e+01  6.228429789398591e-01  1.367232114617489e+01  6.751209841765512e-01  -83.4291158760754   
1.050000000000000e+01  5.116451325949337e-01  -6.778993957861806e+01  6.466581790872058e-01  9.707589701474637e+00  6.466581790872058e-01  9.707589701474637e+00  6.418013410733530e-01  -87.876192253164    
1.100000000000000e+01  4.639420678736184e-01  -6.885227102911986e+01  6.678595403158462e-01  5.924042899660170e+00  6.678595403158462e-01  5.924042899660170e+00  6.096691310168865e-01  -92.2744699334612   
1.150000000000000e+01  4.167913583117867e-01  -6.860418324483331e+01  6.859786693639235e-01  2.243131469703093e+00  6.859786693639235e-01  2.243131469703093e+00  5.783315159840254e-01  -96.5511401021365   
1.200000000000000e+01  3.687131374128892e-01  -6.677669795943513e+01  7.039660708767561e-01  -1.285999749526194e+00  7.039660708767561e-01  -1.285999749526194e+00  5.489194719624300e-01  -101.069477956555   
1.250000000000000e+01  3.285044967748312e-01  -6.148300882197617e+01  7.176246407839189e-01  -4.804450007119890e+00  7.176246407839189e-01  -4.804450007119890e+00  5.185660136107747e-01  -105.295759340347   
1.300000000000000e+01  3.046402738767314e-01  -5.192089154423787e+01  7.292073575612683e-01  -8.268668720346188e+00  7.292073575612683e-01  -8.268668720346188e+00  4.884093240171323e-01  -109.502893436464   
1.350000000000000e+01  3.170604124035524e-01  -3.922327149211348e+01  7.385641080447980e-01  -1.171585846431997e+01  7.385641080447980e-01  -1.171585846431997e+01  4.576242679783546e-01  -113.653950901899   
1.400000000000000e+01  3.814919271032812e-01  -2.922650663878286e+01  7.463658272938593e-01  -1.511164567945220e+01  7.463658272938593e-01  -1.511164567945220e+01  4.273998531132566e-01  -117.874208919991   
1.450000000000000e+01  4.975657785652770e-01  -2.730799550254658e+01  7.524585844036895e-01  -1.849325667564813e+01  7.524585844036895e-01  -1.849325667564813e+01  3.969225468219992e-01  -122.145111304585   
1.500000000000000e+01  6.336423083617605e-01  -3.518990767771869e+01  7.558092821241666e-01  -2.204292355134511e+01  7.558092821241666e-01  -2.204292355134511e+01  3.626244185489899e-01  -126.325053893558   
1.550000000000000e+01  7.168326067734516e-01  -4.759150472007233e+01  7.581664269917029e-01  -2.545024370292601e+01  7.581664269917029e-01  -2.545024370292601e+01  3.306234286134214e-01  -130.691603696788   
1.600000000000000e+01  7.185405482378220e-01  -6.031346314686706e+01  7.587700366771947e-01  -2.887701667737465e+01  7.587700366771947e-01  -2.887701667737465e+01  2.978222103814838e-01  -135.173287857832   
1.650000000000000e+01  6.643689619094193e-01  -7.020179936458341e+01  7.575553433848898e-01  -3.233235288533436e+01  7.575553433848898e-01  -3.233235288533436e+01  2.640548525381005e-01  -139.808439753473   
1.700000000000000e+01  6.067669891734366e-01  -7.730097706460577e+01  7.590844842416021e-01  -3.551111235295291e+01  7.590844842416021e-01  -3.551111235295291e+01  2.366329813429880e-01  -145.712829588713   
1.750000000000000e+01  5.325757972127599e-01  -8.118261254894475e+01  7.547340445960171e-01  -3.902454037883243e+01  7.547340445960171e-01  -3.902454037883243e+01  2.014341412071767e-01  -151.260071091919   