
!*************************************************************************
!! ASITIC Ver 10.20.99.0.0.0
!!  Data generated by the <2Port> command in <slow> mode.
!! Generated on Thu Apr 11 17:21:13 1974
!# Spiral Data:	Name = <MM_160>, User-defined Structure, Origin = <100.00,100.00>
!# Sides =   4, Metal =   2, Exit Metal =   1
!# W = 10.00, S =  2.00, N =  3.00
!# Theta =  0.00, Phase =   1
!# Technolog File Data <BiCMOS.tek> @ <.>
!# Auto-Cell Mode:  <alpha> = 0.050000, <beta> = 0.800000
!# Metal Layers
!# Name=MSUB      Met=0  Lyr=  1  Mz=50.00  T=0.40  RS=0.04  Col=BLUE    
!# Name=M2        Met=1  Lyr=  2  Mz=47.00  T=0.80  RS=0.05  Col=GREEN   
!# Name=M3        Met=2  Lyr=  2  Mz=45.00  T=2.00  RS=0.02  Col=RED     
!# Substrate Layers
!# Lyr=    0  Eps=  12  Rho=1e+05  DZ=8.5e+02  T=8e+02
!# Lyr=    1  Eps=  12  Rho=1e+03  DZ=  52  T=   2
!# Lyr=    2  Eps=   4  Rho=1e+14  DZ=  50  T=  50
!*************************************************************************
# GHZ S MA S11 mag    S11 phase  S12 mag    S12 phase  S21 mag    S21 phase  S22 mag    S22 phase  
1.000000000000000e+00  3.562042552052464e-01  5.206103122667576e+01  8.263813293205194e-01  -2.341817708741269e+01  8.263813293205194e-01  -2.341817708741269e+01  3.412553762391783e-01  50.5836597791315    
1.500000000000000e+00  4.991492993913407e-01  4.563960160502481e+01  7.400608978741956e-01  -3.419322271112105e+01  7.400608978741956e-01  -3.419322271112105e+01  4.762094082424082e-01  44.243164799737     
2.000000000000000e+00  6.196024996755294e-01  3.757910093894291e+01  6.351999567586136e-01  -4.420048905762808e+01  6.351999567586136e-01  -4.420048905762808e+01  5.899408950374163e-01  36.1576428577029    
2.500000000000000e+00  7.167140561790835e-01  2.928929680597389e+01  5.198531824012845e-01  -5.354675437873362e+01  5.198531824012845e-01  -5.354675437873362e+01  6.816448894614178e-01  27.7836184502599    
3.000000000000000e+00  7.945456689500717e-01  2.097598823425944e+01  3.965605892799415e-01  -6.272229693322025e+01  3.965605892799415e-01  -6.272229693322025e+01  7.552225513732364e-01  19.3359641143112    
3.500000000000000e+00  8.458717350874128e-01  1.308796536338336e+01  2.744188255353793e-01  -7.054495324387017e+01  2.744188255353793e-01  -7.054495324387017e+01  8.036217509863592e-01  11.2929926868268    
4.000000000000000e+00  8.780688889690159e-01  5.497821189081898e+00  1.536715469494518e-01  -7.696791957402952e+01  1.536715469494518e-01  -7.696791957402952e+01  8.338083960351548e-01  3.51204024883058    
4.500000000000000e+00  8.919754962932148e-01  -1.520345280240406e+00  4.167531731503663e-02  -7.328852856325510e+01  4.167531731503663e-02  -7.328852856325510e+01  8.467858654849170e-01  -3.71087635205135   
5.000000000000000e+00  8.905195424294355e-01  -8.030067710293649e+00  6.552541810777271e-02  7.386288329173152e+01  6.552541810777271e-02  7.386288329173152e+01  8.451307574513849e-01  -10.4459509648256   
5.500000000000000e+00  8.788049986462220e-01  -1.409283271113665e+01  1.610337333788075e-01  7.373710391124351e+01  1.610337333788075e-01  7.373710391124351e+01  8.338530610489668e-01  -16.7621675576996   
6.000000000000000e+00  8.597178161301930e-01  -1.977616809353417e+01  2.490245719518271e-01  6.960629584045611e+01  2.490245719518271e-01  6.960629584045611e+01  8.156767376059647e-01  -22.7323447856469   
6.500000000000000e+00  8.324476291049212e-01  -2.495358730663470e+01  3.269944543842954e-01  6.460375404555337e+01  3.269944543842954e-01  6.460375404555337e+01  7.897039400921823e-01  -28.2234199959216   
7.000000000000000e+00  8.004042322419843e-01  -2.971534848678436e+01  3.963296667756264e-01  5.974864706980694e+01  3.963296667756264e-01  5.974864706980694e+01  7.592293148344292e-01  -33.3352999349216   
7.500000000000001e+00  7.643964223035469e-01  -3.410391905652817e+01  4.579458570219146e-01  5.505376753587284e+01  4.579458570219146e-01  5.505376753587284e+01  7.249635077378830e-01  -38.120185060625    
8.000000000000000e+00  7.268406920535740e-01  -3.810013369037878e+01  5.118988357887151e-01  5.071161521031284e+01  5.118988357887151e-01  5.071161521031284e+01  6.892943272706405e-01  -42.5611290600147   
8.500000000000000e+00  6.879767971878457e-01  -4.174501754693590e+01  5.592727662252440e-01  4.662241586033738e+01  5.592727662252440e-01  4.662241586033738e+01  6.523973960263858e-01  -46.7127398159107   
9.000000000000000e+00  6.490401301990844e-01  -4.521321194770515e+01  6.026370868687713e-01  4.284606891522062e+01  6.026370868687713e-01  4.284606891522062e+01  6.156588697097302e-01  -50.7779543017335   
9.500000000000000e+00  6.092166222694998e-01  -4.819855342611358e+01  6.389008790268289e-01  3.919860729484010e+01  6.389008790268289e-01  3.919860729484010e+01  5.778831494902158e-01  -54.441295953282    
1.000000000000000e+01  5.695227262213292e-01  -5.085105334533621e+01  6.705266439283292e-01  3.574603908399335e+01  6.705266439283292e-01  3.574603908399335e+01  5.401968270395167e-01  -57.890374382915    
1.050000000000000e+01  5.281805572375329e-01  -5.295347361895112e+01  6.965716929855270e-01  3.226386647075709e+01  6.965716929855270e-01  3.226386647075709e+01  5.001741919580402e-01  -60.9698679067252   
1.100000000000000e+01  4.891834750727495e-01  -5.481743708503822e+01  7.201678438903546e-01  2.911121698968089e+01  7.201678438903546e-01  2.911121698968089e+01  4.627082205951583e-01  -63.9954845418159   
1.150000000000000e+01  4.509654999983088e-01  -5.622659620328628e+01  7.404190746450200e-01  2.609025590779295e+01  7.404190746450200e-01  2.609025590779295e+01  4.256402328135568e-01  -66.8330446899859   
1.200000000000000e+01  4.156630865468075e-01  -5.754213321760762e+01  7.601644914024256e-01  2.342351708076012e+01  7.601644914024256e-01  2.342351708076012e+01  3.922927747391043e-01  -69.8782599225485   
1.250000000000000e+01  3.796160631394240e-01  -5.786952535201194e+01  7.751369712934487e-01  2.063271899585844e+01  7.751369712934487e-01  2.063271899585844e+01  3.563327672637478e-01  -72.4574372694334   
1.300000000000000e+01  3.453481346230658e-01  -5.735380259543100e+01  7.876139147761589e-01  1.792561731199618e+01  7.876139147761589e-01  1.792561731199618e+01  3.207170570091270e-01  -74.8525129589928   
1.350000000000000e+01  3.138182506867399e-01  -5.573344270264447e+01  7.977600656670277e-01  1.528855408053579e+01  7.977600656670277e-01  1.528855408053579e+01  2.853902781198139e-01  -77.0317956031786   
1.400000000000000e+01  2.903245512577464e-01  -5.250335973415000e+01  8.018646898838268e-01  1.279757846763490e+01  8.018646898838268e-01  1.279757846763490e+01  2.518049290456236e-01  -77.9825171644677   
1.450000000000000e+01  2.710455870460503e-01  -4.816840780429528e+01  8.071426066564047e-01  1.030327862581055e+01  8.071426066564047e-01  1.030327862581055e+01  2.176191118162147e-01  -79.2087120280908   
1.500000000000000e+01  2.619142380464373e-01  -4.279540158830535e+01  8.103209296656944e-01  7.853216127262852e+00  8.103209296656944e-01  7.853216127262852e+00  1.838161665057196e-01  -79.7494176227484   
1.550000000000000e+01  2.655593977560393e-01  -3.765394656013592e+01  8.114126385948219e-01  5.439399601939775e+00  8.114126385948219e-01  5.439399601939775e+00  1.505326806565279e-01  -79.1593208784803   
1.600000000000000e+01  2.811349405161950e-01  -3.336570885836495e+01  8.179216846547933e-01  2.842075543155147e+00  8.179216846547933e-01  2.842075543155147e+00  1.132383437016944e-01  -80.288051618758    
1.650000000000000e+01  3.059043637523926e-01  -3.467425238704658e+01  8.156884002841123e-01  4.040521228616116e-01  8.156884002841123e-01  4.040521228616116e-01  8.024836990086413e-02  -74.7121164889009   
1.700000000000000e+01  3.161551655246548e-01  -4.041962042468974e+01  8.112115606687104e-01  -2.032410561082848e+00  8.112115606687104e-01  -2.032410561082848e+00  5.121820188045226e-02  -58.0541515110324   
1.750000000000000e+01  2.955309388896401e-01  -4.758002441794654e+01  8.043420981504049e-01  -4.471784317150332e+00  8.043420981504049e-01  -4.471784317150332e+00  3.842928053652565e-02  -15.2056725936518   