
!*************************************************************************
!! ASITIC Ver 10.20.99.0.0.0
!!  Data generated by the <2Port> command in <slow> mode.
!! Generated on Thu Apr 11 17:21:13 1974
!# Spiral Data:	Name = <MM_140>, User-defined Structure, Origin = <100.00,100.00>
!# Sides =   4, Metal =   4, Exit Metal =   3
!# W = 10.00, S =  2.00, N =  2.00
!# Theta =  0.00, Phase =   1
!# Technolog File Data <CMOS.tek> @ <.>
!# Auto-Cell Mode:  <alpha> = 0.050000, <beta> = 0.800000
!# Metal Layers
!# Name=M1        Met=0  Lyr=  1  Mz=48.70  T=0.50  RS=0.07  Col=YELLOW  
!# Name=M2        Met=1  Lyr=  1  Mz=47.60  T=0.50  RS=0.06  Col=LIGHTSKYBLUE1
!# Name=M3        Met=2  Lyr=  1  Mz=46.50  T=0.50  RS=0.06  Col=MEDIUM PURPLE
!# Name=M4        Met=3  Lyr=  1  Mz=45.50  T=0.50  RS=0.06  Col=LIGHT GREEN
!# Name=M5        Met=4  Lyr=  1  Mz=44.00  T=1.00  RS=0.03  Col=GREY    
!# Substrate Layers
!# Lyr=    0  Eps=  12  Rho=  10  DZ=7.5e+02  T=7e+02
!# Lyr=    1  Eps= 3.9  Rho=1e+14  DZ=  50  T=  50
!*************************************************************************
# GHZ S MA S11 mag    S11 phase  S12 mag    S12 phase  S21 mag    S21 phase  S22 mag    S22 phase  
1.000000000000000e+00  1.902944036845401e-01  5.463483024026080e+01  9.086204458566066e-01  -1.186175970025716e+01  9.086204458566066e-01  -1.186175970025716e+01  1.873583799293530e-01  53.3570741894764    
1.500000000000000e+00  2.712624100728799e-01  5.538913640272071e+01  8.877568208747685e-01  -1.775473054946110e+01  8.877568208747685e-01  -1.775473054946110e+01  2.663169636627033e-01  53.9558688362191    
2.000000000000000e+00  3.515846100133694e-01  5.284888543482514e+01  8.592802568104534e-01  -2.359823175033304e+01  8.592802568104534e-01  -2.359823175033304e+01  3.449153957780451e-01  51.2122651220558    
2.500000000000000e+00  4.323146778742100e-01  4.882335826003823e+01  8.223830054449419e-01  -2.957752136808885e+01  8.223830054449419e-01  -2.957752136808885e+01  4.241908397192198e-01  46.9443783881661    
3.000000000000000e+00  5.081704074559246e-01  4.411522514914471e+01  7.790140923574249e-01  -3.543044988521808e+01  7.790140923574249e-01  -3.543044988521808e+01  4.989726561198323e-01  41.9724937821979    
3.500000000000000e+00  5.794475288643727e-01  3.904217897332275e+01  7.295671751046064e-01  -4.121776288557501e+01  7.295671751046064e-01  -4.121776288557501e+01  5.695680708101364e-01  36.622376232506     
4.000000000000000e+00  6.471499956845453e-01  3.377134313815638e+01  6.745178020558830e-01  -4.706398687547416e+01  6.745178020558830e-01  -4.706398687547416e+01  6.370386034766057e-01  31.062942009488     
4.500000000000000e+00  7.100016376851386e-01  2.823520044722501e+01  6.127859453194965e-01  -5.289955589501938e+01  6.127859453194965e-01  -5.289955589501938e+01  7.001518144145767e-01  25.2267274915312    
5.000000000000000e+00  7.649931034994948e-01  2.260695191758023e+01  5.465187715409139e-01  -5.848450414306318e+01  5.465187715409139e-01  -5.848450414306318e+01  7.559078816345067e-01  19.290689128064     
5.500000000000000e+00  8.128047692880529e-01  1.688475273612763e+01  4.756840512886794e-01  -6.383437452077923e+01  4.756840512886794e-01  -6.383437452077923e+01  8.050228404335023e-01  13.2499958335021    
6.000000000000000e+00  8.529840046545027e-01  1.120313975099147e+01  4.025651287205845e-01  -6.884137190679856e+01  4.025651287205845e-01  -6.884137190679856e+01  8.470419048973744e-01  7.24307070759803    
6.500000000000000e+00  8.870703460584690e-01  5.449943652022726e+00  3.257817200651681e-01  -7.353832546969551e+01  3.257817200651681e-01  -7.353832546969551e+01  8.835980825955854e-01  1.14795100850149    
7.000000000000000e+00  9.111665425878944e-01  -1.032756784826729e-01  2.508036338084554e-01  -7.696531341274007e+01  2.508036338084554e-01  -7.696531341274007e+01  9.106049191714353e-01  -4.74948487566026   
7.500000000000001e+00  9.274676468594059e-01  -5.525550913438138e+00  1.773873033913308e-01  -7.827777422064436e+01  1.773873033913308e-01  -7.827777422064436e+01  9.302962086586614e-01  -10.5257590334512   
8.000000000000000e+00  9.342879360384253e-01  -1.070759584285932e+01  1.101682937485942e-01  -7.309454313779057e+01  1.101682937485942e-01  -7.309454313779057e+01  9.407153231473766e-01  -16.070719829659    
8.500000000000000e+00  9.366771802547684e-01  -1.576772877790516e+01  5.545927974325619e-02  -4.550407878091138e+01  5.545927974325619e-02  -4.550407878091138e+01  9.472831056075128e-01  -21.5072932802417   
9.000000000000000e+00  9.356856993720172e-01  -2.068062598094011e+01  5.897464077565888e-02  2.209274453582402e+01  5.897464077565888e-02  2.209274453582402e+01  9.511633160954882e-01  -26.8041827301292   
9.500000000000000e+00  9.271873645475350e-01  -2.533090446333927e+01  1.111133206481925e-01  4.270575773803434e+01  1.111133206481925e-01  4.270575773803434e+01  9.475757952579054e-01  -31.855062564538    
1.000000000000000e+01  9.144710916121821e-01  -2.975957982734550e+01  1.668419563631196e-01  4.622831587763491e+01  1.668419563631196e-01  4.622831587763491e+01  9.400649418890178e-01  -36.6986393145068   
1.050000000000000e+01  8.967140835451678e-01  -3.385155377797664e+01  2.187844121715682e-01  4.508067296941961e+01  2.187844121715682e-01  4.508067296941961e+01  9.273372965519781e-01  -41.2258196133811   
1.100000000000000e+01  8.779264089198588e-01  -3.783752988030152e+01  2.682842863080671e-01  4.319149030427950e+01  2.682842863080671e-01  4.319149030427950e+01  9.142886353025309e-01  -45.6608425755092   
1.150000000000000e+01  8.570945164214463e-01  -4.160560027295962e+01  3.139202638963761e-01  4.067733709314059e+01  3.139202638963761e-01  4.067733709314059e+01  8.993910471018889e-01  -49.8960174657787   
1.200000000000000e+01  8.350545133700996e-01  -4.531412873522009e+01  3.577751838884720e-01  3.805710082988243e+01  3.577751838884720e-01  3.805710082988243e+01  8.840803980719720e-01  -54.0979226968166   
1.250000000000000e+01  8.111242622982302e-01  -4.868793251529424e+01  3.961723383509412e-01  3.513054941318440e+01  3.961723383509412e-01  3.513054941318440e+01  8.666408171606637e-01  -57.9847048118774   
1.300000000000000e+01  7.863170823817450e-01  -5.187577430352580e+01  4.312198587893832e-01  3.220253459401233e+01  4.312198587893832e-01  3.220253459401233e+01  8.486024806649983e-01  -61.7121308561348   
1.350000000000000e+01  7.607200380895415e-01  -5.491008896913912e+01  4.635355143675228e-01  2.930976672119919e+01  4.635355143675228e-01  2.930976672119919e+01  8.301748562822105e-01  -65.3212121849329   
1.400000000000000e+01  7.348360249133657e-01  -5.775490483474093e+01  4.926800505579381e-01  2.648277636753700e+01  4.926800505579381e-01  2.648277636753700e+01  8.117100992714427e-01  -68.7703623571195   
1.450000000000000e+01  7.086556125920577e-01  -6.043724465028750e+01  5.192288308199264e-01  2.372750045085917e+01  5.192288308199264e-01  2.372750045085917e+01  7.933116489957315e-01  -72.0962495085264   
1.500000000000000e+01  6.819934908884239e-01  -6.293251583884225e+01  5.432505818900218e-01  2.101435568039865e+01  5.432505818900218e-01  2.101435568039865e+01  7.746517322036915e-01  -75.2941630412541   
1.550000000000000e+01  6.554734830903466e-01  -6.530263238054543e+01  5.653208276484299e-01  1.841554145010074e+01  5.653208276484299e-01  1.841554145010074e+01  7.567570762238837e-01  -78.407730563995    
1.600000000000000e+01  6.288102137476806e-01  -6.751829783225740e+01  5.854532155812631e-01  1.589030887009675e+01  5.854532155812631e-01  1.589030887009675e+01  7.392146641258600e-01  -81.4296281462965   
1.650000000000000e+01  6.019936615074510e-01  -6.957639032764919e+01  6.038313406641654e-01  1.343562512619198e+01  6.038313406641654e-01  1.343562512619198e+01  7.220702003084524e-01  -84.3690214038309   
1.700000000000000e+01  5.748510133685419e-01  -7.166058979296371e+01  6.221414748722239e-01  1.111339963955573e+01  6.221414748722239e-01  1.111339963955573e+01  7.063749296043953e-01  -87.3763745725549   
1.750000000000000e+01  5.474431832012508e-01  -7.339271976943679e+01  6.375405712776748e-01  8.782425887684390e+00  6.375405712776748e-01  8.782425887684390e+00  6.900745965128673e-01  -90.1837483626958   