
!*************************************************************************
!! ASITIC Ver 10.20.99.0.0.0
!!  Data generated by the <2Port> command in <slow> mode.
!! Generated on Thu Apr 11 17:21:13 1974
!# Spiral Data:	Name = <MM_200>, User-defined Structure, Origin = <100.00,100.00>
!# Sides =   4, Metal =   2, Exit Metal =   1
!# W = 12.00, S =  3.00, N =  2.50
!# Theta =  0.00, Phase =   1
!# Technolog File Data <BiCMOS.tek> @ <.>
!# Auto-Cell Mode:  <alpha> = 0.050000, <beta> = 0.800000
!# Metal Layers
!# Name=MSUB      Met=0  Lyr=  1  Mz=50.00  T=0.40  RS=0.04  Col=BLUE    
!# Name=M2        Met=1  Lyr=  2  Mz=47.00  T=0.80  RS=0.05  Col=GREEN   
!# Name=M3        Met=2  Lyr=  2  Mz=45.00  T=2.00  RS=0.02  Col=RED     
!# Substrate Layers
!# Lyr=    0  Eps=  12  Rho=1e+05  DZ=8.5e+02  T=8e+02
!# Lyr=    1  Eps=  12  Rho=1e+03  DZ=  52  T=   2
!# Lyr=    2  Eps=   4  Rho=1e+14  DZ=  50  T=  50
!*************************************************************************
# GHZ S MA S11 mag    S11 phase  S12 mag    S12 phase  S21 mag    S21 phase  S22 mag    S22 phase  
1.000000000000000e+00  3.616591437471798e-01  5.276163288629131e+01  8.200951451729691e-01  -2.492968862704758e+01  8.200951451729691e-01  -2.492968862704758e+01  3.430637250571387e-01  51.4433287219951    
1.500000000000000e+00  5.139185485776048e-01  4.529698191000185e+01  7.230686467690051e-01  -3.658748131047091e+01  7.230686467690051e-01  -3.658748131047091e+01  4.868757944170253e-01  44.1604183803557    
2.000000000000000e+00  6.439300908117479e-01  3.596945679449926e+01  6.028074821262813e-01  -4.778134639180497e+01  6.028074821262813e-01  -4.778134639180497e+01  6.101706183106618e-01  34.8013551833366    
2.500000000000000e+00  7.459657366414126e-01  2.629102623338913e+01  4.679223221214767e-01  -5.841029021946247e+01  4.679223221214767e-01  -5.841029021946247e+01  7.070822524773697e-01  25.0017874771766    
3.000000000000000e+00  8.192220945587236e-01  1.672787127643513e+01  3.253654290149459e-01  -6.839480671918781e+01  3.253654290149459e-01  -6.839480671918781e+01  7.767251019741193e-01  15.2667439581819    
3.500000000000000e+00  8.637013874410842e-01  7.488790227980140e+00  1.815825497536376e-01  -7.702529539790301e+01  1.815825497536376e-01  -7.702529539790301e+01  8.190610138593936e-01  5.82120949467352    
4.000000000000000e+00  8.842673202593476e-01  -1.249526485644724e+00  4.305636590205405e-02  -7.958245513590155e+01  4.305636590205405e-02  -7.958245513590155e+01  8.385852623297391e-01  -3.15940895558739   
4.500000000000000e+00  8.845156628773608e-01  -9.343797174109005e+00  8.616188949439960e-02  7.960690220125403e+01  8.616188949439960e-02  7.960690220125403e+01  8.389668418242735e-01  -11.5176720869877   
5.000000000000000e+00  8.665952151450502e-01  -1.664681044451146e+01  1.999008165849608e-01  7.371685828605449e+01  1.999008165849608e-01  7.371685828605449e+01  8.220411632122795e-01  -19.1124162922751   
5.500000000000000e+00  8.377694637888464e-01  -2.329417177149075e+01  3.002959887039351e-01  6.728116006865595e+01  3.002959887039351e-01  6.728116006865595e+01  7.948030435707315e-01  -26.0818922481815   
6.000000000000000e+00  8.011063065930496e-01  -2.926742559911380e+01  3.869096540420700e-01  6.115735341911304e+01  3.869096540420700e-01  6.115735341911304e+01  7.601353839681332e-01  -32.4109717507769   
6.500000000000000e+00  7.597208180469948e-01  -3.465145806941306e+01  4.613976743873228e-01  5.551755024569195e+01  4.613976743873228e-01  5.551755024569195e+01  7.210018230568271e-01  -38.1981510860998   
7.000000000000000e+00  7.157391134234237e-01  -3.948073630156028e+01  5.249041703825658e-01  5.034508086779471e+01  5.249041703825658e-01  5.034508086779471e+01  6.794279113660066e-01  -43.4843156629936   
7.500000000000001e+00  6.706451277774961e-01  -4.390342202837725e+01  5.801270349668227e-01  4.560483034714265e+01  5.801270349668227e-01  4.560483034714265e+01  6.368852993733896e-01  -48.4430944931169   
8.000000000000000e+00  6.253707780938468e-01  -4.777120317638877e+01  6.260067334903905e-01  4.123066166046566e+01  6.260067334903905e-01  4.123066166046566e+01  5.941603197121805e-01  -52.9194098288385   
8.500000000000000e+00  5.795289218447285e-01  -5.108115956262161e+01  6.638012209137181e-01  3.707821969069089e+01  6.638012209137181e-01  3.707821969069089e+01  5.506149991047137e-01  -56.9479006421279   
9.000000000000000e+00  5.356766955251805e-01  -5.404045438867466e+01  6.964662373131573e-01  3.332169708542279e+01  6.964662373131573e-01  3.332169708542279e+01  5.091698395315167e-01  -60.7579975079901   
9.500000000000000e+00  4.935159382438263e-01  -5.659556063369682e+01  7.242603010799205e-01  2.986003846626499e+01  7.242603010799205e-01  2.986003846626499e+01  4.693843917644851e-01  -64.3295677593478   
1.000000000000000e+01  4.522220952783110e-01  -5.866877954846473e+01  7.475827831503481e-01  2.657348563370388e+01  7.475827831503481e-01  2.657348563370388e+01  4.302250523275192e-01  -67.6590088290871   
1.050000000000000e+01  4.119626074291824e-01  -6.024531819258667e+01  7.674586752734334e-01  2.344474318584889e+01  7.674586752734334e-01  2.344474318584889e+01  3.918120471964515e-01  -70.8257754091111   
1.100000000000000e+01  3.764387583754767e-01  -6.094207805923260e+01  7.812751438755500e-01  2.066260450673720e+01  7.812751438755500e-01  2.066260450673720e+01  3.570308023225774e-01  -73.3402937167592   
1.150000000000000e+01  3.406401825809875e-01  -6.112303868756117e+01  7.946228736175625e-01  1.788981771859415e+01  7.946228736175625e-01  1.788981771859415e+01  3.215695330687883e-01  -76.0305366849942   
1.200000000000000e+01  3.072827763769846e-01  -6.033154293698399e+01  8.054746047089461e-01  1.523470044596342e+01  8.054746047089461e-01  1.523470044596342e+01  2.870343191532528e-01  -78.5372411866051   
1.250000000000000e+01  2.756509906966629e-01  -5.813709602097806e+01  8.148927724718463e-01  1.255772586688100e+01  8.148927724718463e-01  1.255772586688100e+01  2.515142554873312e-01  -81.0542313663541   
1.300000000000000e+01  2.511722488084545e-01  -5.430270763571809e+01  8.213603647281804e-01  1.006416944371531e+01  8.213603647281804e-01  1.006416944371531e+01  2.181370057068857e-01  -83.1376366340668   
1.350000000000000e+01  2.355294929553117e-01  -4.873412028270812e+01  8.258676322810253e-01  7.635973880763785e+00  8.258676322810253e-01  7.635973880763785e+00  1.852836277710679e-01  -84.8954281879153   
1.400000000000000e+01  2.281343909519036e-01  -4.227986332259825e+01  8.339898043992038e-01  5.356532000118984e+00  8.339898043992038e-01  5.356532000118984e+00  1.543311188222247e-01  -88.3001555563706   
1.450000000000000e+01  2.426981831574393e-01  -3.649436525724965e+01  8.354220590677451e-01  3.005393287281735e+00  8.354220590677451e-01  3.005393287281735e+00  1.218907228067963e-01  -89.5969859672074   
1.500000000000000e+01  2.726733644305417e-01  -3.550562329963389e+01  8.350273503345388e-01  6.764426194141875e-01  8.350273503345388e-01  6.764426194141875e-01  8.956811052097061e-02  -89.7472452802918   
1.550000000000000e+01  2.974002973708458e-01  -4.222883064772217e+01  8.298056873309679e-01  -1.831953989379183e+00  8.298056873309679e-01  -1.831953989379183e+00  5.513106053972740e-02  -83.1855405055235   
1.600000000000000e+01  2.879971068860948e-01  -5.215160145422856e+01  8.250648886679911e-01  -4.157806125505373e+00  8.250648886679911e-01  -4.157806125505373e+00  2.659144008934057e-02  -59.6236663859655   
1.650000000000000e+01  2.432950934064656e-01  -6.067061652492566e+01  8.180799598471913e-01  -6.491643714723794e+00  8.180799598471913e-01  -6.491643714723794e+00  2.545589429657051e-02  19.0743173190354    
1.700000000000000e+01  1.854022750394915e-01  -6.355116342382568e+01  8.085982032525089e-01  -8.840225597594880e+00  8.085982032525089e-01  -8.840225597594880e+00  5.473051385540130e-02  45.0934043062321    
1.750000000000000e+01  1.332808620802413e-01  -5.790763045085330e+01  7.970025612936870e-01  -1.121580355840264e+01  7.970025612936870e-01  -1.121580355840264e+01  8.877817512551739e-02  50.2497265691577    