
!*************************************************************************
!! ASITIC Ver 10.20.99.0.0.0
!!  Data generated by the <2Port> command in <slow> mode.
!! Generated on Thu Apr 11 17:21:13 1974
!# Spiral Data:	Name = <MM_240>, User-defined Structure, Origin = <100.00,100.00>
!# Sides =   4, Metal =   2, Exit Metal =   1
!# W = 10.00, S =  3.00, N =  3.00
!# Theta =  0.00, Phase =   1
!# Technolog File Data <BiCMOS.tek> @ <.>
!# Auto-Cell Mode:  <alpha> = 0.050000, <beta> = 0.800000
!# Metal Layers
!# Name=MSUB      Met=0  Lyr=  1  Mz=50.00  T=0.40  RS=0.04  Col=BLUE    
!# Name=M2        Met=1  Lyr=  2  Mz=47.00  T=0.80  RS=0.05  Col=GREEN   
!# Name=M3        Met=2  Lyr=  2  Mz=45.00  T=2.00  RS=0.02  Col=RED     
!# Substrate Layers
!# Lyr=    0  Eps=  12  Rho=1e+05  DZ=8.5e+02  T=8e+02
!# Lyr=    1  Eps=  12  Rho=1e+03  DZ=  52  T=   2
!# Lyr=    2  Eps=   4  Rho=1e+14  DZ=  50  T=  50
!*************************************************************************
# GHZ S MA S11 mag    S11 phase  S12 mag    S12 phase  S21 mag    S21 phase  S22 mag    S22 phase  
1.000000000000000e+00  5.951041751697348e-01  3.665371050570169e+01  6.353150320890281e-01  -4.159320584744390e+01  6.353150320890281e-01  -4.159320584744390e+01  5.713846641117287e-01  35.0278407836929    
1.500000000000000e+00  7.581310089965525e-01  2.346816469336375e+01  4.392179470596534e-01  -5.828757144270506e+01  4.392179470596534e-01  -5.828757144270506e+01  7.239664825075138e-01  21.8014820775696    
2.000000000000000e+00  8.495026394413296e-01  1.098194977613002e+01  2.423039165573297e-01  -7.228692237742557e+01  2.423039165573297e-01  -7.228692237742557e+01  8.086720304515685e-01  9.19698862702383    
2.500000000000000e+00  8.855840145421122e-01  -2.346921618123401e-01  6.066937979677892e-02  -8.034517560868349e+01  6.066937979677892e-02  -8.034517560868349e+01  8.410910890775388e-01  -2.20656228589773   
3.000000000000000e+00  8.828595217839958e-01  -1.031542902544134e+01  1.026866964031268e-01  7.862219866659368e+01  1.026866964031268e-01  7.862219866659368e+01  8.366955238890879e-01  -12.5504293918083   
3.500000000000000e+00  8.551621733196606e-01  -1.900842366896540e+01  2.391073517639989e-01  7.122749635594869e+01  2.391073517639989e-01  7.122749635594869e+01  8.088496713441736e-01  -21.5633444062405   
4.000000000000000e+00  8.121573179185821e-01  -2.677052671225372e+01  3.557779458466640e-01  6.338122840577717e+01  3.557779458466640e-01  6.338122840577717e+01  7.665540614893858e-01  -29.739774662431    
4.500000000000000e+00  7.584066891593613e-01  -3.352622389284504e+01  4.520044583491009e-01  5.594305319447995e+01  4.520044583491009e-01  5.594305319447995e+01  7.140986823855510e-01  -36.9939195778007   
5.000000000000000e+00  6.991837404122124e-01  -3.954772980863520e+01  5.329914099397355e-01  4.917932871917981e+01  5.329914099397355e-01  4.917932871917981e+01  6.564904525023016e-01  -43.6592982476992   
5.500000000000000e+00  6.364877846275887e-01  -4.470318934594889e+01  5.987595274907301e-01  4.290795839762558e+01  5.987595274907301e-01  4.290795839762558e+01  5.954246116455293e-01  -49.6229916765069   
6.000000000000000e+00  5.730327804160645e-01  -4.907965487620225e+01  6.526289670505850e-01  3.714891952201374e+01  6.526289670505850e-01  3.714891952201374e+01  5.334322528945127e-01  -55.0633486305708   
6.500000000000000e+00  5.092963813941787e-01  -5.257449877351226e+01  6.961501935583752e-01  3.173897685456595e+01  6.961501935583752e-01  3.173897685456595e+01  4.706246334025923e-01  -59.9925087740996   
7.000000000000000e+00  4.467790811595024e-01  -5.499793219216447e+01  7.308109293662962e-01  2.664652640162517e+01  7.308109293662962e-01  2.664652640162517e+01  4.079288413011453e-01  -64.4232429136637   
7.500000000000001e+00  3.865593008060910e-01  -5.592948845657986e+01  7.576651699860629e-01  2.177189735135420e+01  7.576651699860629e-01  2.177189735135420e+01  3.451233471982935e-01  -68.2812939230697   
8.000000000000000e+00  3.321502102284292e-01  -5.472077140620604e+01  7.774420759363901e-01  1.713241720565914e+01  7.774420759363901e-01  1.713241720565914e+01  2.832870651353218e-01  -71.3803681626348   
8.500000000000000e+00  2.888477023977820e-01  -5.051945861441435e+01  7.907428781168768e-01  1.264577258450224e+01  7.907428781168768e-01  1.264577258450224e+01  2.221258135165531e-01  -73.2616379071053   
9.000000000000000e+00  2.648510984849036e-01  -4.341024525720840e+01  8.011399015764868e-01  8.143928560825039e+00  8.011399015764868e-01  8.143928560825039e+00  1.594861371919040e-01  -73.7661199723192   
9.500000000000000e+00  2.727140844379785e-01  -3.856543613138703e+01  8.024395350216613e-01  3.809882399668557e+00  8.024395350216613e-01  3.809882399668557e+00  1.014766779068232e-01  -67.1421848037218   
1.000000000000000e+01  2.780616215168270e-01  -4.322509210992487e+01  7.974219197094173e-01  -4.839925881615623e-01  7.974219197094173e-01  -4.839925881615623e-01  5.681320122352929e-02  -36.9980650359191   
1.050000000000000e+01  2.181281355360245e-01  -4.769038904766978e+01  7.755238111912420e-01  -4.769385317923921e+00  7.755238111912420e-01  -4.769385317923921e+00  7.689410805374219e-02  16.5036837712514    
1.100000000000000e+01  1.521499197869942e-01  -3.685097441293682e+01  7.549030928806685e-01  -8.931097835753118e+00  7.549030928806685e-01  -8.931097835753118e+00  1.273299391712575e-01  35.0302562519397    
1.150000000000000e+01  1.397473344297044e-01  -7.867750878127753e+00  7.263121009925104e-01  -1.299631234686527e+01  7.263121009925104e-01  -1.299631234686527e+01  1.874350751550856e-01  38.7485856701996    
1.200000000000000e+01  1.666676370066505e-01  1.507912249341903e+01  7.061419593672871e-01  -1.726273853331891e+01  7.061419593672871e-01  -1.726273853331891e+01  2.447026486863234e-01  41.6305631561416    
1.250000000000000e+01  2.355640755790694e-01  2.154843644697955e+01  6.616314730572987e-01  -2.116102589385397e+01  6.616314730572987e-01  -2.116102589385397e+01  3.094435853683518e-01  37.6355003481089    
1.300000000000000e+01  3.065512859399107e-01  2.079599370359989e+01  6.078057293605861e-01  -2.459792768668943e+01  6.078057293605861e-01  -2.459792768668943e+01  3.723873500935447e-01  32.340656954077     
1.350000000000000e+01  3.737918930099540e-01  1.699654573413627e+01  5.457136579496926e-01  -2.716895577836072e+01  5.457136579496926e-01  -2.716895577836072e+01  4.313245765814488e-01  26.1734393351153    
1.400000000000000e+01  4.206102891782254e-01  1.003328566946312e+01  4.829324832598286e-01  -2.619280429989271e+01  4.829324832598286e-01  -2.619280429989271e+01  4.662090231670523e-01  18.3001564648787    
1.450000000000000e+01  4.683978145604085e-01  4.297822178352143e+00  4.214854065025982e-01  -2.460291948523543e+01  4.214854065025982e-01  -2.460291948523543e+01  5.068768606217362e-01  11.5125946305018    
1.500000000000000e+01  5.056145148773930e-01  -1.910950654273487e+00  3.690917717429296e-01  -1.986654728933659e+01  3.690917717429296e-01  -1.986654728933659e+01  5.373745974086478e-01  4.54698727876051    
1.550000000000000e+01  5.313018757072153e-01  -8.291282134684341e+00  3.352046497443639e-01  -1.180181268734300e+01  3.352046497443639e-01  -1.180181268734300e+01  5.568200195619185e-01  -2.41060358412158   
1.600000000000000e+01  5.660512990889710e-01  -1.549679578646507e+01  3.088228112075935e-01  5.856675009455489e-01  3.088228112075935e-01  5.856675009455489e-01  5.888586004075856e-01  -10.426358573516    
1.650000000000000e+01  5.622075148399206e-01  -2.277083327561635e+01  3.414125834026137e-01  1.116478409246178e+01  3.414125834026137e-01  1.116478409246178e+01  5.808428883540023e-01  -18.2996975108446   
1.700000000000000e+01  5.540067168066580e-01  -2.878745914577969e+01  3.832057862682858e-01  1.689053387197268e+01  3.832057862682858e-01  1.689053387197268e+01  5.688865313163578e-01  -24.5693079567281   
1.750000000000000e+01  5.325111821711040e-01  -3.382019866339793e+01  4.310306148757660e-01  1.873182400543324e+01  4.310306148757660e-01  1.873182400543324e+01  5.430957551966645e-01  -30.1323885925021   