
!*************************************************************************
!! ASITIC Ver 10.20.99.0.0.0
!!  Data generated by the <2Port> command in <slow> mode.
!! Generated on Thu Apr 11 17:21:13 1974
!# Spiral Data:	Name = <MM_140>, User-defined Structure, Origin = <100.00,100.00>
!# Sides =   4, Metal =   2, Exit Metal =   1
!# W = 10.00, S =  2.00, N =  2.00
!# Theta =  0.00, Phase =   1
!# Technolog File Data <BiCMOS.tek> @ <.>
!# Auto-Cell Mode:  <alpha> = 0.050000, <beta> = 0.800000
!# Metal Layers
!# Name=MSUB      Met=0  Lyr=  1  Mz=50.00  T=0.40  RS=0.04  Col=BLUE    
!# Name=M2        Met=1  Lyr=  2  Mz=47.00  T=0.80  RS=0.05  Col=GREEN   
!# Name=M3        Met=2  Lyr=  2  Mz=45.00  T=2.00  RS=0.02  Col=RED     
!# Substrate Layers
!# Lyr=    0  Eps=  12  Rho=1e+05  DZ=8.5e+02  T=8e+02
!# Lyr=    1  Eps=  12  Rho=1e+03  DZ=  52  T=   2
!# Lyr=    2  Eps=   4  Rho=1e+14  DZ=  50  T=  50
!*************************************************************************
# GHZ S MA S11 mag    S11 phase  S12 mag    S12 phase  S21 mag    S21 phase  S22 mag    S22 phase  
1.000000000000000e+00  1.792635530054731e-01  5.914954586847190e+01  9.148472209361682e-01  -1.192492754829372e+01  9.148472209361682e-01  -1.192492754829372e+01  1.711088767104238e-01  57.5738935556867    
1.500000000000000e+00  2.584762437254622e-01  5.956027737688787e+01  8.877370406263909e-01  -1.764450555770631e+01  8.877370406263909e-01  -1.764450555770631e+01  2.454998197540457e-01  58.3826710380083    
2.000000000000000e+00  3.371909910661824e-01  5.718644401900858e+01  8.536211537070341e-01  -2.325717403254386e+01  8.536211537070341e-01  -2.325717403254386e+01  3.200570491939173e-01  56.1965454901111    
2.500000000000000e+00  4.134096776247186e-01  5.350970964584192e+01  8.125681041827555e-01  -2.876632681197385e+01  8.125681041827555e-01  -2.876632681197385e+01  3.925889900654713e-01  52.5791421558994    
3.000000000000000e+00  4.890121801778681e-01  4.905289282596755e+01  7.637558559417458e-01  -3.441247116347654e+01  7.637558559417458e-01  -3.441247116347654e+01  4.647278523232381e-01  48.1002425571305    
3.500000000000000e+00  5.580879221014597e-01  4.434921076371268e+01  7.099939124287480e-01  -3.987134511723917e+01  7.099939124287480e-01  -3.987134511723917e+01  5.307749744934995e-01  43.3357041076633    
4.000000000000000e+00  6.246301511718954e-01  3.932680210963424e+01  6.493430803374791e-01  -4.550373566023549e+01  6.493430803374791e-01  -4.550373566023549e+01  5.943855180499688e-01  38.2119226320605    
4.500000000000000e+00  6.831932716441403e-01  3.425519332378815e+01  5.845368055353353e-01  -5.092851320061075e+01  5.845368055353353e-01  -5.092851320061075e+01  6.505085411344653e-01  33.0312133220266    
5.000000000000000e+00  7.372626363755350e-01  2.921389240588544e+01  5.165025610323326e-01  -5.651635422660792e+01  5.165025610323326e-01  -5.651635422660792e+01  7.024243411260777e-01  27.8658869781046    
5.500000000000000e+00  7.828583732133287e-01  2.403956774073753e+01  4.436789243691762e-01  -6.187280531780637e+01  4.436789243691762e-01  -6.187280531780637e+01  7.462359614882166e-01  22.5577914400193    
6.000000000000000e+00  8.227045189076301e-01  1.881177644596712e+01  3.671521790667013e-01  -6.735652374608186e+01  3.671521790667013e-01  -6.735652374608186e+01  7.846010617420304e-01  17.1830576012711    
6.500000000000000e+00  8.532869394379599e-01  1.369401708716187e+01  2.899799305669808e-01  -7.245643165933757e+01  2.899799305669808e-01  -7.245643165933757e+01  8.141212235557675e-01  11.9139925229351    
7.000000000000000e+00  8.762435008088902e-01  8.666049871881512e+00  2.124437835014366e-01  -7.725891680599291e+01  2.124437835014366e-01  -7.725891680599291e+01  8.363800183875945e-01  6.72682034228652    
7.500000000000001e+00  8.914195721959106e-01  3.737643432965676e+00  1.353436583958312e-01  -8.126309861219464e+01  1.353436583958312e-01  -8.126309861219464e+01  8.512080464996915e-01  1.62961125958843    
8.000000000000000e+00  9.000230046398786e-01  -1.018852234506261e+00  6.044822362198087e-02  -8.285033058392432e+01  6.044822362198087e-02  -8.285033058392432e+01  8.598012250896316e-01  -3.30254438378507   
8.500000000000000e+00  9.022612467108569e-01  -5.606518730787740e+00  1.393802001523818e-02  5.928288353043945e+01  1.393802001523818e-02  5.928288353043945e+01  8.623382458829669e-01  -8.07468993882417   
9.000000000000000e+00  8.999037030879110e-01  -1.014539500403906e+01  8.408798693930523e-02  7.822109206526449e+01  8.408798693930523e-02  7.822109206526449e+01  8.605304449772397e-01  -12.8167225698864   
9.500000000000000e+00  8.913825739495547e-01  -1.435690948737040e+01  1.496632486523397e-01  7.538323179351961e+01  1.496632486523397e-01  7.538323179351961e+01  8.528482160550980e-01  -17.2332682691563   
1.000000000000000e+01  8.786814735767506e-01  -1.836743586782866e+01  2.112693119286545e-01  7.179252581783967e+01  2.112693119286545e-01  7.179252581783967e+01  8.412016751564716e-01  -21.4601509007386   
1.050000000000000e+01  8.603761378650525e-01  -2.206260929739969e+01  2.670494022816475e-01  6.764513102811802e+01  2.670494022816475e-01  6.764513102811802e+01  8.240371626937076e-01  -25.3796794316913   
1.100000000000000e+01  8.414722299086981e-01  -2.565864518792104e+01  3.202132547363184e-01  6.415002853914768e+01  3.202132547363184e-01  6.415002853914768e+01  8.064982121121109e-01  -29.2180622056359   
1.150000000000000e+01  8.203645418230547e-01  -2.905850094306317e+01  3.693072507923389e-01  6.075608235670449e+01  3.693072507923389e-01  6.075608235670449e+01  7.868856017721745e-01  -32.8755526930206   
1.200000000000000e+01  7.999642851690035e-01  -3.240211267883220e+01  4.163123000688423e-01  5.784681415821296e+01  4.163123000688423e-01  5.784681415821296e+01  7.682984464267537e-01  -36.4994557782192   
1.250000000000000e+01  7.758997509428157e-01  -3.544231816733816e+01  4.578808760281426e-01  5.469134677623422e+01  4.578808760281426e-01  5.469134677623422e+01  7.459757347681844e-01  -39.8326779470584   
1.300000000000000e+01  7.509579237940732e-01  -3.830797670263880e+01  4.959522363405425e-01  5.168515219268978e+01  4.959522363405425e-01  5.168515219268978e+01  7.228599710240293e-01  -43.0121976105866   
1.350000000000000e+01  7.254380427908017e-01  -4.100700871838423e+01  5.307713936402871e-01  4.882209101351527e+01  5.307713936402871e-01  4.882209101351527e+01  6.992408947507111e-01  -46.0484260593227   
1.400000000000000e+01  6.995968561243098e-01  -4.338523451662345e+01  5.605414722723723e-01  4.608006404609510e+01  5.605414722723723e-01  4.608006404609510e+01  6.751640672981172e-01  -48.7744465303431   
1.450000000000000e+01  6.737460538057216e-01  -4.577244750396529e+01  5.896493083311896e-01  4.349416048532068e+01  5.896493083311896e-01  4.349416048532068e+01  6.513266914801897e-01  -51.552904254831    
1.500000000000000e+01  6.478811614924505e-01  -4.801424291364623e+01  6.162304207478674e-01  4.102441243308238e+01  6.162304207478674e-01  4.102441243308238e+01  6.275368194958582e-01  -54.2191679506552   
1.550000000000000e+01  6.221149611300164e-01  -5.011569352633486e+01  6.405012045440035e-01  3.866307330335412e+01  6.405012045440035e-01  3.866307330335412e+01  6.039068439485827e-01  -56.7828542382681   
1.600000000000000e+01  5.956986151078746e-01  -5.219584511839077e+01  6.640256482765403e-01  3.634461306056097e+01  6.640256482765403e-01  3.634461306056097e+01  5.798601571860573e-01  -59.398092852791    
1.650000000000000e+01  5.702648082391929e-01  -5.401826318216569e+01  6.841498613959665e-01  3.417221434636824e+01  6.841498613959665e-01  3.417221434636824e+01  5.566940400648331e-01  -61.7793488499      
1.700000000000000e+01  5.451250622066193e-01  -5.570639069341901e+01  7.025228331841302e-01  3.208735071067602e+01  7.025228331841302e-01  3.208735071067602e+01  5.338877958142652e-01  -64.0842242243546   
1.750000000000000e+01  5.203040805017338e-01  -5.725883872133498e+01  7.192994773662421e-01  3.008324741631159e+01  7.192994773662421e-01  3.008324741631159e+01  5.114688610949776e-01  -66.3207739835515   