
!*************************************************************************
!! ASITIC Ver 10.20.99.0.0.0
!!  Data generated by the <2Port> command in <slow> mode.
!! Generated on Thu Apr 11 17:21:13 1974
!# Spiral Data:	Name = <MM_200>, User-defined Structure, Origin = <100.00,100.00>
!# Sides =   4, Metal =   4, Exit Metal =   3
!# W = 12.00, S =  3.00, N =  2.50
!# Theta =  0.00, Phase =   1
!# Technolog File Data <CMOS.tek> @ <.>
!# Auto-Cell Mode:  <alpha> = 0.050000, <beta> = 0.800000
!# Metal Layers
!# Name=M1        Met=0  Lyr=  1  Mz=48.70  T=0.50  RS=0.07  Col=YELLOW  
!# Name=M2        Met=1  Lyr=  1  Mz=47.60  T=0.50  RS=0.06  Col=LIGHTSKYBLUE1
!# Name=M3        Met=2  Lyr=  1  Mz=46.50  T=0.50  RS=0.06  Col=MEDIUM PURPLE
!# Name=M4        Met=3  Lyr=  1  Mz=45.50  T=0.50  RS=0.06  Col=LIGHT GREEN
!# Name=M5        Met=4  Lyr=  1  Mz=44.00  T=1.00  RS=0.03  Col=GREY    
!# Substrate Layers
!# Lyr=    0  Eps=  12  Rho=  10  DZ=7.5e+02  T=7e+02
!# Lyr=    1  Eps= 3.9  Rho=1e+14  DZ=  50  T=  50
!*************************************************************************
# GHZ S MA S11 mag    S11 phase  S12 mag    S12 phase  S21 mag    S21 phase  S22 mag    S22 phase  
1.000000000000000e+00  3.757625256013261e-01  4.810169381251195e+01  8.245737967649062e-01  -2.476862734259219e+01  8.245737967649062e-01  -2.476862734259219e+01  3.691647845704951e-01  46.2050372545109    
1.500000000000000e+00  5.337161534950803e-01  4.014444293137778e+01  7.403912105301834e-01  -3.698118275651902e+01  7.403912105301834e-01  -3.698118275651902e+01  5.246279828166880e-01  37.7044358576855    
2.000000000000000e+00  6.696117194227733e-01  2.997068110169988e+01  6.307761198017692e-01  -4.866016334001699e+01  6.307761198017692e-01  -4.866016334001699e+01  6.599288302942646e-01  26.9143834864951    
2.500000000000000e+00  7.784963554857238e-01  1.910065245112968e+01  5.021620950495354e-01  -5.955252500304206e+01  5.021620950495354e-01  -5.955252500304206e+01  7.703191338218377e-01  15.38799701006      
3.000000000000000e+00  8.568852007310367e-01  8.258233299704994e+00  3.643433562089073e-01  -6.893363504303568e+01  3.643433562089073e-01  -6.893363504303568e+01  8.523254957456133e-01  3.85953049854911    
3.500000000000000e+00  9.066142955582196e-01  -2.306550939716287e+00  2.246858590172079e-01  -7.514529745970401e+01  2.246858590172079e-01  -7.514529745970401e+01  9.077222456583023e-01  -7.41865124024157   
4.000000000000000e+00  9.261686059839488e-01  -1.223741117737069e+01  9.897951234644915e-02  -6.637995621512708e+01  9.897951234644915e-02  -6.637995621512708e+01  9.346014894795579e-01  -18.0953699822475   
4.500000000000000e+00  9.241983535408856e-01  -2.141635772193058e+01  6.712689969109079e-02  1.820028995889575e+01  6.712689969109079e-02  1.820028995889575e+01  9.412656953669267e-01  -28.0454762774877   
5.000000000000000e+00  9.050354550304102e-01  -2.980222735471492e+01  1.593571344974967e-01  4.250089886671660e+01  1.593571344974967e-01  4.250089886671660e+01  9.317918252439388e-01  -37.2433344412271   
5.500000000000000e+00  8.744480872623879e-01  -3.744450475913467e+01  2.512726457945930e-01  4.177736676913322e+01  2.512726457945930e-01  4.177736676913322e+01  9.118777360291912e-01  -45.7485562339731   
6.000000000000000e+00  8.362175609411989e-01  -4.430102432000092e+01  3.306107946193950e-01  3.735170698710635e+01  3.306107946193950e-01  3.735170698710635e+01  8.849464702971295e-01  -53.5200256217723   
6.500000000000000e+00  7.930623253759648e-01  -5.045074254868053e+01  3.979513091816367e-01  3.210038829231541e+01  3.979513091816367e-01  3.210038829231541e+01  8.536568797217461e-01  -60.6679205185316   
7.000000000000000e+00  7.479355760444643e-01  -5.596467110625220e+01  4.545141456194027e-01  2.684992653119141e+01  4.545141456194027e-01  2.684992653119141e+01  8.212293575979647e-01  -67.267930267439    
7.500000000000001e+00  7.020889012088591e-01  -6.088332588644271e+01  5.018423250311580e-01  2.179405709967618e+01  5.018423250311580e-01  2.179405709967618e+01  7.889267764859799e-01  -73.3870959933406   
8.000000000000000e+00  6.556233288124396e-01  -6.525200738941399e+01  5.416914485037309e-01  1.693378582481813e+01  5.416914485037309e-01  1.693378582481813e+01  7.570255419658689e-01  -79.1260530013074   
8.500000000000000e+00  6.093745775832484e-01  -6.891750041526085e+01  5.738583719600295e-01  1.227309516127147e+01  5.738583719600295e-01  1.227309516127147e+01  7.257327151874264e-01  -84.4065333630912   
9.000000000000000e+00  5.630716265495849e-01  -7.208769024112432e+01  6.017396812539337e-01  7.862507404740874e+00  6.017396812539337e-01  7.862507404740874e+00  6.962660593181709e-01  -89.4983481739567   
9.500000000000000e+00  5.158447401077951e-01  -7.464631348320560e+01  6.262239975148486e-01  3.645191359753732e+00  6.262239975148486e-01  3.645191359753732e+00  6.681589762896265e-01  -94.4557990572032   
1.000000000000000e+01  4.689439079740407e-01  -7.620133608072722e+01  6.461163169772051e-01  -4.150259195375873e-01  6.461163169772051e-01  -4.150259195375873e-01  6.412749427690239e-01  -99.1378692755944   
1.050000000000000e+01  4.221195716910742e-01  -7.684021089283686e+01  6.642004353006575e-01  -4.165267387554698e+00  6.642004353006575e-01  -4.165267387554698e+00  6.178747960733947e-01  -103.784854326125   
1.100000000000000e+01  3.756924565936756e-01  -7.513079842737231e+01  6.786434827968771e-01  -7.953455375830211e+00  6.786434827968771e-01  -7.953455375830211e+00  5.927856196962332e-01  -108.231711872644   
1.150000000000000e+01  3.344552851745680e-01  -7.019819614639594e+01  6.908119029925269e-01  -1.164491957601580e+01  6.908119029925269e-01  -1.164491957601580e+01  5.691225817543639e-01  -112.576403124207   
1.200000000000000e+01  3.106822117238610e-01  -5.986894911176903e+01  7.010710491795883e-01  -1.539874167423094e+01  7.010710491795883e-01  -1.539874167423094e+01  5.439296561376518e-01  -116.870360132241   
1.250000000000000e+01  3.273293780401256e-01  -4.633209580025585e+01  7.095686502699496e-01  -1.897314691053421e+01  7.095686502699496e-01  -1.897314691053421e+01  5.210690599814572e-01  -121.111319287204   
1.300000000000000e+01  4.091080378158971e-01  -3.569450731327225e+01  7.169400327827686e-01  -2.249569099018906e+01  7.169400327827686e-01  -2.249569099018906e+01  4.986267208435822e-01  -125.371675966341   
1.350000000000000e+01  5.614259320898863e-01  -3.480558579098795e+01  7.225975769174016e-01  -2.601335173391833e+01  7.225975769174016e-01  -2.601335173391833e+01  4.759284173083770e-01  -129.61333700466    
1.400000000000000e+01  7.419418929445687e-01  -4.423055930261417e+01  7.269842149687732e-01  -2.952857171727023e+01  7.269842149687732e-01  -2.952857171727023e+01  4.529444539504974e-01  -133.890182158002   
1.450000000000000e+01  8.486082279606088e-01  -6.020897061258755e+01  7.290356514395955e-01  -3.313219387621060e+01  7.290356514395955e-01  -3.313219387621060e+01  4.274376669843604e-01  -138.057367787681   
1.500000000000000e+01  8.476730948354948e-01  -7.527496571059962e+01  7.308305288230984e-01  -3.669331771341927e+01  7.308305288230984e-01  -3.669331771341927e+01  4.029428752525748e-01  -142.443822071032   
1.550000000000000e+01  7.794466962698894e-01  -8.676621967700190e+01  7.313849473267396e-01  -4.030291943760155e+01  7.313849473267396e-01  -4.030291943760155e+01  3.773102553647649e-01  -146.942535481528   
1.600000000000000e+01  6.985268905916252e-01  -9.528051013576068e+01  7.334729503572754e-01  -4.392094938070980e+01  7.334729503572754e-01  -4.392094938070980e+01  3.517473185534746e-01  -152.119561465662   
1.650000000000000e+01  6.142259830101394e-01  -1.003523234189605e+02  7.315516919127844e-01  -4.768824339158527e+01  7.315516919127844e-01  -4.768824339158527e+01  3.228488478219204e-01  -157.06740205999    
1.700000000000000e+01  5.395663770227688e-01  -1.031558046405315e+02  7.280147888139491e-01  -5.156137277723212e+01  7.280147888139491e-01  -5.156137277723212e+01  2.917172331408634e-01  -162.289476826907   
1.750000000000000e+01  4.827849664471645e-01  -1.035550677541137e+02  7.202789666905712e-01  -5.525747880933609e+01  7.202789666905712e-01  -5.525747880933609e+01  2.615854725858423e-01  -166.855055875528   