
!*************************************************************************
!! ASITIC Ver 10.20.99.0.0.0
!!  Data generated by the <2Port> command in <slow> mode.
!! Generated on Thu Apr 11 17:21:13 1974
!# Spiral Data:	Name = <MM_240>, User-defined Structure, Origin = <100.00,100.00>
!# Sides =   4, Metal =   4, Exit Metal =   3
!# W = 10.00, S =  3.00, N =  3.00
!# Theta =  0.00, Phase =   1
!# Technolog File Data <CMOS.tek> @ <.>
!# Auto-Cell Mode:  <alpha> = 0.050000, <beta> = 0.800000
!# Metal Layers
!# Name=M1        Met=0  Lyr=  1  Mz=48.70  T=0.50  RS=0.07  Col=YELLOW  
!# Name=M2        Met=1  Lyr=  1  Mz=47.60  T=0.50  RS=0.06  Col=LIGHTSKYBLUE1
!# Name=M3        Met=2  Lyr=  1  Mz=46.50  T=0.50  RS=0.06  Col=MEDIUM PURPLE
!# Name=M4        Met=3  Lyr=  1  Mz=45.50  T=0.50  RS=0.06  Col=LIGHT GREEN
!# Name=M5        Met=4  Lyr=  1  Mz=44.00  T=1.00  RS=0.03  Col=GREY    
!# Substrate Layers
!# Lyr=    0  Eps=  12  Rho=  10  DZ=7.5e+02  T=7e+02
!# Lyr=    1  Eps= 3.9  Rho=1e+14  DZ=  50  T=  50
!*************************************************************************
# GHZ S MA S11 mag    S11 phase  S12 mag    S12 phase  S21 mag    S21 phase  S22 mag    S22 phase  
1.000000000000000e+00  6.125028165442005e-01  3.282278222093488e+01  6.378793598824557e-01  -4.045164290318434e+01  6.378793598824557e-01  -4.045164290318434e+01  6.070328770546629e-01  30.9078738289939    
1.500000000000000e+00  7.886171689069342e-01  1.890209698346510e+01  4.575734155740812e-01  -5.688571932139176e+01  4.575734155740812e-01  -5.688571932139176e+01  7.833714913583849e-01  16.2221028126483    
2.000000000000000e+00  8.895921412351768e-01  4.957487711365180e+00  2.696667453672155e-01  -6.842871903486278e+01  2.696667453672155e-01  -6.842871903486278e+01  8.875129893060635e-01  1.43344520023402    
2.500000000000000e+00  9.308158356872794e-01  -8.066649137928151e+00  9.829539267870488e-02  -6.140096994720891e+01  9.829539267870488e-02  -6.140096994720891e+01  9.345117735195493e-01  -12.5297424495859   
3.000000000000000e+00  9.290219632497501e-01  -1.954985709883259e+01  9.153489789297720e-02  3.758863830320436e+01  9.153489789297720e-02  3.758863830320436e+01  9.405853045781706e-01  -25.0323231424128   
3.500000000000000e+00  8.985738524719437e-01  -2.972387115067282e+01  2.143690208258940e-01  4.740175123882246e+01  2.143690208258940e-01  4.740175123882246e+01  9.197110562189991e-01  -36.344307492013    
4.000000000000000e+00  8.505137054563587e-01  -3.880341011759116e+01  3.240210476101002e-01  4.228389485867793e+01  3.240210476101002e-01  4.228389485867793e+01  8.831157265355550e-01  -46.7288160288068   
4.500000000000000e+00  7.910783454519814e-01  -4.675776489656651e+01  4.146056507303509e-01  3.520573597382570e+01  4.146056507303509e-01  3.520573597382570e+01  8.366894281763022e-01  -56.2040227377648   
5.000000000000000e+00  7.247112331419313e-01  -5.368927903318989e+01  4.888758760450698e-01  2.794130053079301e+01  4.888758760450698e-01  2.794130053079301e+01  7.850872386168277e-01  -64.9739047628907   
5.500000000000000e+00  6.536564711310497e-01  -5.959003836148722e+01  5.498766355695061e-01  2.086866330096763e+01  5.498766355695061e-01  2.086866330096763e+01  7.309015702316455e-01  -73.2106782864053   
6.000000000000000e+00  5.798162724812292e-01  -6.424878766104798e+01  5.992484391883939e-01  1.409511246521796e+01  5.992484391883939e-01  1.409511246521796e+01  6.762678976642416e-01  -80.9906889529734   
6.500000000000000e+00  5.015592048830682e-01  -6.734216936910863e+01  6.416194337820738e-01  7.564643806879215e+00  6.416194337820738e-01  7.564643806879215e+00  6.212158706619616e-01  -88.7094683741815   
7.000000000000000e+00  4.246766312149264e-01  -6.728117939364428e+01  6.740950912719548e-01  1.276935415260910e+00  6.740950912719548e-01  1.276935415260910e+00  5.668493941535324e-01  -96.0035650361808   
7.500000000000001e+00  3.575137558736648e-01  -6.136514629228368e+01  6.999671248856887e-01  -4.839279678562366e+00  6.999671248856887e-01  -4.839279678562366e+00  5.127045935901067e-01  -103.183455675745   
8.000000000000000e+00  3.454175180000313e-01  -4.686174080914465e+01  7.161268707388204e-01  -1.098951049045122e+01  7.161268707388204e-01  -1.098951049045122e+01  4.555554899962269e-01  -109.707119466489   
8.500000000000000e+00  4.377460967000152e-01  -3.510409909059295e+01  7.302865209471874e-01  -1.692803046304849e+01  7.302865209471874e-01  -1.692803046304849e+01  4.004130434387806e-01  -116.712117687743   
9.000000000000000e+00  6.137303516707774e-01  -3.989389249894407e+01  7.443855121219193e-01  -2.254718465550386e+01  7.443855121219193e-01  -2.254718465550386e+01  3.500167759751813e-01  -124.744579573255   
9.500000000000000e+00  6.880214919715631e-01  -5.924504909364202e+01  7.499071904663064e-01  -2.845998091858444e+01  7.499071904663064e-01  -2.845998091858444e+01  2.932703257378263e-01  -132.503418404601   
1.000000000000000e+01  6.041516492232776e-01  -7.449111078511561e+01  7.506176683892700e-01  -3.443510304661397e+01  7.506176683892700e-01  -3.443510304661397e+01  2.345909108660468e-01  -140.887928910002   
1.050000000000000e+01  4.895636930800902e-01  -7.978438865854243e+01  7.400662806334244e-01  -4.048828201571315e+01  7.400662806334244e-01  -4.048828201571315e+01  1.711077839746019e-01  -147.51258628599    
1.100000000000000e+01  4.020274204087454e-01  -7.937989940094684e+01  7.292286753210427e-01  -4.660897252954700e+01  7.292286753210427e-01  -4.660897252954700e+01  1.064701228821483e-01  -157.889920867864   
1.150000000000000e+01  3.480526187997132e-01  -7.323708642605220e+01  7.122564808310865e-01  -5.281384137167360e+01  7.122564808310865e-01  -5.281384137167360e+01  4.147218516777905e-02  -177.215111682634   
1.200000000000000e+01  3.219898958327352e-01  -6.318696119398350e+01  6.952266645483495e-01  -5.946782598235285e+01  6.952266645483495e-01  -5.946782598235285e+01  4.191665072470940e-02  49.8819816669206    
1.250000000000000e+01  3.444791221480549e-01  -5.363589283332918e+01  6.650252105549236e-01  -6.594125742149058e+01  6.650252105549236e-01  -6.594125742149058e+01  1.095031680851866e-01  19.0210472976323    
1.300000000000000e+01  3.952052759945825e-01  -4.808480549668162e+01  6.275263050529094e-01  -7.239691142072787e+01  6.275263050529094e-01  -7.239691142072787e+01  1.820180089432051e-01  5.20691862650695    
1.350000000000000e+01  4.628633953342900e-01  -4.637602744584465e+01  5.824783667850645e-01  -7.892028572942034e+01  5.824783667850645e-01  -7.892028572942034e+01  2.582989716062877e-01  -5.85890528599518   
1.400000000000000e+01  5.342520944236165e-01  -4.806269746932531e+01  5.317037685677606e-01  -8.492486540439647e+01  5.317037685677606e-01  -8.492486540439647e+01  3.289007296108845e-01  -16.1423183762537   
1.450000000000000e+01  6.036767690028533e-01  -5.168085599231265e+01  4.767132287814659e-01  -9.036919686286259e+01  4.767132287814659e-01  -9.036919686286259e+01  3.951036663245419e-01  -25.9829757166565   
1.500000000000000e+01  6.608062395267523e-01  -5.762759863680191e+01  4.157336539983924e-01  -9.328729722101680e+01  4.157336539983924e-01  -9.328729722101680e+01  4.442431177736166e-01  -37.7576535003101   
1.550000000000000e+01  7.119867617338633e-01  -6.288255420312949e+01  3.620569228527170e-01  -9.629432811406481e+01  3.620569228527170e-01  -9.629432811406481e+01  4.948236413792217e-01  -46.6173447562514   
1.600000000000000e+01  7.608118404274908e-01  -6.922586530163906e+01  3.099193425698482e-01  -9.750289401957794e+01  3.099193425698482e-01  -9.750289401957794e+01  5.471497871657015e-01  -55.0451736375689   
1.650000000000000e+01  7.816063864144313e-01  -7.596422436505851e+01  2.665461441678369e-01  -9.678013749732969e+01  2.665461441678369e-01  -9.678013749732969e+01  5.928159008990890e-01  -64.7896932742847   
1.700000000000000e+01  8.285048521383863e-01  -8.077180575229070e+01  2.199899313704812e-01  -9.812752985847817e+01  2.199899313704812e-01  -9.812752985847817e+01  6.477797011447128e-01  -70.4009642098218   
1.750000000000000e+01  8.238521034444162e-01  -8.669828682339205e+01  1.935847187784911e-01  -9.400769056992281e+01  1.935847187784911e-01  -9.400769056992281e+01  6.713356577486876e-01  -79.7083990821955   