
!*************************************************************************
!! ASITIC Ver 10.20.99.0.0.0
!!  Data generated by the <2Port> command in <slow> mode.
!! Generated on Thu Apr 11 17:21:13 1974
!# Spiral Data:	Name = <RG4>, User-defined Structure, Origin = <200.00,200.00>
!# Sides =  16, Metal =   4, Exit Metal =  -1
!# W =  8.00, S =  0.10, N =  0.00
!# Theta =  0.00, Phase =   1
!# Technolog File Data <CMOS.tek> @ <.>
!# Auto-Cell Mode:  <alpha> = 0.050000, <beta> = 0.800000
!# Metal Layers
!# Name=M1        Met=0  Lyr=  1  Mz=48.70  T=0.50  RS=0.07  Col=YELLOW  
!# Name=M2        Met=1  Lyr=  1  Mz=47.60  T=0.50  RS=0.06  Col=LIGHTSKYBLUE1
!# Name=M3        Met=2  Lyr=  1  Mz=46.50  T=0.50  RS=0.06  Col=MEDIUM PURPLE
!# Name=M4        Met=3  Lyr=  1  Mz=45.50  T=0.50  RS=0.06  Col=LIGHT GREEN
!# Name=M5        Met=4  Lyr=  1  Mz=44.00  T=1.00  RS=0.03  Col=GREY    
!# Substrate Layers
!# Lyr=    0  Eps=  12  Rho=  10  DZ=7.5e+02  T=7e+02
!# Lyr=    1  Eps= 3.9  Rho=1e+14  DZ=  50  T=  50
!*************************************************************************
# GHZ S MA S11 mag    S11 phase  S12 mag    S12 phase  S21 mag    S21 phase  S22 mag    S22 phase  
1.000000000000000e+00  3.406910976539271e-02  3.745702588386452e+01  9.737239333051654e-01  -2.770651265711555e+00  9.737239333051654e-01  -2.770651265711555e+00  3.464394040513652e-02  38.7353745716421    
1.500000000000000e+00  4.202590171366553e-02  4.751440891756783e+01  9.733401345458137e-01  -4.154228028780645e+00  9.733401345458137e-01  -4.154228028780645e+00  4.306781903638886e-02  48.8523573852024    
2.000000000000000e+00  5.107225197951847e-02  5.363454768729771e+01  9.727709736775062e-01  -5.533903520131472e+00  9.727709736775062e-01  -5.533903520131472e+00  5.258604878207267e-02  54.9473148652066    
2.500000000000000e+00  6.068230815564658e-02  5.739038990184158e+01  9.720464782687734e-01  -6.910590550357115e+00  9.720464782687734e-01  -6.910590550357115e+00  6.265939953424829e-02  58.6738142849744    
3.000000000000000e+00  7.059043904020401e-02  5.971306306211912e+01  9.712044907949388e-01  -8.284834149319304e+00  9.712044907949388e-01  -8.284834149319304e+00  7.302088450021436e-02  60.981447925463     
3.500000000000000e+00  8.063496135568250e-02  6.106566423000599e+01  9.701956598152094e-01  -9.653864578328800e+00  9.701956598152094e-01  -9.653864578328800e+00  8.350783913779897e-02  62.337150740091     
4.000000000000000e+00  9.074233445398397e-02  6.181511254543950e+01  9.690915377557165e-01  -1.101963162746110e+01  9.690915377557165e-01  -1.101963162746110e+01  9.404867324276445e-02  63.1032681203747    
4.500000000000000e+00  1.008441150760432e-01  6.210504776873810e+01  9.678364678513776e-01  -1.237972188104709e+01  9.678364678513776e-01  -1.237972188104709e+01  1.045739125881101e-01  63.4223787356174    
5.000000000000000e+00  1.109174429784259e-01  6.210334081180673e+01  9.665047483615131e-01  -1.373589748750344e+01  9.665047483615131e-01  -1.373589748750344e+01  1.150621663017026e-01  63.4581528493703    
5.500000000000000e+00  1.209273122321827e-01  6.185383730047236e+01  9.650380846764688e-01  -1.508630407752505e+01  9.650380846764688e-01  -1.508630407752505e+01  1.254770088132555e-01  63.25398520311      
6.000000000000000e+00  1.308637588280099e-01  6.144839828006737e+01  9.635101276868417e-01  -1.643226580052248e+01  9.635101276868417e-01  -1.643226580052248e+01  1.358096250454413e-01  62.8989094849365    
6.500000000000000e+00  1.407112325862710e-01  6.091044547104630e+01  9.618963429611286e-01  -1.777306519934577e+01  9.618963429611286e-01  -1.777306519934577e+01  1.460435721312138e-01  62.415853983438     
7.000000000000000e+00  1.504559609115621e-01  6.025393581350490e+01  9.601640305937253e-01  -1.910795524189443e+01  9.601640305937253e-01  -1.910795524189443e+01  1.561639212822777e-01  61.8185045859521    
7.500000000000001e+00  1.600947092786084e-01  5.953035567932843e+01  9.583924990060757e-01  -2.043803560200922e+01  9.583924990060757e-01  -2.043803560200922e+01  1.661686248265554e-01  61.1565506823344    
8.000000000000000e+00  1.696196703965259e-01  5.874136424495580e+01  9.565519658143008e-01  -2.176274572962481e+01  9.565519658143008e-01  -2.176274572962481e+01  1.760487698247889e-01  60.4316860189472    
8.500000000000000e+00  1.789951214725990e-01  5.788817849465972e+01  9.546173634690034e-01  -2.307989114592386e+01  9.546173634690034e-01  -2.307989114592386e+01  1.857674519914085e-01  59.6453510313394    
9.000000000000000e+00  1.882733891524690e-01  5.700282190677692e+01  9.526512095252501e-01  -2.439349704871532e+01  9.526512095252501e-01  -2.439349704871532e+01  1.953781031266910e-01  58.8280271821417    
9.500000000000000e+00  1.974230819355433e-01  5.608191574257918e+01  9.506303021585223e-01  -2.570156972518612e+01  9.506303021585223e-01  -2.570156972518612e+01  2.048482261566514e-01  57.9766824050552    
1.000000000000000e+01  2.064403221725699e-01  5.513159454530916e+01  9.485591056148095e-01  -2.700405930647515e+01  9.485591056148095e-01  -2.700405930647515e+01  2.141735571936056e-01  57.097246590028     
1.050000000000000e+01  2.153120768090932e-01  5.414587275219051e+01  9.464021112122123e-01  -2.830000344166388e+01  9.464021112122123e-01  -2.830000344166388e+01  2.233396308674831e-01  56.1840272954029    
1.100000000000000e+01  2.244761137965975e-01  5.319561806487073e+01  9.443629024646290e-01  -2.961825622528080e+01  9.443629024646290e-01  -2.961825622528080e+01  2.327903811790564e-01  55.302461531966     
1.150000000000000e+01  2.330989535665313e-01  5.218321519091925e+01  9.421706636593935e-01  -3.090522239771249e+01  9.421706636593935e-01  -3.090522239771249e+01  2.416822783939399e-01  54.3639139658026    
1.200000000000000e+01  2.414617614227582e-01  5.114848718035556e+01  9.399247767489385e-01  -3.217913615569001e+01  9.399247767489385e-01  -3.217913615569001e+01  2.502994567240634e-01  53.4048803680437    
1.250000000000000e+01  2.497867372313256e-01  5.010994936565849e+01  9.376693349609566e-01  -3.345421738768079e+01  9.376693349609566e-01  -3.345421738768079e+01  2.588655519751492e-01  52.4417716566163    
1.300000000000000e+01  2.579618958144321e-01  4.906146681449566e+01  9.353889741420495e-01  -3.472348948060374e+01  9.353889741420495e-01  -3.472348948060374e+01  2.672674070870215e-01  51.4693863281927    
1.350000000000000e+01  2.659851075687793e-01  4.800474739932979e+01  9.330879069858389e-01  -3.598693174470644e+01  9.330879069858389e-01  -3.598693174470644e+01  2.755025966099156e-01  50.4893755002226    
1.400000000000000e+01  2.737345339955577e-01  4.693509377222712e+01  9.307526437359053e-01  -3.723686551675518e+01  9.307526437359053e-01  -3.723686551675518e+01  2.834481361727429e-01  49.4979701868879    
1.450000000000000e+01  2.814437401131378e-01  4.586625317706608e+01  9.284225427987461e-01  -3.848830672750622e+01  9.284225427987461e-01  -3.848830672750622e+01  2.913390375385578e-01  48.5069442625632    
1.500000000000000e+01  2.889959224866951e-01  4.479299185017551e+01  9.260842381909229e-01  -3.973390663615926e+01  9.260842381909229e-01  -3.973390663615926e+01  2.990574052419071e-01  47.5119839518875    
1.550000000000000e+01  2.963897690729185e-01  4.371625061861871e+01  9.237417882602080e-01  -4.097367876677490e+01  9.237417882602080e-01  -4.097367876677490e+01  3.066016928734139e-01  46.513999732693     
1.600000000000000e+01  3.035025124245896e-01  4.263220163715253e+01  9.213843163310258e-01  -4.219979048289283e+01  9.213843163310258e-01  -4.219979048289283e+01  3.138481297204929e-01  45.5100703646101    
1.650000000000000e+01  3.105727507457804e-01  4.155101000226553e+01  9.190455783772370e-01  -4.342771782044954e+01  9.190455783772370e-01  -4.342771782044954e+01  3.210366720448256e-01  44.5084919432886    
1.700000000000000e+01  3.174818741048402e-01  4.046848334770884e+01  9.167145330554956e-01  -4.464991447980903e+01  9.167145330554956e-01  -4.464991447980903e+01  3.280477405150080e-01  43.5059669711224    
1.750000000000000e+01  3.242292660365807e-01  3.938515607601038e+01  9.143949660990750e-01  -4.586643020704535e+01  9.143949660990750e-01  -4.586643020704535e+01  3.348805391121930e-01  42.5030135278892    