
!*************************************************************************
!! ASITIC Ver 10.20.99.0.0.0
!!  Data generated by the <2Port> command in <slow> mode.
!! Generated on Thu Apr 11 17:21:13 1974
!# Spiral Data:	Name = <RG4>, User-defined Structure, Origin = <200.00,200.00>
!# Sides =  16, Metal =   2, Exit Metal =  -1
!# W =  8.00, S =  0.10, N =  0.00
!# Theta =  0.00, Phase =   1
!# Technolog File Data <BiCMOS.tek> @ <.>
!# Auto-Cell Mode:  <alpha> = 0.050000, <beta> = 0.800000
!# Metal Layers
!# Name=MSUB      Met=0  Lyr=  1  Mz=50.00  T=0.40  RS=0.04  Col=BLUE    
!# Name=M2        Met=1  Lyr=  2  Mz=47.00  T=0.80  RS=0.05  Col=GREEN   
!# Name=M3        Met=2  Lyr=  2  Mz=45.00  T=2.00  RS=0.02  Col=RED     
!# Substrate Layers
!# Lyr=    0  Eps=  12  Rho=1e+05  DZ=8.5e+02  T=8e+02
!# Lyr=    1  Eps=  12  Rho=1e+03  DZ=  52  T=   2
!# Lyr=    2  Eps=   4  Rho=1e+14  DZ=  50  T=  50
!*************************************************************************
# GHZ S MA S11 mag    S11 phase  S12 mag    S12 phase  S21 mag    S21 phase  S22 mag    S22 phase  
1.000000000000000e+00  2.513240651119849e-02  5.113279662437137e+01  9.797503804713197e-01  -2.787792443025578e+00  9.797503804713197e-01  -2.787792443025578e+00  2.604775477636931e-02  52.2167474920169    
1.500000000000000e+00  3.359576773908547e-02  6.502157908715392e+01  9.765877561216856e-01  -4.122098245755163e+00  9.765877561216856e-01  -4.122098245755163e+00  3.507398807150386e-02  65.4402062047433    
2.000000000000000e+00  4.421437433944144e-02  7.339778567078730e+01  9.727508034320259e-01  -5.405630376564055e+00  9.727508034320259e-01  -5.405630376564055e+00  4.612372854777198e-02  73.2877208478893    
2.500000000000000e+00  5.635642125673298e-02  7.813514774263804e+01  9.684681015079469e-01  -6.634798221995004e+00  9.684681015079469e-01  -6.634798221995004e+00  5.858678871731821e-02  77.7151070752866    
3.000000000000000e+00  6.959967413651638e-02  8.072901779247661e+01  9.640860734293213e-01  -7.820872317132481e+00  9.640860734293213e-01  -7.820872317132481e+00  7.207673214431150e-02  80.1499772831107    
3.500000000000000e+00  8.347869141382198e-02  8.190418909009020e+01  9.596307403181034e-01  -8.966872542787648e+00  9.596307403181034e-01  -8.966872542787648e+00  8.615769370085927e-02  81.2591704215516    
4.000000000000000e+00  1.001936037755265e-01  8.207064595802599e+01  9.550409892224661e-01  -1.023045232858192e+01  9.550409892224661e-01  -1.023045232858192e+01  1.030556481269337e-01  81.4343362422677    
4.500000000000000e+00  1.148989114468756e-01  8.184359258953515e+01  9.506805542680304e-01  -1.134011146698454e+01  9.506805542680304e-01  -1.134011146698454e+01  1.179229975974987e-01  81.22009443593      
5.000000000000000e+00  1.297740906938225e-01  8.130687063227722e+01  9.464401414495306e-01  -1.243927310634837e+01  9.464401414495306e-01  -1.243927310634837e+01  1.329511909351586e-01  80.7109197662568    
5.500000000000000e+00  1.446365659636340e-01  8.055460601118894e+01  9.422504299966727e-01  -1.352649795419396e+01  9.422504299966727e-01  -1.352649795419396e+01  1.479621293953049e-01  79.993645155588     
6.000000000000000e+00  1.593038989726173e-01  7.964694275391452e+01  9.380317318854187e-01  -1.459734171421294e+01  9.380317318854187e-01  -1.459734171421294e+01  1.627758864908672e-01  79.1241005853766    
6.500000000000000e+00  1.739659946020746e-01  7.866582901080574e+01  9.338600802214347e-01  -1.566728241399064e+01  9.338600802214347e-01  -1.566728241399064e+01  1.775830216494497e-01  78.1823050952976    
7.000000000000000e+00  1.884880411692945e-01  7.762724143379363e+01  9.296633318222991e-01  -1.673117081904749e+01  9.296633318222991e-01  -1.673117081904749e+01  1.922495561027955e-01  77.1827537615259    
7.500000000000001e+00  2.027168412131073e-01  7.654217237817983e+01  9.253746163210566e-01  -1.778159207668552e+01  9.253746163210566e-01  -1.778159207668552e+01  2.066224725750916e-01  76.1355415988335    
8.000000000000000e+00  2.168970672119457e-01  7.544619879982449e+01  9.210678623116625e-01  -1.883445475955888e+01  9.210678623116625e-01  -1.883445475955888e+01  2.209463099814528e-01  75.0762908111367    
8.500000000000000e+00  2.308968235831703e-01  7.433844783429690e+01  9.166861265357085e-01  -1.988254430593108e+01  9.166861265357085e-01  -1.988254430593108e+01  2.350890422894795e-01  74.0037729346945    
9.000000000000000e+00  2.447093037027646e-01  7.322561133624183e+01  9.122192317979962e-01  -2.092586460564349e+01  9.122192317979962e-01  -2.092586460564349e+01  2.490436049219171e-01  72.9246421079254    
9.500000000000000e+00  2.581822398277099e-01  7.210495910755559e+01  9.076168420314557e-01  -2.195520359628772e+01  9.076168420314557e-01  -2.195520359628772e+01  2.626572665764348e-01  71.8360594559023    
1.000000000000000e+01  2.715949454821431e-01  7.099467132790367e+01  9.029584674719002e-01  -2.298789350625157e+01  9.029584674719002e-01  -2.298789350625157e+01  2.762093303915327e-01  70.7565481948646    
1.050000000000000e+01  2.857174427995165e-01  6.983039775615845e+01  8.979644532731931e-01  -2.407440019168852e+01  8.979644532731931e-01  -2.407440019168852e+01  2.904739841552316e-01  69.6236644772377    
1.100000000000000e+01  2.987621118135845e-01  6.872913034012518e+01  8.930767972555919e-01  -2.509899508720444e+01  8.930767972555919e-01  -2.509899508720444e+01  3.036542954224639e-01  68.5504792171974    
1.150000000000000e+01  3.113973562470256e-01  6.763279630020634e+01  8.880578230030145e-01  -2.610482046736512e+01  8.880578230030145e-01  -2.610482046736512e+01  3.164222813482070e-01  67.4808875271572    
1.200000000000000e+01  3.240137900384258e-01  6.654810467217001e+01  8.829642902437800e-01  -2.711669739080060e+01  8.829642902437800e-01  -2.711669739080060e+01  3.291692881300984e-01  66.4220274018202    
1.250000000000000e+01  3.364179291090226e-01  6.547249967957261e+01  8.777699093460337e-01  -2.812218412194370e+01  8.777699093460337e-01  -2.812218412194370e+01  3.417011187288360e-01  65.3712481413237    
1.300000000000000e+01  3.486079016597753e-01  6.440638545404073e+01  8.724773606401991e-01  -2.912102440790005e+01  8.724773606401991e-01  -2.912102440790005e+01  3.540156783023106e-01  64.329029426575     
1.350000000000000e+01  3.603764321027343e-01  6.334933152049258e+01  8.670738921283915e-01  -3.009941865489242e+01  8.670738921283915e-01  -3.009941865489242e+01  3.659048741751272e-01  63.2948924272973    
1.400000000000000e+01  3.721253549886049e-01  6.230334881994821e+01  8.615975501056075e-01  -3.108360395521191e+01  8.615975501056075e-01  -3.108360395521191e+01  3.777715436329550e-01  62.2711545376424    
1.450000000000000e+01  3.836561990971313e-01  6.126749379767560e+01  8.560347149418052e-01  -3.206044699494780e+01  8.560347149418052e-01  -3.206044699494780e+01  3.894164728680609e-01  61.256805585913     
1.500000000000000e+01  3.949681371473830e-01  6.024185911091863e+01  8.503899867677295e-01  -3.302974588793921e+01  8.503899867677295e-01  -3.302974588793921e+01  4.008386833438024e-01  60.2519911221611    
1.550000000000000e+01  4.060606023711626e-01  5.922650381229135e+01  8.446682284808181e-01  -3.399131459892713e+01  8.446682284808181e-01  -3.399131459892713e+01  4.120374731841682e-01  59.2568181878197    
1.600000000000000e+01  4.167176432986058e-01  5.822326738234621e+01  8.388765034141746e-01  -3.493020729601650e+01  8.388765034141746e-01  -3.493020729601650e+01  4.227960770254680e-01  58.2730857825551    
1.650000000000000e+01  4.273643450171804e-01  5.722890375002841e+01  8.330188107706422e-01  -3.587527996754662e+01  8.330188107706422e-01  -3.587527996754662e+01  4.335408431634227e-01  57.297760807698     
1.700000000000000e+01  4.377916357478586e-01  5.624486944439225e+01  8.270998051354658e-01  -3.681216548695745e+01  8.270998051354658e-01  -3.681216548695745e+01  4.440619366323433e-01  56.3322457148401    
1.750000000000000e+01  4.479999915095110e-01  5.527115010832451e+01  8.211248278256551e-01  -3.774074281204452e+01  8.211248278256551e-01  -3.774074281204452e+01  4.543597550738382e-01  55.3765583980567    