
!*************************************************************************
!! ASITIC Ver 10.20.99.0.0.0
!!  Data generated by the <2Port> command in <slow> mode.
!! Generated on Thu Apr 11 17:21:13 1974
!# Spiral Data:	Name = <RG1>, User-defined Structure, Origin = <200.00,200.00>
!# Sides =  16, Metal =   2, Exit Metal =  -1
!# W =  8.00, S =  0.07, N =  0.00
!# Theta =  0.00, Phase =   1
!# Technolog File Data <BiCMOS.tek> @ <.>
!# Auto-Cell Mode:  <alpha> = 0.050000, <beta> = 0.800000
!# Metal Layers
!# Name=MSUB      Met=0  Lyr=  1  Mz=50.00  T=0.40  RS=0.04  Col=BLUE    
!# Name=M2        Met=1  Lyr=  2  Mz=47.00  T=0.80  RS=0.05  Col=GREEN   
!# Name=M3        Met=2  Lyr=  2  Mz=45.00  T=2.00  RS=0.02  Col=RED     
!# Substrate Layers
!# Lyr=    0  Eps=  12  Rho=1e+05  DZ=8.5e+02  T=8e+02
!# Lyr=    1  Eps=  12  Rho=1e+03  DZ=  52  T=   2
!# Lyr=    2  Eps=   4  Rho=1e+14  DZ=  50  T=  50
!*************************************************************************
# GHZ S MA S11 mag    S11 phase  S12 mag    S12 phase  S21 mag    S21 phase  S22 mag    S22 phase  
1.000000000000000e+00  1.025158922347495e-02  3.892247938211169e+01  9.907070360246593e-01  -1.204507063678907e+00  9.907070360246593e-01  -1.204507063678907e+00  1.054312561832281e-02  40.5270812618485    
1.500000000000000e+00  1.227439806477485e-02  5.319684045499476e+01  9.897853157344689e-01  -1.792693065547716e+00  9.897853157344689e-01  -1.792693065547716e+00  1.281075979108358e-02  54.5193575914622    
2.000000000000000e+00  1.497253628009135e-02  6.404237033324982e+01  9.885973661406210e-01  -2.369942175452205e+00  9.885973661406210e-01  -2.369942175452205e+00  1.574145279897970e-02  64.8360599752494    
2.500000000000000e+00  1.821904723968277e-02  7.179265787578342e+01  9.871616262928209e-01  -2.930522717685000e+00  9.871616262928209e-01  -2.930522717685000e+00  1.918929239646242e-02  72.0965636131675    
3.000000000000000e+00  2.196634750825210e-02  7.742068370216850e+01  9.856035638224869e-01  -3.477559798165560e+00  9.856035638224869e-01  -3.477559798165560e+00  2.310704071158954e-02  77.3446300393676    
3.500000000000000e+00  2.607791961797152e-02  8.129471283399717e+01  9.839217901004839e-01  -4.007486822230888e+00  9.839217901004839e-01  -4.007486822230888e+00  2.736352641333337e-02  80.9599777112787    
4.000000000000000e+00  3.168159797262329e-02  8.403049814230346e+01  9.821955979926376e-01  -4.592133615201851e+00  9.821955979926376e-01  -4.592133615201851e+00  3.309314511164159e-02  83.5467044091221    
4.500000000000000e+00  3.647385235913114e-02  8.576548305392284e+01  9.804710160814999e-01  -5.102631613548702e+00  9.804710160814999e-01  -5.102631613548702e+00  3.799777013062786e-02  85.1864790024572    
5.000000000000000e+00  4.150704739627225e-02  8.693814905058743e+01  9.788023376950895e-01  -5.605312398092456e+00  9.788023376950895e-01  -5.605312398092456e+00  4.313322210635983e-02  86.30598416399      
5.500000000000000e+00  4.668799847511926e-02  8.765978404238254e+01  9.771774854306192e-01  -6.099137292186879e+00  9.771774854306192e-01  -6.099137292186879e+00  4.840959517668953e-02  87.0041120026074    
6.000000000000000e+00  5.191500505094499e-02  8.801597644551367e+01  9.755695589845957e-01  -6.582109448079152e+00  9.755695589845957e-01  -6.582109448079152e+00  5.372773548845883e-02  87.3569514244535    
6.500000000000000e+00  5.727664172634318e-02  8.816172715342148e+01  9.740486457701858e-01  -7.062341816117641e+00  9.740486457701858e-01  -7.062341816117641e+00  5.917706592215741e-02  87.5122901562712    
7.000000000000000e+00  6.269331601671137e-02  8.812616618831723e+01  9.725825033223695e-01  -7.537877398313794e+00  9.725825033223695e-01  -7.537877398313794e+00  6.467942524038023e-02  87.4950284443301    
7.500000000000001e+00  6.807559104778516e-02  8.793217886477105e+01  9.711325685244467e-01  -8.005724222588825e+00  9.711325685244467e-01  -8.005724222588825e+00  7.014643638962470e-02  87.3248961516       
8.000000000000000e+00  7.354389087650552e-02  8.766161047296301e+01  9.697612080024367e-01  -8.474278658012370e+00  9.697612080024367e-01  -8.474278658012370e+00  7.569846601291892e-02  87.0817032042886    
8.500000000000000e+00  7.902316518266367e-02  8.731627759107016e+01  9.684308395222058e-01  -8.940583411569133e+00  9.684308395222058e-01  -8.940583411569133e+00  8.126110563683905e-02  86.765802695014     
9.000000000000000e+00  8.450509894783390e-02  8.691524062205491e+01  9.671356041116197e-01  -9.405156152965651e+00  9.671356041116197e-01  -9.405156152965651e+00  8.682627610761547e-02  86.3952767955781    
9.500000000000000e+00  8.990473023892731e-02  8.645410496126476e+01  9.658321140914435e-01  -9.863950719520560e+00  9.658321140914435e-01  -9.863950719520560e+00  9.230940032234536e-02  85.9650107097058    
1.000000000000000e+01  9.536862947641707e-02  8.598092267741065e+01  9.645875105634359e-01  -1.032583109023260e+01  9.645875105634359e-01  -1.032583109023260e+01  9.785666494226065e-02  85.5227332807329    
1.050000000000000e+01  1.013159094843917e-01  8.544109283461007e+01  9.633367455612903e-01  -1.081670570360277e+01  9.633367455612903e-01  -1.081670570360277e+01  1.038887958635945e-01  85.0172144215889    
1.100000000000000e+01  1.067789104862940e-01  8.492724863227670e+01  9.621195261576693e-01  -1.127880772647968e+01  9.621195261576693e-01  -1.127880772647968e+01  1.094355706210432e-01  84.5333318460896    
1.150000000000000e+01  1.121159037810256e-01  8.438741575822642e+01  9.608722921670865e-01  -1.173413106336838e+01  9.608722921670865e-01  -1.173413106336838e+01  1.148566232098648e-01  84.0226774824555    
1.200000000000000e+01  1.175378230789381e-01  8.385371554414942e+01  9.596675934487958e-01  -1.219501328234202e+01  9.596675934487958e-01  -1.219501328234202e+01  1.203626205905777e-01  83.5176337069398    
1.250000000000000e+01  1.229406155223223e-01  8.331461072220038e+01  9.584648177117245e-01  -1.265558932087239e+01  9.584648177117245e-01  -1.265558932087239e+01  1.258496109101434e-01  83.0064571242878    
1.300000000000000e+01  1.283235352612792e-01  8.277218076249066e+01  9.572609432436006e-01  -1.311590451331811e+01  9.572609432436006e-01  -1.311590451331811e+01  1.313168142559020e-01  82.4912158632171    
1.350000000000000e+01  1.335703461794785e-01  8.221636918715048e+01  9.560150123920829e-01  -1.356924545522991e+01  9.560150123920829e-01  -1.356924545522991e+01  1.366480041337736e-01  81.9617582069341    
1.400000000000000e+01  1.389062625580946e-01  8.167172550730881e+01  9.547999350824106e-01  -1.402875407463173e+01  9.547999350824106e-01  -1.402875407463173e+01  1.420682454885294e-01  81.4428597058306    
1.450000000000000e+01  1.442210701709413e-01  8.112747579375883e+01  9.535767410566522e-01  -1.448804189690351e+01  9.535767410566522e-01  -1.448804189690351e+01  1.474673433668606e-01  80.9236576570082    
1.500000000000000e+01  1.495145892871866e-01  8.058430698295193e+01  9.523436246989629e-01  -1.494710472727569e+01  9.523436246989629e-01  -1.494710472727569e+01  1.528450765204300e-01  80.4048654689191    
1.550000000000000e+01  1.547866941932567e-01  8.004273134941901e+01  9.510990078560964e-01  -1.540593221963110e+01  9.510990078560964e-01  -1.540593221963110e+01  1.582012780400586e-01  79.8870242798352    
1.600000000000000e+01  1.599087983376169e-01  7.949432024028496e+01  9.498055221304138e-01  -1.585692164104950e+01  9.498055221304138e-01  -1.585692164104950e+01  1.634072787870104e-01  79.3616716750343    
1.650000000000000e+01  1.651325117252728e-01  7.895706611225337e+01  9.485331791067816e-01  -1.631489912783168e+01  9.485331791067816e-01  -1.631489912783168e+01  1.687147189519173e-01  78.8469669074267    
1.700000000000000e+01  1.703345512587708e-01  7.842225811642649e+01  9.472457903451026e-01  -1.677258290618249e+01  9.472457903451026e-01  -1.677258290618249e+01  1.740002490090329e-01  78.334155635883     
1.750000000000000e+01  1.755148642451938e-01  7.789002469956574e+01  9.459424612167913e-01  -1.722995030929545e+01  9.459424612167913e-01  -1.722995030929545e+01  1.792637791148992e-01  77.8233951747112    