
!*************************************************************************
!! ASITIC Ver 10.20.99.0.0.0
!!  Data generated by the <2Port> command in <slow> mode.
!! Generated on Thu Apr 11 17:21:13 1974
!# Spiral Data:	Name = <RG2>, User-defined Structure, Origin = <200.00,200.00>
!# Sides =  16, Metal =   4, Exit Metal =  -1
!# W = 10.00, S =  0.07, N =  0.00
!# Theta =  0.00, Phase =   1
!# Technolog File Data <CMOS.tek> @ <.>
!# Auto-Cell Mode:  <alpha> = 0.050000, <beta> = 0.800000
!# Metal Layers
!# Name=M1        Met=0  Lyr=  1  Mz=48.70  T=0.50  RS=0.07  Col=YELLOW  
!# Name=M2        Met=1  Lyr=  1  Mz=47.60  T=0.50  RS=0.06  Col=LIGHTSKYBLUE1
!# Name=M3        Met=2  Lyr=  1  Mz=46.50  T=0.50  RS=0.06  Col=MEDIUM PURPLE
!# Name=M4        Met=3  Lyr=  1  Mz=45.50  T=0.50  RS=0.06  Col=LIGHT GREEN
!# Name=M5        Met=4  Lyr=  1  Mz=44.00  T=1.00  RS=0.03  Col=GREY    
!# Substrate Layers
!# Lyr=    0  Eps=  12  Rho=  10  DZ=7.5e+02  T=7e+02
!# Lyr=    1  Eps= 3.9  Rho=1e+14  DZ=  50  T=  50
!*************************************************************************
# GHZ S MA S11 mag    S11 phase  S12 mag    S12 phase  S21 mag    S21 phase  S22 mag    S22 phase  
1.000000000000000e+00  1.689706188806331e-02  3.405487758107223e+01  9.862234640319856e-01  -1.654783740925870e+00  9.862234640319856e-01  -1.654783740925870e+00  1.734408638030808e-02  36.2320818848596    
1.500000000000000e+00  2.021085820778796e-02  4.442047181027035e+01  9.860633057041003e-01  -2.480171961199207e+00  9.860633057041003e-01  -2.480171961199207e+00  2.104406134595789e-02  46.7615732906588    
2.000000000000000e+00  2.406634393510498e-02  5.136184286083320e+01  9.858552771155678e-01  -3.304530902808125e+00  9.858552771155678e-01  -3.304530902808125e+00  2.530097109548551e-02  53.656449640074     
2.500000000000000e+00  2.821811854669003e-02  5.598021325042502e+01  9.855842074136925e-01  -4.126364888932200e+00  9.855842074136925e-01  -4.126364888932200e+00  2.985134436360163e-02  58.1854703009539    
3.000000000000000e+00  3.253469643511810e-02  5.912447426692489e+01  9.852691402571543e-01  -4.946305506355794e+00  9.852691402571543e-01  -4.946305506355794e+00  3.456070878489773e-02  61.2488543224343    
3.500000000000000e+00  3.694425130707291e-02  6.131991208951592e+01  9.849315112017037e-01  -5.764838145425665e+00  9.849315112017037e-01  -5.764838145425665e+00  3.935765402304253e-02  63.3831643364455    
4.000000000000000e+00  4.139932330487383e-02  6.282020452618887e+01  9.845472714438106e-01  -6.580913794340847e+00  9.845472714438106e-01  -6.580913794340847e+00  4.419412757075165e-02  64.8461146349816    
4.500000000000000e+00  4.587852220716594e-02  6.385508098985569e+01  9.841366752209717e-01  -7.395286116972522e+00  9.841366752209717e-01  -7.395286116972522e+00  4.904998867831883e-02  65.8623126406126    
5.000000000000000e+00  5.036683845712227e-02  6.457022041446709e+01  9.837178995605904e-01  -8.208328401703477e+00  9.837178995605904e-01  -8.208328401703477e+00  5.391115102720550e-02  66.5729495317191    
5.500000000000000e+00  5.485369373965320e-02  6.501381116844681e+01  9.832630717185076e-01  -9.019494419885085e+00  9.832630717185076e-01  -9.019494419885085e+00  5.876631941993110e-02  67.0258409121546    
6.000000000000000e+00  5.933387297844871e-02  6.528230900125149e+01  9.828056054291060e-01  -9.829491259312073e+00  9.828056054291060e-01  -9.829491259312073e+00  6.361149735675702e-02  67.3126216221871    
6.500000000000000e+00  6.380423222168205e-02  6.538468938340027e+01  9.823144070931695e-01  -1.063792620436401e+01  9.823144070931695e-01  -1.063792620436401e+01  6.844259820591794e-02  67.4426360950547    
7.000000000000000e+00  6.826055159672378e-02  6.538345051557644e+01  9.818234688320682e-01  -1.144529077699071e+01  9.818234688320682e-01  -1.144529077699071e+01  7.325647788886443e-02  67.4748237577535    
7.500000000000001e+00  7.270233514789412e-02  6.528626553453725e+01  9.813177145306976e-01  -1.225148729865961e+01  9.813177145306976e-01  -1.225148729865961e+01  7.805213213979900e-02  67.4167117289559    
8.000000000000000e+00  7.712948704020434e-02  6.509568411552854e+01  9.807776989299046e-01  -1.305639822253586e+01  9.807776989299046e-01  -1.305639822253586e+01  8.282877579822728e-02  67.2709457714379    
8.500000000000000e+00  8.153776738181129e-02  6.485406881779728e+01  9.802413703049875e-01  -1.386036589361432e+01  9.802413703049875e-01  -1.386036589361432e+01  8.758328830250850e-02  67.0772397002638    
9.000000000000000e+00  8.591229108273669e-02  6.454564393519939e+01  9.796761499945832e-01  -1.466218119471244e+01  9.796761499945832e-01  -1.466218119471244e+01  9.229953460690796e-02  66.8213361756221    
9.500000000000000e+00  9.028269868547599e-02  6.420253008378963e+01  9.791103061829619e-01  -1.546402298877375e+01  9.791103061829619e-01  -1.546402298877375e+01  9.700815547285160e-02  66.5326035371291    
1.000000000000000e+01  9.463367564153620e-02  6.381970226914177e+01  9.785305108509806e-01  -1.626487608150332e+01  9.785305108509806e-01  -1.626487608150332e+01  1.016931840261359e-01  66.2067534155142    
1.050000000000000e+01  9.896344993703110e-02  6.339101191194536e+01  9.779172219988652e-01  -1.706448806808220e+01  9.779172219988652e-01  -1.706448806808220e+01  1.063520255553272e-01  65.8381505557164    
1.100000000000000e+01  1.034780943696858e-01  6.302857609628435e+01  9.774258285627913e-01  -1.787677527908001e+01  9.774258285627913e-01  -1.787677527908001e+01  1.111971506010676e-01  65.5273576043598    
1.150000000000000e+01  1.077803424073131e-01  6.255638470926421e+01  9.768106337033532e-01  -1.867556528104236e+01  9.768106337033532e-01  -1.867556528104236e+01  1.158204877849884e-01  65.1180106380186    
1.200000000000000e+01  1.120084537331016e-01  6.204740096073721e+01  9.761631857091344e-01  -1.947011136213968e+01  9.761631857091344e-01  -1.947011136213968e+01  1.203640402837161e-01  64.675349672836     
1.250000000000000e+01  1.162631047853676e-01  6.153195543917768e+01  9.755203534029784e-01  -2.026680946399392e+01  9.755203534029784e-01  -2.026680946399392e+01  1.249301883202338e-01  64.2258327335993    
1.300000000000000e+01  1.204943665569892e-01  6.099855213998767e+01  9.748645429116825e-01  -2.106254146711509e+01  9.748645429116825e-01  -2.106254146711509e+01  1.294679653075945e-01  63.7596596585264    
1.350000000000000e+01  1.246464939501571e-01  6.043685773785266e+01  9.741771657158116e-01  -2.185384330069751e+01  9.741771657158116e-01  -2.185384330069751e+01  1.339204850887439e-01  63.2681502982151    
1.400000000000000e+01  1.288262642979195e-01  5.987317122227296e+01  9.734954362212082e-01  -2.264745236551711e+01  9.734954362212082e-01  -2.264745236551711e+01  1.383963234646009e-01  62.7739839479178    
1.450000000000000e+01  1.329806539863220e-01  5.929669034981405e+01  9.728016170263474e-01  -2.344006875314092e+01  9.728016170263474e-01  -2.344006875314092e+01  1.428413703729666e-01  62.2680073024338    
1.500000000000000e+01  1.370517265641442e-01  5.869777167193902e+01  9.720773989538700e-01  -2.422809762675290e+01  9.720773989538700e-01  -2.422809762675290e+01  1.471965142952722e-01  61.7421797631316    
1.550000000000000e+01  1.411509688408153e-01  5.809944633966217e+01  9.713597846213482e-01  -2.501854445748740e+01  9.713597846213482e-01  -2.501854445748740e+01  1.515751193605219e-01  61.2161250052295    
1.600000000000000e+01  1.452229619521395e-01  5.749177067324221e+01  9.706311622387009e-01  -2.580796800842955e+01  9.706311622387009e-01  -2.580796800842955e+01  1.559206435777523e-01  60.681490582592     
1.650000000000000e+01  1.492671156614524e-01  5.687563416282772e+01  9.698919220710527e-01  -2.659635842067497e+01  9.698919220710527e-01  -2.659635842067497e+01  1.602323593554609e-01  60.1391107472236    
1.700000000000000e+01  1.532216284949594e-01  5.624212275769143e+01  9.691236931514404e-01  -2.737988166813130e+01  9.691236931514404e-01  -2.737988166813130e+01  1.644472245493110e-01  59.5816492546928    
1.750000000000000e+01  1.572060731550786e-01  5.561139110429913e+01  9.683639424073935e-01  -2.816603224634433e+01  9.683639424073935e-01  -2.816603224634433e+01  1.686868428120099e-01  59.0259895849349    