
!*************************************************************************
!! ASITIC Ver 10.20.99.0.0.0
!!  Data generated by the <2Port> command in <slow> mode.
!! Generated on Thu Apr 11 17:21:13 1974
!# Spiral Data:	Name = <RG3>, User-defined Structure, Origin = <200.00,200.00>
!# Sides =  16, Metal =   2, Exit Metal =  -1
!# W =  8.00, S =  0.10, N =  0.00
!# Theta =  0.00, Phase =   1
!# Technolog File Data <CMOS.tek> @ <.>
!# Auto-Cell Mode:  <alpha> = 0.050000, <beta> = 0.800000
!# Metal Layers
!# Name=M1        Met=0  Lyr=  1  Mz=48.70  T=0.50  RS=0.07  Col=YELLOW  
!# Name=M2        Met=1  Lyr=  1  Mz=47.60  T=0.50  RS=0.06  Col=LIGHTSKYBLUE1
!# Name=M3        Met=2  Lyr=  1  Mz=46.50  T=0.50  RS=0.06  Col=MEDIUM PURPLE
!# Name=M4        Met=3  Lyr=  1  Mz=45.50  T=0.50  RS=0.06  Col=LIGHT GREEN
!# Name=M5        Met=4  Lyr=  1  Mz=44.00  T=1.00  RS=0.03  Col=GREY    
!# Substrate Layers
!# Lyr=    0  Eps=  12  Rho=  10  DZ=7.5e+02  T=7e+02
!# Lyr=    1  Eps= 3.9  Rho=1e+14  DZ=  50  T=  50
!*************************************************************************
# GHZ S MA S11 mag    S11 phase  S12 mag    S12 phase  S21 mag    S21 phase  S22 mag    S22 phase  
1.000000000000000e+00  4.102725911448277e-02  1.618326868277557e+01  9.610228588636786e-01  -2.462840113180850e+00  9.610228588636786e-01  -2.462840113180850e+00  4.127931712931171e-02  17.3947175263523    
1.500000000000000e+00  4.357634976032882e-02  2.313022314070462e+01  9.608807841147465e-01  -3.693735246514950e+00  9.608807841147465e-01  -3.693735246514950e+00  4.410704850458225e-02  24.7657755144686    
2.000000000000000e+00  4.690589259696422e-02  2.899355677204050e+01  9.606647075759746e-01  -4.922685136260697e+00  9.606647075759746e-01  -4.922685136260697e+00  4.777564342276883e-02  30.9200296394914    
2.500000000000000e+00  5.084980867703014e-02  3.381044463232325e+01  9.603861569651131e-01  -6.150673024884688e+00  9.603861569651131e-01  -6.150673024884688e+00  5.209370439301182e-02  35.9239635026375    
3.000000000000000e+00  5.526334029461936e-02  3.770368717992110e+01  9.600624861070752e-01  -7.378309842644954e+00  9.600624861070752e-01  -7.378309842644954e+00  5.689929992927762e-02  39.9335665174969    
3.500000000000000e+00  6.003176418935966e-02  4.076512778779320e+01  9.596659078923888e-01  -8.603670881658454e+00  9.596659078923888e-01  -8.603670881658454e+00  6.206498194820693e-02  43.0692968714844    
4.000000000000000e+00  6.506212835588428e-02  4.317547312560557e+01  9.592319233007267e-01  -9.828323040838010e+00  9.592319233007267e-01  -9.828323040838010e+00  6.749276407789524e-02  45.5296331709373    
4.500000000000000e+00  7.028431413442102e-02  4.501529357913407e+01  9.587284188257379e-01  -1.105045136526773e+01  9.587284188257379e-01  -1.105045136526773e+01  7.310706029011382e-02  47.4086887903267    
5.000000000000000e+00  7.564514383244057e-02  4.642448209525648e+01  9.581942965911029e-01  -1.227152766964702e+01  9.581942965911029e-01  -1.227152766964702e+01  7.885421471212531e-02  48.8521767047051    
5.500000000000000e+00  8.110223251194691e-02  4.745088163839796e+01  9.575958118963818e-01  -1.348994139595332e+01  9.575958118963818e-01  -1.348994139595332e+01  8.468891688462404e-02  49.9135418590728    
6.000000000000000e+00  8.662525066281790e-02  4.819293824582482e+01  9.569727277966185e-01  -1.470700508698203e+01  9.569727277966185e-01  -1.470700508698203e+01  9.058174377404590e-02  50.692101411378     
6.500000000000000e+00  9.218922236898772e-02  4.868840217320914e+01  9.563106704968293e-01  -1.592200058482779e+01  9.563106704968293e-01  -1.592200058482779e+01  9.650646780201877e-02  51.2273768174       
7.000000000000000e+00  9.777207333696065e-02  4.896491308276277e+01  9.555902763429237e-01  -1.713410453648080e+01  9.555902763429237e-01  -1.713410453648080e+01  1.024396872439653e-01  51.5482153169154    
7.500000000000001e+00  1.033619260134496e-01  4.908506520228431e+01  9.548556505883755e-01  -1.834466785752695e+01  9.548556505883755e-01  -1.834466785752695e+01  1.083710683284058e-01  51.7159014152209    
8.000000000000000e+00  1.089450039036463e-01  4.906246560423911e+01  9.540897360705818e-01  -1.955300537938342e+01  9.540897360705818e-01  -1.955300537938342e+01  1.142857249608073e-01  51.7445829233237    
8.500000000000000e+00  1.145082794944832e-01  4.890669895767550e+01  9.532720971426679e-01  -2.075838890697725e+01  9.532720971426679e-01  -2.075838890697725e+01  1.201693698058146e-01  51.6442836148259    
9.000000000000000e+00  1.200477737150305e-01  4.866062921297105e+01  9.524487049774600e-01  -2.196209774287499e+01  9.524487049774600e-01  -2.196209774287499e+01  1.260197041307609e-01  51.4563276535622    
9.500000000000000e+00  1.255548455559366e-01  4.832708937525709e+01  9.516009295446136e-01  -2.316351278275845e+01  9.516009295446136e-01  -2.316351278275845e+01  1.318269298930266e-01  51.1838727986749    
1.000000000000000e+01  1.310236335049440e-01  4.791837807887789e+01  9.507308865753137e-01  -2.436262604242993e+01  9.507308865753137e-01  -2.436262604242993e+01  1.375849348850805e-01  50.8389408808372    
1.050000000000000e+01  1.364456372570174e-01  4.743352622009976e+01  9.498158409723606e-01  -2.555874623570502e+01  9.498158409723606e-01  -2.555874623570502e+01  1.432838208359273e-01  50.4209075729475    
1.100000000000000e+01  1.418224802698969e-01  4.690313376684722e+01  9.489055636075404e-01  -2.675316648732697e+01  9.489055636075404e-01  -2.675316648732697e+01  1.489271364973071e-01  49.9589525810415    
1.150000000000000e+01  1.471479937300999e-01  4.632356207122461e+01  9.479788279365997e-01  -2.794528231389477e+01  9.479788279365997e-01  -2.794528231389477e+01  1.545074080024869e-01  49.4497869795188    
1.200000000000000e+01  1.524164004842996e-01  4.569128039044555e+01  9.470129811427921e-01  -2.913453445020321e+01  9.470129811427921e-01  -2.913453445020321e+01  1.600174378977782e-01  48.8901891327948    
1.250000000000000e+01  1.576289231764459e-01  4.503044313461596e+01  9.460572109391500e-01  -3.032199599185519e+01  9.460572109391500e-01  -3.032199599185519e+01  1.654604138823123e-01  48.3031402941932    
1.300000000000000e+01  1.627813364142109e-01  4.433611699586258e+01  9.450901555078265e-01  -3.150717597942576e+01  9.450901555078265e-01  -3.150717597942576e+01  1.708307826834686e-01  47.6840284942653    
1.350000000000000e+01  1.678713069201137e-01  4.361209810893425e+01  9.441134335161702e-01  -3.269008664965070e+01  9.441134335161702e-01  -3.269008664965070e+01  1.761259557728598e-01  47.0365044508749    
1.400000000000000e+01  1.728946220729804e-01  4.285312153957098e+01  9.431033820449093e-01  -3.387024722314383e+01  9.431033820449093e-01  -3.387024722314383e+01  1.813402074602198e-01  46.3556146707972    
1.450000000000000e+01  1.778527097691930e-01  4.207893173354305e+01  9.421107929786975e-01  -3.504860666444828e+01  9.421107929786975e-01  -3.504860666444828e+01  1.864771559503452e-01  45.6601199452277    
1.500000000000000e+01  1.827424449910647e-01  4.128364318236233e+01  9.411131456634773e-01  -3.622474111737540e+01  9.411131456634773e-01  -3.622474111737540e+01  1.915322595640244e-01  44.944452409572     
1.550000000000000e+01  1.875621548757477e-01  4.046941452460693e+01  9.401119131196225e-01  -3.739866909889029e+01  9.401119131196225e-01  -3.739866909889029e+01  1.965036121619351e-01  44.2106750403828    
1.600000000000000e+01  1.923089077591957e-01  3.963051656258433e+01  9.390828899328059e-01  -3.857000359872473e+01  9.390828899328059e-01  -3.857000359872473e+01  2.013867011016236e-01  43.4533488686051    
1.650000000000000e+01  1.969832797511683e-01  3.878373236513369e+01  9.380777505817370e-01  -3.973953402973926e+01  9.380777505817370e-01  -3.973953402973926e+01  2.061845116112737e-01  42.6884379512565    
1.700000000000000e+01  2.015831886683906e-01  3.792304638632329e+01  9.370732939112447e-01  -4.090692210152928e+01  9.370732939112447e-01  -4.090692210152928e+01  2.108934773907910e-01  41.9102182418317    
1.750000000000000e+01  2.061073297164906e-01  3.704976245286008e+01  9.360709004981965e-01  -4.207219325441930e+01  9.360709004981965e-01  -4.207219325441930e+01  2.155120924244052e-01  41.119928045221     