
!*************************************************************************
!! ASITIC Ver 10.20.99.0.0.0
!!  Data generated by the <2Port> command in <slow> mode.
!! Generated on Thu Apr 11 17:21:13 1974
!# Spiral Data:	Name = <RG1>, User-defined Structure, Origin = <200.00,200.00>
!# Sides =  16, Metal =   4, Exit Metal =  -1
!# W =  8.00, S =  0.07, N =  0.00
!# Theta =  0.00, Phase =   1
!# Technolog File Data <CMOS.tek> @ <.>
!# Auto-Cell Mode:  <alpha> = 0.050000, <beta> = 0.800000
!# Metal Layers
!# Name=M1        Met=0  Lyr=  1  Mz=48.70  T=0.50  RS=0.07  Col=YELLOW  
!# Name=M2        Met=1  Lyr=  1  Mz=47.60  T=0.50  RS=0.06  Col=LIGHTSKYBLUE1
!# Name=M3        Met=2  Lyr=  1  Mz=46.50  T=0.50  RS=0.06  Col=MEDIUM PURPLE
!# Name=M4        Met=3  Lyr=  1  Mz=45.50  T=0.50  RS=0.06  Col=LIGHT GREEN
!# Name=M5        Met=4  Lyr=  1  Mz=44.00  T=1.00  RS=0.03  Col=GREY    
!# Substrate Layers
!# Lyr=    0  Eps=  12  Rho=  10  DZ=7.5e+02  T=7e+02
!# Lyr=    1  Eps= 3.9  Rho=1e+14  DZ=  50  T=  50
!*************************************************************************
# GHZ S MA S11 mag    S11 phase  S12 mag    S12 phase  S21 mag    S21 phase  S22 mag    S22 phase  
1.000000000000000e+00  1.492441407256297e-02  2.986758274700295e+01  9.871811466686267e-01  -1.185549608936342e+00  9.871811466686267e-01  -1.185549608936342e+00  1.511180848136589e-02  31.1010861020436    
1.500000000000000e+00  1.725323271804483e-02  4.019184122003815e+01  9.870978051792061e-01  -1.777769781689695e+00  9.870978051792061e-01  -1.777769781689695e+00  1.761563049160832e-02  41.5971199824087    
2.000000000000000e+00  2.004644050015561e-02  4.756363406623517e+01  9.869647326305728e-01  -2.367943695823251e+00  9.869647326305728e-01  -2.367943695823251e+00  2.059703051938519e-02  48.9891565996168    
2.500000000000000e+00  2.312786815087702e-02  5.284317217767650e+01  9.867963398582801e-01  -2.957261165193438e+00  9.867963398582801e-01  -2.957261165193438e+00  2.386924743110203e-02  54.2313531789992    
3.000000000000000e+00  2.639010795686392e-02  5.670257383620492e+01  9.866118109535106e-01  -3.546351909037635e+00  9.866118109535106e-01  -3.546351909037635e+00  2.732152699152304e-02  58.0382799168409    
3.500000000000000e+00  2.975733641166032e-02  5.949032442205168e+01  9.863838621846409e-01  -4.133486678453403e+00  9.863838621846409e-01  -4.133486678453403e+00  3.087610781085949e-02  60.7788709407457    
4.000000000000000e+00  3.319656708093870e-02  6.159333359392870e+01  9.861489279323188e-01  -4.720262592993254e+00  9.861489279323188e-01  -4.720262592993254e+00  3.450083931616565e-02  62.8418648638408    
4.500000000000000e+00  3.667309807510508e-02  6.313501463816491e+01  9.858752901867855e-01  -5.305197980448804e+00  9.858752901867855e-01  -5.305197980448804e+00  3.816032356553420e-02  64.3546668173267    
5.000000000000000e+00  4.017786629442370e-02  6.432167484218220e+01  9.856009803250018e-01  -5.889685848868866e+00  9.856009803250018e-01  -5.889685848868866e+00  4.184654743525133e-02  65.5199034029372    
5.500000000000000e+00  4.369337597194037e-02  6.518711465237766e+01  9.852922789013613e-01  -6.472574751754950e+00  9.852922789013613e-01  -6.472574751754950e+00  4.554141734584954e-02  66.3728014816326    
6.000000000000000e+00  4.721715670592837e-02  6.585373124045732e+01  9.849869836763020e-01  -7.054949128172280e+00  9.849869836763020e-01  -7.054949128172280e+00  4.924336065957081e-02  67.0322312511215    
6.500000000000000e+00  5.074242227200670e-02  6.634398681134630e+01  9.846696612111062e-01  -7.636397381084148e+00  9.846696612111062e-01  -7.636397381084148e+00  5.294534960415323e-02  67.5207185417662    
7.000000000000000e+00  5.426365090979358e-02  6.666982993915892e+01  9.843199368566069e-01  -8.216504708991199e+00  9.843199368566069e-01  -8.216504708991199e+00  5.664153105874632e-02  67.8503884690267    
7.500000000000001e+00  5.778153903532255e-02  6.690519326736477e+01  9.839791303166153e-01  -8.796169015381919e+00  9.839791303166153e-01  -8.796169015381919e+00  6.033342251926892e-02  68.0924182814296    
8.000000000000000e+00  6.129351907410581e-02  6.704781894757318e+01  9.836287075902604e-01  -9.375058378318123e+00  9.836287075902604e-01  -9.375058378318123e+00  6.401812188154381e-02  68.24493332163      
8.500000000000000e+00  6.478340302232034e-02  6.709324248734018e+01  9.832500925745716e-01  -9.952057299568068e+00  9.832500925745716e-01  -9.952057299568068e+00  6.767904541345075e-02  68.3040921987773    
9.000000000000000e+00  6.827886758905528e-02  6.709403953374087e+01  9.828799250914321e-01  -1.052941956597815e+01  9.828799250914321e-01  -1.052941956597815e+01  7.134465582135574e-02  68.319909950108     
9.500000000000000e+00  7.176583688269324e-02  6.704033168906925e+01  9.825010765227951e-01  -1.110612407119517e+01  9.825010765227951e-01  -1.110612407119517e+01  7.500049387898597e-02  68.283246705753     
1.000000000000000e+01  7.524384533453796e-02  6.694005568953720e+01  9.821136957516313e-01  -1.168220091589336e+01  9.821136957516313e-01  -1.168220091589336e+01  7.864607919809119e-02  68.2017721620238    
1.050000000000000e+01  7.870802179426130e-02  6.678159497522456e+01  9.816943475183819e-01  -1.225713745606060e+01  9.816943475183819e-01  -1.225713745606060e+01  8.227606319554844e-02  68.0644932155033    
1.100000000000000e+01  8.235436726434049e-02  6.670132979248157e+01  9.813884281740112e-01  -1.284428959171036e+01  9.813884281740112e-01  -1.284428959171036e+01  8.608983463739915e-02  67.9994505959148    
1.150000000000000e+01  8.581542898085803e-02  6.649680912540151e+01  9.809812981160214e-01  -1.341935866834527e+01  9.809812981160214e-01  -1.341935866834527e+01  8.971459814345314e-02  67.8176717568729    
1.200000000000000e+01  8.920670487318308e-02  6.624430010257862e+01  9.805437345972594e-01  -1.399010612171115e+01  9.805437345972594e-01  -1.399010612171115e+01  9.326756790380882e-02  67.590588945732     
1.250000000000000e+01  9.264417222970397e-02  6.598892410251811e+01  9.801185803061242e-01  -1.456390879564495e+01  9.801185803061242e-01  -1.456390879564495e+01  9.686587952602521e-02  67.3599935028297    
1.300000000000000e+01  9.607106286208471e-02  6.571239610879586e+01  9.796850725568750e-01  -1.513719052201472e+01  9.796850725568750e-01  -1.513719052201472e+01  1.004521507477138e-01  67.1090953389164    
1.350000000000000e+01  9.948709947456903e-02  6.541697584679579e+01  9.792432308603338e-01  -1.570995644768716e+01  9.792432308603338e-01  -1.570995644768716e+01  1.040260679362799e-01  66.8400689921427    
1.400000000000000e+01  1.028272214223944e-01  6.508615745514932e+01  9.787702248461895e-01  -1.627814722088820e+01  9.787702248461895e-01  -1.627814722088820e+01  1.075218799778800e-01  66.5378405693722    
1.450000000000000e+01  1.062175736224294e-01  6.475847198316913e+01  9.783107696836110e-01  -1.684969868114122e+01  9.783107696836110e-01  -1.684969868114122e+01  1.110669666663296e-01  66.2378879479069    
1.500000000000000e+01  1.095962057665017e-01  6.441701772026795e+01  9.778430986197258e-01  -1.742073762003830e+01  9.778430986197258e-01  -1.742073762003830e+01  1.145987188981682e-01  65.9247339924562    
1.550000000000000e+01  1.129628454612429e-01  6.406308661205978e+01  9.773672659439300e-01  -1.799126364607061e+01  9.773672659439300e-01  -1.799126364607061e+01  1.181168254805418e-01  65.5996200357638    
1.600000000000000e+01  1.162486695340860e-01  6.368163961544719e+01  9.768602273841611e-01  -1.855700263205813e+01  9.768602273841611e-01  -1.855700263205813e+01  1.215517383144395e-01  65.2488655986104    
1.650000000000000e+01  1.195876207608402e-01  6.330602014003689e+01  9.763674358240844e-01  -1.912632238024653e+01  9.763674358240844e-01  -1.912632238024653e+01  1.250387020036292e-01  64.9029875293694    
1.700000000000000e+01  1.229137394671455e-01  6.292097216027128e+01  9.758667164565585e-01  -1.969512150814571e+01  9.758667164565585e-01  -1.969512150814571e+01  1.285110623112780e-01  64.5480767592577    
1.750000000000000e+01  1.262267590262180e-01  6.252729341580207e+01  9.753581606240032e-01  -2.026339698483703e+01  9.753581606240032e-01  -2.026339698483703e+01  1.319685135697742e-01  64.1848987890287    