
!*************************************************************************
!! ASITIC Ver 10.20.99.0.0.0
!!  Data generated by the <2Port> command in <slow> mode.
!! Generated on Thu Apr 11 17:21:13 1974
!# Spiral Data:	Name = <RG3>, User-defined Structure, Origin = <200.00,200.00>
!# Sides =  16, Metal =   1, Exit Metal =  -1
!# W =  8.00, S =  0.10, N =  0.00
!# Theta =  0.00, Phase =   1
!# Technolog File Data <BiCMOS.tek> @ <.>
!# Auto-Cell Mode:  <alpha> = 0.050000, <beta> = 0.800000
!# Metal Layers
!# Name=MSUB      Met=0  Lyr=  1  Mz=50.00  T=0.40  RS=0.04  Col=BLUE    
!# Name=M2        Met=1  Lyr=  2  Mz=47.00  T=0.80  RS=0.05  Col=GREEN   
!# Name=M3        Met=2  Lyr=  2  Mz=45.00  T=2.00  RS=0.02  Col=RED     
!# Substrate Layers
!# Lyr=    0  Eps=  12  Rho=1e+05  DZ=8.5e+02  T=8e+02
!# Lyr=    1  Eps=  12  Rho=1e+03  DZ=  52  T=   2
!# Lyr=    2  Eps=   4  Rho=1e+14  DZ=  50  T=  50
!*************************************************************************
# GHZ S MA S11 mag    S11 phase  S12 mag    S12 phase  S21 mag    S21 phase  S22 mag    S22 phase  
1.000000000000000e+00  3.416437013088373e-02  1.807319426005335e+01  9.611691659327490e-01  -2.507359315398154e+00  9.611691659327490e-01  -2.507359315398154e+00  3.466277238438001e-02  19.4601518569758    
1.500000000000000e+00  3.434972057258582e-02  3.072001281472629e+01  9.575418768867833e-01  -3.676086788539327e+00  9.575418768867833e-01  -3.676086788539327e+00  3.539850623846551e-02  32.2246238879114    
2.000000000000000e+00  3.702003481467758e-02  4.443014362909545e+01  9.533295206659451e-01  -4.774849341397990e+00  9.533295206659451e-01  -4.774849341397990e+00  3.863469469607456e-02  45.4744645234391    
2.500000000000000e+00  4.269353894909943e-02  5.619860789203155e+01  9.489238432588177e-01  -5.807066467827616e+00  9.489238432588177e-01  -5.807066467827616e+00  4.473548819885437e-02  56.5720775820946    
3.000000000000000e+00  5.087343421661041e-02  6.469563465618808e+01  9.446405225799576e-01  -6.788977094944505e+00  9.446405225799576e-01  -6.788977094944505e+00  5.318662240116017e-02  64.548955977786     
3.500000000000000e+00  6.070028962151330e-02  7.015980233805654e+01  9.405532231027905e-01  -7.731179613108369e+00  9.405532231027905e-01  -7.731179613108369e+00  6.318460572405327e-02  69.7151567840344    
4.000000000000000e+00  7.153320284407481e-02  7.351673491443373e+01  9.367498167481569e-01  -8.648424833203563e+00  9.367498167481569e-01  -8.648424833203563e+00  7.413856669855402e-02  72.9289090800874    
4.500000000000000e+00  8.289513097169422e-02  7.543851437211380e+01  9.331554427842178e-01  -9.546675380781750e+00  9.331554427842178e-01  -9.546675380781750e+00  8.560075257918931e-02  74.7981977409965    
5.000000000000000e+00  9.455266212858023e-02  7.646802581631096e+01  9.297855939700658e-01  -1.043478758000152e+01  9.297855939700658e-01  -1.043478758000152e+01  9.735102525174207e-02  75.8231539104983    
5.500000000000000e+00  1.063278924337559e-01  7.690061936276544e+01  9.265679293704749e-01  -1.131571426797068e+01  9.265679293704749e-01  -1.131571426797068e+01  1.092181846473945e-01  76.2764761271487    
6.000000000000000e+00  1.181008318119966e-01  7.692086550983164e+01  9.234242372585002e-01  -1.219066650585371e+01  9.234242372585002e-01  -1.219066650585371e+01  1.210852922712583e-01  76.3304010512613    
6.500000000000000e+00  1.298540476005642e-01  7.669026227105395e+01  9.203787436053302e-01  -1.306392515761602e+01  9.203787436053302e-01  -1.306392515761602e+01  1.329350463664336e-01  76.1391425819555    
7.000000000000000e+00  1.415339358191566e-01  7.627623468521064e+01  9.173695053025964e-01  -1.393525509741188e+01  9.173695053025964e-01  -1.393525509741188e+01  1.447142777585479e-01  75.7667353290004    
7.500000000000001e+00  1.530984144252815e-01  7.572155053152537e+01  9.143359827547490e-01  -1.480388053270278e+01  9.143359827547490e-01  -1.480388053270278e+01  1.563809166908456e-01  75.2541317630096    
8.000000000000000e+00  1.645729005963254e-01  7.508895691031734e+01  9.113218219263238e-01  -1.567240201265404e+01  9.113218219263238e-01  -1.567240201265404e+01  1.679592861834255e-01  74.6627049423668    
8.500000000000000e+00  1.759323618441086e-01  7.439178017044696e+01  9.082793837303249e-01  -1.653977817362988e+01  9.082793837303249e-01  -1.653977817362988e+01  1.794241628770283e-01  74.0054228094024    
9.000000000000000e+00  1.871723515735900e-01  7.364810097456098e+01  9.051954576351265e-01  -1.740594323163061e+01  9.051954576351265e-01  -1.740594323163061e+01  1.907706001247792e-01  73.3001264618576    
9.500000000000000e+00  1.982701624440930e-01  7.286042137683823e+01  9.020236382222394e-01  -1.826952003830463e+01  9.020236382222394e-01  -1.826952003830463e+01  2.019756613334591e-01  72.5493623195502    
1.000000000000000e+01  2.092617027760350e-01  7.205863347829133e+01  8.988258123278861e-01  -1.913263336826386e+01  8.988258123278861e-01  -1.913263336826386e+01  2.130743233707894e-01  71.7827891073879    
1.050000000000000e+01  2.201287365055984e-01  7.123927657633628e+01  8.955622922628612e-01  -1.999401630865622e+01  8.955622922628612e-01  -1.999401630865622e+01  2.240482045143513e-01  70.997132718202     
1.100000000000000e+01  2.308707318993877e-01  7.040736801632693e+01  8.922285855759362e-01  -2.085346043767155e+01  8.922285855759362e-01  -2.085346043767155e+01  2.348964142044223e-01  70.1974951128325    
1.150000000000000e+01  2.414695769756268e-01  6.955792745735235e+01  8.887843319757894e-01  -2.170965442661590e+01  8.887843319757894e-01  -2.170965442661590e+01  2.456006924353893e-01  69.379093522443     
1.200000000000000e+01  2.519580673695093e-01  6.871121076565881e+01  8.852996260245257e-01  -2.256443668815356e+01  8.852996260245257e-01  -2.256443668815356e+01  2.561931770394928e-01  68.5620719268497    
1.250000000000000e+01  2.623203260878750e-01  6.786072123927887e+01  8.817378990056619e-01  -2.341664547582797e+01  8.817378990056619e-01  -2.341664547582797e+01  2.666579142900958e-01  67.7401319944219    
1.300000000000000e+01  2.725559322935717e-01  6.700813648066669e+01  8.780984511909178e-01  -2.426608069949260e+01  8.780984511909178e-01  -2.426608069949260e+01  2.769942440655318e-01  66.9150393826844    
1.350000000000000e+01  2.826497519334912e-01  6.614718787812006e+01  8.743435150925948e-01  -2.511163153919153e+01  8.743435150925948e-01  -2.511163153919153e+01  2.871869342490402e-01  66.0806985041767    
1.400000000000000e+01  2.926286576442571e-01  6.529402917569939e+01  8.705472218405119e-01  -2.595481949104600e+01  8.705472218405119e-01  -2.595481949104600e+01  2.972624087502707e-01  65.2531549631781    
1.450000000000000e+01  3.024792265594179e-01  6.444194273909486e+01  8.666742630669360e-01  -2.679466992239295e+01  8.666742630669360e-01  -2.679466992239295e+01  3.072071976582775e-01  64.425851903944     
1.500000000000000e+01  3.122008241415726e-01  6.359158852967538e+01  8.627257652179858e-01  -2.763101152124482e+01  8.627257652179858e-01  -2.763101152124482e+01  3.170205034512469e-01  63.5995115053202    
1.550000000000000e+01  3.217927897566280e-01  6.274350276539901e+01  8.587031531845811e-01  -2.846368043720605e+01  8.587031531845811e-01  -2.846368043720605e+01  3.267015170020904e-01  62.7747263136992    
1.600000000000000e+01  3.312414577493974e-01  6.189139638145308e+01  8.545689383413853e-01  -2.929169024927881e+01  8.545689383413853e-01  -2.929169024927881e+01  3.362364915506984e-01  61.9453393986101    
1.650000000000000e+01  3.405705255909695e-01  6.104908316685756e+01  8.504021694946626e-01  -3.011643865892200e+01  8.504021694946626e-01  -3.011643865892200e+01  3.456488777056301e-01  61.1250476659353    
1.700000000000000e+01  3.497679288240816e-01  6.021015488728835e+01  8.461669972202707e-01  -3.093706281897887e+01  8.461669972202707e-01  -3.093706281897887e+01  3.549265673529227e-01  60.3075660398139    
1.750000000000000e+01  3.588330508495526e-01  5.937487050521700e+01  8.418656725342588e-01  -3.175342824183416e+01  8.418656725342588e-01  -3.175342824183416e+01  3.640688416429501e-01  59.4931908531211    