
!*************************************************************************
!! ASITIC Ver 10.20.99.0.0.0
!!  Data generated by the <2Port> command in <slow> mode.
!! Generated on Thu Apr 11 17:21:13 1974
!# Spiral Data:	Name = <RG2>, User-defined Structure, Origin = <200.00,200.00>
!# Sides =  16, Metal =   2, Exit Metal =  -1
!# W = 10.00, S =  0.07, N =  0.00
!# Theta =  0.00, Phase =   1
!# Technolog File Data <BiCMOS.tek> @ <.>
!# Auto-Cell Mode:  <alpha> = 0.050000, <beta> = 0.800000
!# Metal Layers
!# Name=MSUB      Met=0  Lyr=  1  Mz=50.00  T=0.40  RS=0.04  Col=BLUE    
!# Name=M2        Met=1  Lyr=  2  Mz=47.00  T=0.80  RS=0.05  Col=GREEN   
!# Name=M3        Met=2  Lyr=  2  Mz=45.00  T=2.00  RS=0.02  Col=RED     
!# Substrate Layers
!# Lyr=    0  Eps=  12  Rho=1e+05  DZ=8.5e+02  T=8e+02
!# Lyr=    1  Eps=  12  Rho=1e+03  DZ=  52  T=   2
!# Lyr=    2  Eps=   4  Rho=1e+14  DZ=  50  T=  50
!*************************************************************************
# GHZ S MA S11 mag    S11 phase  S12 mag    S12 phase  S21 mag    S21 phase  S22 mag    S22 phase  
1.000000000000000e+00  1.142729988486515e-02  4.585979211209047e+01  9.893419493833969e-01  -1.684165710267023e+00  9.893419493833969e-01  -1.684165710267023e+00  1.215066985373904e-02  48.3476691268999    
1.500000000000000e+00  1.443931698502189e-02  6.249428106184700e+01  9.875792071795034e-01  -2.496378463845281e+00  9.875792071795034e-01  -2.496378463845281e+00  1.569048213351011e-02  63.8291614346247    
2.000000000000000e+00  1.865435970743038e-02  7.400790080017163e+01  9.853507546465582e-01  -3.279957854533440e+00  9.853507546465582e-01  -3.279957854533440e+00  2.033545691678626e-02  74.1389623380133    
2.500000000000000e+00  2.388438292985628e-02  8.149141500812384e+01  9.828505246730916e-01  -4.033727652194852e+00  9.828505246730916e-01  -4.033727652194852e+00  2.589175874948939e-02  80.8068660099004    
3.000000000000000e+00  2.986926352263019e-02  8.606010163698474e+01  9.801844401827604e-01  -4.756615822511510e+00  9.801844401827604e-01  -4.756615822511510e+00  3.212860834713378e-02  84.9215423255014    
3.500000000000000e+00  3.644960325965995e-02  8.879116515347070e+01  9.775140972839204e-01  -5.454576266124522e+00  9.775140972839204e-01  -5.454576266124522e+00  3.891313859603797e-02  87.4301483533052    
4.000000000000000e+00  4.466619806487869e-02  9.004471869678333e+01  9.748389656223790e-01  -6.203307124001540e+00  9.748389656223790e-01  -6.203307124001540e+00  4.731151754527465e-02  88.6545141147723    
4.500000000000000e+00  5.208702607211847e-02  9.071501772128501e+01  9.723088423357531e-01  -6.870860082917139e+00  9.723088423357531e-01  -6.870860082917139e+00  5.489346986657274e-02  89.3178575855895    
5.000000000000000e+00  5.964783813742962e-02  9.084868114686007e+01  9.698613306963206e-01  -7.522088924147541e+00  9.698613306963206e-01  -7.522088924147541e+00  6.260657912205396e-02  89.4858099928269    
5.500000000000000e+00  6.737226953850207e-02  9.066315664185719e+01  9.675540517610940e-01  -8.165418125927088e+00  9.675540517610940e-01  -8.165418125927088e+00  7.047793741770961e-02  89.3569023386579    
6.000000000000000e+00  7.511435121309616e-02  9.023425416895032e+01  9.653250279461919e-01  -8.798280894926870e+00  9.653250279461919e-01  -8.798280894926870e+00  7.836524315874360e-02  88.9954096800797    
6.500000000000000e+00  8.293561764568874e-02  8.967118907552002e+01  9.632174459486130e-01  -9.428085830569694e+00  9.632174459486130e-01  -9.428085830569694e+00  8.633073780122542e-02  88.504694826512     
7.000000000000000e+00  9.076481659695292e-02  8.900851465033850e+01  9.611907094150155e-01  -1.005389696512342e+01  9.611907094150155e-01  -1.005389696512342e+01  9.430451634666194e-02  87.9154004064422    
7.500000000000001e+00  9.852217563056252e-02  8.826834264627833e+01  9.591993416993012e-01  -1.067341988272077e+01  9.591993416993012e-01  -1.067341988272077e+01  1.022076174545908e-01  87.247274682269     
8.000000000000000e+00  1.063131116407382e-01  8.749906569548035e+01  9.572875009198478e-01  -1.129406183284049e+01  9.572875009198478e-01  -1.129406183284049e+01  1.101450051113989e-01  86.5482340252655    
8.500000000000000e+00  1.140730913717898e-01  8.670445228200020e+01  9.554141683683498e-01  -1.191331117153304e+01  9.554141683683498e-01  -1.191331117153304e+01  1.180525287879528e-01  85.8211724791887    
9.000000000000000e+00  1.217297461072301e-01  8.588525079883225e+01  9.535364967823684e-01  -1.252782346355406e+01  9.535364967823684e-01  -1.252782346355406e+01  1.258580102657839e-01  85.0663846192775    
9.500000000000000e+00  1.294069574087434e-01  8.506966921527420e+01  9.517044399582779e-01  -1.314509608122247e+01  9.517044399582779e-01  -1.314509608122247e+01  1.336847299144738e-01  84.3125119332452    
1.000000000000000e+01  1.370408420511220e-01  8.425263886480589e+01  9.498799683927179e-01  -1.376186076655857e+01  9.498799683927179e-01  -1.376186076655857e+01  1.414689169621348e-01  83.5543193055191    
1.050000000000000e+01  1.450939748958794e-01  8.338318880952889e+01  9.479796789286715e-01  -1.440708943854188e+01  9.479796789286715e-01  -1.440708943854188e+01  1.496762059021196e-01  82.7451898671927    
1.100000000000000e+01  1.526587419485711e-01  8.257108460696757e+01  9.461381781546669e-01  -1.502456360567350e+01  9.461381781546669e-01  -1.502456360567350e+01  1.573925212206620e-01  81.9864588777506    
1.150000000000000e+01  1.601764895378520e-01  8.176492305588988e+01  9.442837148596274e-01  -1.564170558972349e+01  9.442837148596274e-01  -1.564170558972349e+01  1.650621269781918e-01  81.2312800669529    
1.200000000000000e+01  1.675511223493114e-01  8.095944466125898e+01  9.423819501167732e-01  -1.625287126735703e+01  9.423819501167732e-01  -1.625287126735703e+01  1.725887432595032e-01  80.4743320457497    
1.250000000000000e+01  1.749683515893339e-01  8.016776711884324e+01  9.404871455490906e-01  -1.686895561968882e+01  9.404871455490906e-01  -1.686895561968882e+01  1.801579590499857e-01  79.7293816294082    
1.300000000000000e+01  1.823376096784465e-01  7.938389487812083e+01  9.385673518716388e-01  -1.748460948297951e+01  9.385673518716388e-01  -1.748460948297951e+01  1.876790594973980e-01  78.990341467699     
1.350000000000000e+01  1.896587594131441e-01  7.860792622776846e+01  9.366197553713336e-01  -1.809977596026700e+01  9.366197553713336e-01  -1.809977596026700e+01  1.951517709862635e-01  78.2574566447501    
1.400000000000000e+01  1.968282934252233e-01  7.783480766635030e+01  9.346136870684927e-01  -1.870821341505540e+01  9.346136870684927e-01  -1.870821341505540e+01  2.024723322657799e-01  77.5256469611215    
1.450000000000000e+01  2.040480006702354e-01  7.707455795002110e+01  9.326033799319796e-01  -1.932189799417697e+01  9.326033799319796e-01  -1.932189799417697e+01  2.098426352396189e-01  76.8053913954959    
1.500000000000000e+01  2.112191549564999e-01  7.632187959428322e+01  9.305595080533938e-01  -1.993488954107945e+01  9.305595080533938e-01  -1.993488954107945e+01  2.171637395530549e-01  76.0913325167412    
1.550000000000000e+01  2.183415779358540e-01  7.557655224269416e+01  9.284808045126342e-01  -2.054711682921279e+01  9.284808045126342e-01  -2.054711682921279e+01  2.244353593887614e-01  75.3833538995882    
1.600000000000000e+01  2.253029095177507e-01  7.483489265365532e+01  9.263417586946238e-01  -2.115169369031752e+01  9.263417586946238e-01  -2.115169369031752e+01  2.315448017070191e-01  74.6777406170914    
1.650000000000000e+01  2.323227850813757e-01  7.410366922185999e+01  9.241905504556515e-01  -2.176188517443355e+01  9.241905504556515e-01  -2.176188517443355e+01  2.387120457304194e-01  73.9816091293115    
1.700000000000000e+01  2.392931962026812e-01  7.337906479634501e+01  9.220022568472328e-01  -2.237109725131566e+01  9.220022568472328e-01  -2.237109725131566e+01  2.458287853720394e-01  73.2910849106143    
1.750000000000000e+01  2.462138454701727e-01  7.266083240784523e+01  9.197764925809460e-01  -2.297926138604036e+01  9.197764925809460e-01  -2.297926138604036e+01  2.528946383480591e-01  72.6059924449788    