
!*************************************************************************
!! ASITIC Ver 10.20.99.0.0.0
!!  Data generated by the <2Port> command in <slow> mode.
!! Generated on Thu Apr 11 17:21:13 1974
!# Spiral Data:	Name = <SP3>, Polygon Spiral Inductor, Radius = 100.00, Origin = <200.00,200.00>
!# Sides =   8, Metal =   2, Exit Metal =  -1
!# W =  8.00, S =  3.00, N =  3.00
!# Theta =  0.00, Phase =   1
!# Technolog File Data <BiCMOS.tek> @ <.>
!# Auto-Cell Mode:  <alpha> = 0.050000, <beta> = 0.800000
!# Metal Layers
!# Name=MSUB      Met=0  Lyr=  1  Mz=50.00  T=0.40  RS=0.04  Col=BLUE    
!# Name=M2        Met=1  Lyr=  2  Mz=47.00  T=0.80  RS=0.05  Col=GREEN   
!# Name=M3        Met=2  Lyr=  2  Mz=45.00  T=2.00  RS=0.02  Col=RED     
!# Substrate Layers
!# Lyr=    0  Eps=  12  Rho=1e+05  DZ=8.5e+02  T=8e+02
!# Lyr=    1  Eps=  12  Rho=1e+03  DZ=  52  T=   2
!# Lyr=    2  Eps=   4  Rho=1e+14  DZ=  50  T=  50
!*************************************************************************
# GHZ S MA S11 mag    S11 phase  S12 mag    S12 phase  S21 mag    S21 phase  S22 mag    S22 phase  
1.000000000000000e+00  1.044861357520177e-01  6.552360720714030e+01  9.546400708241942e-01  -8.048189330516319e+00  9.546400708241942e-01  -8.048189330516319e+00  1.057896122124562e-01  65.7513376743544    
1.500000000000000e+00  1.526563457748045e-01  6.875967017665660e+01  9.422898340620868e-01  -1.188977513812188e+01  9.422898340620868e-01  -1.188977513812188e+01  1.546029671380336e-01  68.9017122966696    
2.000000000000000e+00  2.016812005457838e-01  6.883369721146342e+01  9.269605500487184e-01  -1.557521092390463e+01  9.269605500487184e-01  -1.557521092390463e+01  2.041905260759329e-01  68.938814662658     
2.500000000000000e+00  2.502150812215499e-01  6.748504726109974e+01  9.093155692707582e-01  -1.910496999425650e+01  9.093155692707582e-01  -1.910496999425650e+01  2.532240683719318e-01  67.5816416467128    
3.000000000000000e+00  2.974883283394724e-01  6.549022801910192e+01  8.901846861113983e-01  -2.249839148881767e+01  8.901846861113983e-01  -2.249839148881767e+01  3.009470503156926e-01  65.5926041907679    
3.500000000000000e+00  3.428035592066079e-01  6.313915760199398e+01  8.697369850996820e-01  -2.575806648654460e+01  8.697369850996820e-01  -2.575806648654460e+01  3.466713050452979e-01  63.2563769101594    
4.000000000000000e+00  3.899873469559996e-01  6.048431912133821e+01  8.472795657849680e-01  -2.917294424433803e+01  8.472795657849680e-01  -2.917294424433803e+01  3.942347832473023e-01  60.6198258920653    
4.500000000000000e+00  4.309448652145674e-01  5.790312060941040e+01  8.249246351276228e-01  -3.222599125584687e+01  8.249246351276228e-01  -3.222599125584687e+01  4.355311371529925e-01  58.0606898432467    
5.000000000000000e+00  4.695367731687664e-01  5.533268428978711e+01  8.020662920222719e-01  -3.518007762222695e+01  8.020662920222719e-01  -3.518007762222695e+01  4.744299559853688e-01  55.5135150895156    
5.500000000000000e+00  5.055956160895817e-01  5.279913718222708e+01  7.788252284403182e-01  -3.802759878436599e+01  7.788252284403182e-01  -3.802759878436599e+01  5.107648080532008e-01  53.0041531323783    
6.000000000000000e+00  5.389754186010773e-01  5.031997592981671e+01  7.553310672748299e-01  -4.075714445476369e+01  7.553310672748299e-01  -4.075714445476369e+01  5.443903428207777e-01  50.5500951876747    
6.500000000000000e+00  5.701129352365432e-01  4.791564799226965e+01  7.318099872427642e-01  -4.339799890899835e+01  7.318099872427642e-01  -4.339799890899835e+01  5.757450905024097e-01  48.1707906143228    
7.000000000000000e+00  5.989422494969397e-01  4.558861809863954e+01  7.083543993116123e-01  -4.594096108196445e+01  7.083543993116123e-01  -4.594096108196445e+01  6.047638336695880e-01  45.8689354964371    
7.500000000000001e+00  6.253966378005837e-01  4.334214620592034e+01  6.850738806755886e-01  -4.837404113057788e+01  6.850738806755886e-01  -4.837404113057788e+01  6.313810061763159e-01  43.6480661007369    
8.000000000000000e+00  6.499689100546885e-01  4.117761698543411e+01  6.620780070597923e-01  -5.073077691082687e+01  6.620780070597923e-01  -5.073077691082687e+01  6.560904804885006e-01  41.5088263436744    
8.500000000000000e+00  6.726151651881058e-01  3.909363027624808e+01  6.394348994855994e-01  -5.300106859917351e+01  6.394348994855994e-01  -5.300106859917351e+01  6.788496131436941e-01  39.450128960133     
9.000000000000000e+00  6.934678670175072e-01  3.708832432599913e+01  6.172065296711952e-01  -5.518916046072742e+01  6.172065296711952e-01  -5.518916046072742e+01  6.997920728484545e-01  37.4701008077345    
9.500000000000000e+00  7.124870674430261e-01  3.516124194471379e+01  5.954603851426449e-01  -5.728301144480101e+01  5.954603851426449e-01  -5.728301144480101e+01  7.188788997637622e-01  35.568609674135     
1.000000000000000e+01  7.301332722424090e-01  3.330562318652014e+01  5.741976726006912e-01  -5.931874946165910e+01  5.741976726006912e-01  -5.931874946165910e+01  7.365721568144242e-01  33.7382569068786    
1.050000000000000e+01  7.471189200497201e-01  3.146586167024415e+01  5.527872776250932e-01  -6.136732877529924e+01  5.527872776250932e-01  -6.136732877529924e+01  7.535814745247658e-01  31.9227365787512    
1.100000000000000e+01  7.620169032022130e-01  2.974574417621136e+01  5.325609651316233e-01  -6.327040082589388e+01  5.325609651316233e-01  -6.327040082589388e+01  7.684878350071392e-01  30.2278237006927    
1.150000000000000e+01  7.755272319196082e-01  2.809439931442992e+01  5.129483340680793e-01  -6.509176936721845e+01  5.129483340680793e-01  -6.509176936721845e+01  7.819887786200286e-01  28.6020426533757    
1.200000000000000e+01  7.881128535874552e-01  2.649768704532823e+01  4.938253266332819e-01  -6.687637545860431e+01  4.938253266332819e-01  -6.687637545860431e+01  7.945486912555090e-01  27.0305676125288    
1.250000000000000e+01  7.996814839928045e-01  2.495751465410112e+01  4.752490593652309e-01  -6.860817771734405e+01  4.752490593652309e-01  -6.860817771734405e+01  8.060759574531993e-01  25.5156521941027    
1.300000000000000e+01  8.103160662658054e-01  2.347069580315189e+01  4.572124204201869e-01  -7.029098567816443e+01  4.572124204201869e-01  -7.029098567816443e+01  8.166543683358831e-01  24.0541172523117    
1.350000000000000e+01  8.199403438465257e-01  2.203989042746991e+01  4.397763394521031e-01  -7.190780203924606e+01  4.397763394521031e-01  -7.190780203924606e+01  8.262082155290272e-01  22.6489596808057    
1.400000000000000e+01  8.289301843920031e-01  2.065095295414918e+01  4.227892617578361e-01  -7.350274318226313e+01  4.227892617578361e-01  -7.350274318226313e+01  8.351145903689751e-01  21.285393369826     
1.450000000000000e+01  8.371959124898307e-01  1.930663684136345e+01  4.063049964157276e-01  -7.505929305188840e+01  4.063049964157276e-01  -7.505929305188840e+01  8.432842556057328e-01  19.9664948047703    
1.500000000000000e+01  8.447957946479027e-01  1.800433597552695e+01  3.903083043743286e-01  -7.658074272368069e+01  3.903083043743286e-01  -7.658074272368069e+01  8.507761122548070e-01  18.6896633903167    
1.550000000000000e+01  8.517830061182915e-01  1.674159399438782e+01  3.747831879194914e-01  -7.807028097661737e+01  3.747831879194914e-01  -7.807028097661737e+01  8.576439241046443e-01  17.4524478084735    