
!*************************************************************************
!! ASITIC Ver 10.20.99.0.0.0
!!  Data generated by the <2Port> command in <slow> mode.
!! Generated on Thu Apr 11 17:21:13 1974
!# Spiral Data:	Name = <SP1>, Polygon Spiral Inductor, Radius = 60.00, Origin = <200.00,200.00>
!# Sides =   8, Metal =   2, Exit Metal =  -1
!# W =  6.00, S =  2.00, N =  2.00
!# Theta =  0.00, Phase =   1
!# Technolog File Data <BiCMOS.tek> @ <.>
!# Auto-Cell Mode:  <alpha> = 0.050000, <beta> = 0.800000
!# Metal Layers
!# Name=MSUB      Met=0  Lyr=  1  Mz=50.00  T=0.40  RS=0.04  Col=BLUE    
!# Name=M2        Met=1  Lyr=  2  Mz=47.00  T=0.80  RS=0.05  Col=GREEN   
!# Name=M3        Met=2  Lyr=  2  Mz=45.00  T=2.00  RS=0.02  Col=RED     
!# Substrate Layers
!# Lyr=    0  Eps=  12  Rho=1e+05  DZ=8.5e+02  T=8e+02
!# Lyr=    1  Eps=  12  Rho=1e+03  DZ=  52  T=   2
!# Lyr=    2  Eps=   4  Rho=1e+14  DZ=  50  T=  50
!*************************************************************************
# GHZ S MA S11 mag    S11 phase  S12 mag    S12 phase  S21 mag    S21 phase  S22 mag    S22 phase  
1.000000000000000e+00  3.364905669375440e-02  5.425802625766839e+01  9.793616415331543e-01  -2.550826074311204e+00  9.793616415331543e-01  -2.550826074311204e+00  3.460547657396028e-02  55.2319880715745    
1.500000000000000e+00  4.582976231877749e-02  6.367049097816403e+01  9.775898731216048e-01  -3.806151457422145e+00  9.775898731216048e-01  -3.806151457422145e+00  4.738642616627146e-02  64.3672109740312    
2.000000000000000e+00  5.900754661835823e-02  6.883906093496034e+01  9.752981873476515e-01  -5.045133461086557e+00  9.752981873476515e-01  -5.045133461086557e+00  6.112282075042278e-02  69.3103734662342    
2.500000000000000e+00  7.272915427483270e-02  7.174441577346516e+01  9.724447366866474e-01  -6.259555584882532e+00  9.724447366866474e-01  -6.259555584882532e+00  7.535895615606396e-02  72.0583654009492    
3.000000000000000e+00  8.687181075840637e-02  7.349087058505101e+01  9.692843324260515e-01  -7.454645163256696e+00  9.692843324260515e-01  -7.454645163256696e+00  8.997757445829430e-02  73.6926716669008    
3.500000000000000e+00  1.013078891475072e-01  7.446647924788844e+01  9.658323125045991e-01  -8.628664802870837e+00  9.658323125045991e-01  -8.628664802870837e+00  1.048543402546834e-01  74.5928042392219    
4.000000000000000e+00  1.184304707889282e-01  7.489676559504595e+01  9.618544238146889e-01  -9.929340257017810e+00  9.618544238146889e-01  -9.929340257017810e+00  1.223918858592031e-01  74.9767834464432    
4.500000000000000e+00  1.335154831276569e-01  7.496107335221672e+01  9.579379181044592e-01  -1.108410694863653e+01  9.579379181044592e-01  -1.108410694863653e+01  1.378621211295079e-01  75.0153846499593    
5.000000000000000e+00  1.486847080943584e-01  7.476887272615099e+01  9.538648152065332e-01  -1.222345380501792e+01  9.538648152065332e-01  -1.222345380501792e+01  1.533948688722738e-01  74.8126843802842    
5.500000000000000e+00  1.637264498580795e-01  7.435436847965478e+01  9.495695075969799e-01  -1.333938043411420e+01  9.495695075969799e-01  -1.333938043411420e+01  1.687822358476563e-01  74.4005808860422    
6.000000000000000e+00  1.788927770873547e-01  7.383042135400835e+01  9.452222551714825e-01  -1.445172757669365e+01  9.452222551714825e-01  -1.445172757669365e+01  1.842793544210017e-01  73.8863130713375    
6.500000000000000e+00  1.940089337010582e-01  7.319918026799749e+01  9.407534032176467e-01  -1.555332141803604e+01  9.407534032176467e-01  -1.555332141803604e+01  1.997140074789265e-01  73.271279140179     
7.000000000000000e+00  2.090438017305663e-01  7.248648431764171e+01  9.361650143871870e-01  -1.664520549836635e+01  9.361650143871870e-01  -1.664520549836635e+01  2.150570752253244e-01  72.5796726440391    
7.500000000000001e+00  2.239716949591764e-01  7.171181383078851e+01  9.314573363101649e-01  -1.772818283169786e+01  9.314573363101649e-01  -1.772818283169786e+01  2.302844023942245e-01  71.8297238551376    
8.000000000000000e+00  2.385655370654268e-01  7.087012157649467e+01  9.265507902627292e-01  -1.879018305517910e+01  9.265507902627292e-01  -1.879018305517910e+01  2.451706781132232e-01  71.0163661081258    
8.500000000000000e+00  2.532008909349720e-01  7.001307260685225e+01  9.215992752443886e-01  -1.985574790799485e+01  9.215992752443886e-01  -1.985574790799485e+01  2.600910549134644e-01  70.1887004512712    
9.000000000000000e+00  2.676763703654690e-01  6.912918523867394e+01  9.165273293244287e-01  -2.091369484921252e+01  9.165273293244287e-01  -2.091369484921252e+01  2.748453591667589e-01  69.3356245458248    
9.500000000000000e+00  2.819803609686120e-01  6.822534942623855e+01  9.113350080693908e-01  -2.196421666610875e+01  9.113350080693908e-01  -2.196421666610875e+01  2.894223872433372e-01  68.4636181295181    
1.000000000000000e+01  2.961032926363893e-01  6.730697967024112e+01  9.060229608947422e-01  -2.300742447446017e+01  9.060229608947422e-01  -2.300742447446017e+01  3.038128381714423e-01  67.5777857696064    
1.050000000000000e+01  3.108386553074637e-01  6.632180344746509e+01  9.002860545775377e-01  -2.409406553034863e+01  9.002860545775377e-01  -2.409406553034863e+01  3.188107741769436e-01  66.6262344509578    
1.100000000000000e+01  3.246042022551099e-01  6.538332955840474e+01  8.947097417109537e-01  -2.512481647945188e+01  8.947097417109537e-01  -2.512481647945188e+01  3.328330615740721e-01  65.721047068354     
1.150000000000000e+01  3.381671103269134e-01  6.444081495338243e+01  8.890183985227130e-01  -2.614820102831041e+01  8.890183985227130e-01  -2.614820102831041e+01  3.466474388445668e-01  64.8119821541193    
1.200000000000000e+01  3.515228670173384e-01  6.349647167438707e+01  8.832151487984558e-01  -2.716416210632450e+01  8.832151487984558e-01  -2.716416210632450e+01  3.602493784887027e-01  63.9011525218105    
1.250000000000000e+01  3.646677758506310e-01  6.255209572957232e+01  8.773035817042047e-01  -2.817262792038803e+01  8.773035817042047e-01  -2.817262792038803e+01  3.736351411886625e-01  62.9902801505622    
1.300000000000000e+01  3.775988441206778e-01  6.160915339607014e+01  8.712876864106776e-01  -2.917351807250152e+01  8.712876864106776e-01  -2.917351807250152e+01  3.868016731219105e-01  62.0807764926952    
1.350000000000000e+01  3.899941123366791e-01  6.066472244658732e+01  8.651426558401853e-01  -3.014576826163565e+01  8.651426558401853e-01  -3.014576826163565e+01  3.994267661292715e-01  61.1703665673241    
1.400000000000000e+01  4.024776641402047e-01  5.972869531207688e+01  8.589346824212426e-01  -3.113022344134668e+01  8.589346824212426e-01  -3.113022344134668e+01  4.121347396394276e-01  60.2675589565645    
1.450000000000000e+01  4.147420526521630e-01  5.879713045392661e+01  8.526365156152149e-01  -3.210684932137883e+01  8.526365156152149e-01  -3.210684932137883e+01  4.246179322215231e-01  59.3690595652346    
1.500000000000000e+01  4.267863956937032e-01  5.787070710032811e+01  8.462531302270185e-01  -3.307556983415510e+01  8.462531302270185e-01  -3.307556983415510e+01  4.368753844292005e-01  58.4755336426326    
1.550000000000000e+01  4.386102096444854e-01  5.694999002065410e+01  8.397896212274036e-01  -3.403631494104702e+01  8.397896212274036e-01  -3.403631494104702e+01  4.489065389521757e-01  57.5875369498143    
1.600000000000000e+01  4.502133757144871e-01  5.603544938512935e+01  8.332511623129198e-01  -3.498902172441606e+01  8.332511623129198e-01  -3.498902172441606e+01  4.607112084392687e-01  56.7055344255144    
1.650000000000000e+01  4.612606271723002e-01  5.512877418705528e+01  8.266508037106002e-01  -3.591052172077197e+01  8.266508037106002e-01  -3.591052172077197e+01  4.719534147706101e-01  55.8318051429698    
1.700000000000000e+01  4.724140822871703e-01  5.422826292527409e+01  8.199827376051212e-01  -3.684614952209791e+01  8.199827376051212e-01  -3.684614952209791e+01  4.832964973536683e-01  54.9634801296605    
1.750000000000000e+01  4.833487403264123e-01  5.333491680373115e+01  8.132555905268076e-01  -3.777360351764447e+01  8.132555905268076e-01  -3.777360351764447e+01  4.944147836294299e-01  54.1021369438489    