
!*************************************************************************
!! ASITIC Ver 10.20.99.0.0.0
!!  Data generated by the <2Port> command in <slow> mode.
!! Generated on Thu Apr 11 17:21:13 1974
!# Spiral Data:	Name = <SP6>, Polygon Spiral Inductor, Radius = 120.00, Origin = <200.00,200.00>
!# Sides =  16, Metal =   2, Exit Metal =  -1
!# W =  8.00, S =  3.00, N =  2.00
!# Theta =  0.00, Phase =   1
!# Technolog File Data <BiCMOS.tek> @ <.>
!# Auto-Cell Mode:  <alpha> = 0.050000, <beta> = 0.800000
!# Metal Layers
!# Name=MSUB      Met=0  Lyr=  1  Mz=50.00  T=0.40  RS=0.04  Col=BLUE    
!# Name=M2        Met=1  Lyr=  2  Mz=47.00  T=0.80  RS=0.05  Col=GREEN   
!# Name=M3        Met=2  Lyr=  2  Mz=45.00  T=2.00  RS=0.02  Col=RED     
!# Substrate Layers
!# Lyr=    0  Eps=  12  Rho=1e+05  DZ=8.5e+02  T=8e+02
!# Lyr=    1  Eps=  12  Rho=1e+03  DZ=  52  T=   2
!# Lyr=    2  Eps=   4  Rho=1e+14  DZ=  50  T=  50
!*************************************************************************
# GHZ S MA S11 mag    S11 phase  S12 mag    S12 phase  S21 mag    S21 phase  S22 mag    S22 phase  
1.000000000000000e+00  8.269008875584000e-02  6.472335731277362e+01  9.592338707276175e-01  -6.878461660028827e+00  9.592338707276175e-01  -6.878461660028827e+00  8.335739157714193e-02  64.8527744149411    
1.500000000000000e+00  1.208993517391524e-01  6.993554191360680e+01  9.491928646919253e-01  -1.014302829039624e+01  9.491928646919253e-01  -1.014302829039624e+01  1.218870569169881e-01  69.9832170632542    
2.000000000000000e+00  1.611997372356144e-01  7.129372605623041e+01  9.370589594281153e-01  -1.327493707023701e+01  9.370589594281153e-01  -1.327493707023701e+01  1.624513970235990e-01  71.30105001296      
2.500000000000000e+00  2.021526053106420e-01  7.082302918876303e+01  9.233847045637216e-01  -1.628356975935176e+01  9.233847045637216e-01  -1.628356975935176e+01  2.036289260594960e-01  70.8150584844193    
3.000000000000000e+00  2.429704129039629e-01  6.946518758390009e+01  9.087501969997732e-01  -1.919781762930780e+01  9.087501969997732e-01  -1.919781762930780e+01  2.446442580041818e-01  69.45451365524      
3.500000000000000e+00  2.828891091913888e-01  6.759672017276597e+01  8.931515857936206e-01  -2.202326890315143e+01  8.931515857936206e-01  -2.202326890315143e+01  2.847416975909725e-01  67.5907653170779    
4.000000000000000e+00  3.254835422487123e-01  6.529849340053748e+01  8.758033926025452e-01  -2.502882009916138e+01  8.758033926025452e-01  -2.502882009916138e+01  3.275014046968663e-01  65.3007619599689    
4.500000000000000e+00  3.630385860457009e-01  6.302089591142136e+01  8.584950708477868e-01  -2.773773736646068e+01  8.584950708477868e-01  -2.773773736646068e+01  3.652074826499601e-01  63.0333305572719    
5.000000000000000e+00  3.991396811964656e-01  6.069531002196924e+01  8.405760531232481e-01  -3.039185149886418e+01  8.405760531232481e-01  -3.039185149886418e+01  4.014473506005411e-01  60.718627874829     
5.500000000000000e+00  4.335554589680229e-01  5.835674449902325e+01  8.220707797097001e-01  -3.298250624669409e+01  8.220707797097001e-01  -3.298250624669409e+01  4.359904885874703e-01  58.3913825761964    
6.000000000000000e+00  4.660627100137431e-01  5.602912191657971e+01  8.030329205285841e-01  -3.549690763978218e+01  8.030329205285841e-01  -3.549690763978218e+01  4.686141501624040e-01  56.0754445538101    
6.500000000000000e+00  4.970083082858204e-01  5.373769074720322e+01  7.836243851458500e-01  -3.795985561551183e+01  7.836243851458500e-01  -3.795985561551183e+01  4.996645899995123e-01  53.7954653994171    
7.000000000000000e+00  5.262416309560529e-01  5.148896058541695e+01  7.639013970328951e-01  -4.036000741556165e+01  7.639013970328951e-01  -4.036000741556165e+01  5.289914958875188e-01  51.558078141695     
7.500000000000001e+00  5.536094809505520e-01  4.928989263908711e+01  7.439498506563036e-01  -4.268344071170292e+01  7.439498506563036e-01  -4.268344071170292e+01  5.564419070830714e-01  49.3703965474477    
8.000000000000000e+00  5.795210643352684e-01  4.714487389018871e+01  7.238685623748913e-01  -4.495835195595049e+01  7.238685623748913e-01  -4.495835195595049e+01  5.824246647303040e-01  47.2364059243308    
8.500000000000000e+00  6.038565307850675e-01  4.505568416847451e+01  7.037270847528990e-01  -4.717263694129909e+01  7.037270847528990e-01  -4.717263694129909e+01  6.068202463190646e-01  45.1580657928131    
9.000000000000000e+00  6.266780199024868e-01  4.302330248248905e+01  6.835967948339303e-01  -4.932758182644440e+01  6.835967948339303e-01  -4.932758182644440e+01  6.296909539945372e-01  43.1363574038424    
9.500000000000000e+00  6.478757217292612e-01  4.105011420378958e+01  6.635603005485444e-01  -5.140938113212827e+01  6.635603005485444e-01  -5.140938113212827e+01  6.509273169433794e-01  41.1738657244141    
1.000000000000000e+01  6.678667697434399e-01  3.913143808298391e+01  6.436411256253284e-01  -5.344948643348494e+01  6.436411256253284e-01  -5.344948643348494e+01  6.709464390217281e-01  39.2655428507938    
1.050000000000000e+01  6.873535804618508e-01  3.720817694749606e+01  6.232178440947562e-01  -5.551237898202994e+01  6.232178440947562e-01  -5.551237898202994e+01  6.904481782266331e-01  37.351938239032     
1.100000000000000e+01  7.047868115593721e-01  3.539762754253154e+01  6.036659574573640e-01  -5.744768022472180e+01  6.036659574573640e-01  -5.744768022472180e+01  7.078890832854630e-01  35.5514117611744    
1.150000000000000e+01  7.208544853735283e-01  3.364570325300958e+01  5.844366125573022e-01  -5.931314320386880e+01  5.844366125573022e-01  -5.931314320386880e+01  7.239550534512506e-01  33.809585874388     
1.200000000000000e+01  7.360173605972072e-01  3.193894256215001e+01  5.654311217500548e-01  -6.114962228656847e+01  5.654311217500548e-01  -6.114962228656847e+01  7.391067443890670e-01  32.1126014318856    
1.250000000000000e+01  7.501469293516327e-01  3.028117798673695e+01  5.467321625072530e-01  -6.294055784144710e+01  5.467321625072530e-01  -6.294055784144710e+01  7.532161724640372e-01  30.4644966129976    