
!*************************************************************************
!! ASITIC Ver 10.20.99.0.0.0
!!  Data generated by the <2Port> command in <slow> mode.
!! Generated on Thu Apr 11 17:21:13 1974
!# Spiral Data:	Name = <SP2>, Polygon Spiral Inductor, Radius = 80.00, Origin = <200.00,200.00>
!# Sides =   8, Metal =   2, Exit Metal =  -1
!# W =  6.00, S =  2.00, N =  2.00
!# Theta =  0.00, Phase =   1
!# Technolog File Data <BiCMOS.tek> @ <.>
!# Auto-Cell Mode:  <alpha> = 0.050000, <beta> = 0.800000
!# Metal Layers
!# Name=MSUB      Met=0  Lyr=  1  Mz=50.00  T=0.40  RS=0.04  Col=BLUE    
!# Name=M2        Met=1  Lyr=  2  Mz=47.00  T=0.80  RS=0.05  Col=GREEN   
!# Name=M3        Met=2  Lyr=  2  Mz=45.00  T=2.00  RS=0.02  Col=RED     
!# Substrate Layers
!# Lyr=    0  Eps=  12  Rho=1e+05  DZ=8.5e+02  T=8e+02
!# Lyr=    1  Eps=  12  Rho=1e+03  DZ=  52  T=   2
!# Lyr=    2  Eps=   4  Rho=1e+14  DZ=  50  T=  50
!*************************************************************************
# GHZ S MA S11 mag    S11 phase  S12 mag    S12 phase  S21 mag    S21 phase  S22 mag    S22 phase  
1.000000000000000e+00  5.422775198737439e-02  5.783257035108802e+01  9.702285532141144e-01  -3.950088325889262e+00  9.702285532141144e-01  -3.950088325889262e+00  5.507284171257210e-02  58.2956778287769    
1.500000000000000e+00  7.573741040887687e-02  6.550124510821014e+01  9.668364902742679e-01  -5.887555522259114e+00  9.668364902742679e-01  -5.887555522259114e+00  7.707881784882978e-02  65.8232380669928    
2.000000000000000e+00  9.853648654738234e-02  6.914943123726151e+01  9.624253092958133e-01  -7.794895688133817e+00  9.624253092958133e-01  -7.794895688133817e+00  1.003339519435187e-01  69.3729595274267    
2.500000000000000e+00  1.219535224408703e-01  7.077632175419130e+01  9.569940702054056e-01  -9.660654634079751e+00  9.569940702054056e-01  -9.660654634079751e+00  1.241684388279917e-01  70.9392202485756    
3.000000000000000e+00  1.457544311077383e-01  7.138228954356211e+01  9.509217525433313e-01  -1.149062649352925e+01  9.509217525433313e-01  -1.149062649352925e+01  1.483537328964677e-01  71.5079063991468    
3.500000000000000e+00  1.697185727719030e-01  7.133243420101400e+01  9.442544870243756e-01  -1.328389427997057e+01  9.442544870243756e-01  -1.328389427997057e+01  1.726733660559467e-01  71.4383639031127    
4.000000000000000e+00  1.970724614792977e-01  7.073075864511596e+01  9.364083923767695e-01  -1.524729582515569e+01  9.364083923767695e-01  -1.524729582515569e+01  2.003636648267910e-01  70.8314473449382    
4.500000000000000e+00  2.212747656774980e-01  6.993767845114000e+01  9.286791891629685e-01  -1.699865869278853e+01  9.286791891629685e-01  -1.699865869278853e+01  2.248778976540546e-01  70.0404082211537    
5.000000000000000e+00  2.452334131549439e-01  6.895182934662007e+01  9.205609203015729e-01  -1.872086247974514e+01  9.205609203015729e-01  -1.872086247974514e+01  2.491310803064105e-01  69.0627894601498    
5.500000000000000e+00  2.686502757898707e-01  6.781184563521299e+01  9.120017411481210e-01  -2.040245592316030e+01  9.120017411481210e-01  -2.040245592316030e+01  2.728275820425097e-01  67.9360898830178    
6.000000000000000e+00  2.918493711053935e-01  6.659975083953286e+01  9.031948750486752e-01  -2.206976382644873e+01  9.031948750486752e-01  -2.206976382644873e+01  2.962931029583609e-01  66.7398420372992    
6.500000000000000e+00  3.145933244204994e-01  6.532391857215951e+01  8.940826932165244e-01  -2.371226261759298e+01  8.940826932165244e-01  -2.371226261759298e+01  3.192916452672461e-01  65.4821202270764    
7.000000000000000e+00  3.368397070017966e-01  6.400549642076376e+01  8.846854198065828e-01  -2.533062880161090e+01  8.846854198065828e-01  -2.533062880161090e+01  3.417816966529424e-01  64.1834133623648    
7.500000000000001e+00  3.585560887702146e-01  6.266004497181898e+01  8.750228417715695e-01  -2.692527649722701e+01  8.750228417715695e-01  -2.692527649722701e+01  3.637314501074716e-01  62.8588059194575    
8.000000000000000e+00  3.794550069983094e-01  6.129055418398184e+01  8.650611209253952e-01  -2.847906452405971e+01  8.650611209253952e-01  -2.847906452405971e+01  3.848537167505341e-01  61.5113956541664    
8.500000000000000e+00  4.000250413088603e-01  5.992378103760329e+01  8.549306480192340e-01  -3.002529131989308e+01  8.549306480192340e-01  -3.002529131989308e+01  4.056375666688438e-01  60.1668009014965    
9.000000000000000e+00  4.200117475484686e-01  5.855692546691318e+01  8.445973080021005e-01  -3.154815613069002e+01  8.445973080021005e-01  -3.154815613069002e+01  4.258286397355403e-01  58.8224778333268    
9.500000000000000e+00  4.394078725786680e-01  5.719502895093608e+01  8.340823699482185e-01  -3.304766634181916e+01  8.340823699482185e-01  -3.304766634181916e+01  4.454197930509520e-01  57.4833359574283    
1.000000000000000e+01  4.582100180522382e-01  5.584195969279853e+01  8.234072267298614e-01  -3.452382094297697e+01  8.234072267298614e-01  -3.452382094297697e+01  4.644077024468363e-01  56.1531475103984    
1.050000000000000e+01  4.772744068272113e-01  5.443580965170128e+01  8.120560975253569e-01  -3.603698576821828e+01  8.120560975253569e-01  -3.603698576821828e+01  4.836483958039693e-01  54.7699895093013    
1.100000000000000e+01  4.949003191217203e-01  5.310638848272520e+01  8.010863804395774e-01  -3.746806495897037e+01  8.010863804395774e-01  -3.746806495897037e+01  5.014413971301172e-01  53.463486672348     
1.150000000000000e+01  5.119366398305173e-01  5.179295326696529e+01  7.900197001301611e-01  -3.887573526660021e+01  7.900197001301611e-01  -3.887573526660021e+01  5.186356721847170e-01  52.1729389636664    
1.200000000000000e+01  5.283904151214347e-01  5.049684173768714e+01  7.788760932045015e-01  -4.026009837903112e+01  7.788760932045015e-01  -4.026009837903112e+01  5.352383285908997e-01  50.899657979371     
1.250000000000000e+01  5.442703875968388e-01  4.921905807521511e+01  7.676747884601826e-01  -4.162129571521858e+01  7.676747884601826e-01  -4.162129571521858e+01  5.512581811832696e-01  49.644629358349     
1.300000000000000e+01  5.595867272327875e-01  4.796033919398487e+01  7.564341016813549e-01  -4.295950870677770e+01  7.564341016813549e-01  -4.295950870677770e+01  5.667054844457591e-01  48.4085770697311    
1.350000000000000e+01  5.740108706138844e-01  4.672618624057140e+01  7.452174681490682e-01  -4.424886501289838e+01  7.452174681490682e-01  -4.424886501289838e+01  5.812514727980195e-01  47.197427816878     
1.400000000000000e+01  5.882270861635075e-01  4.550762678645600e+01  7.339561867905188e-01  -4.554077219288056e+01  7.339561867905188e-01  -4.554077219288056e+01  5.955811247763828e-01  46.0013518548879    
1.450000000000000e+01  6.019171415724218e-01  4.430918973445348e+01  7.227044739829268e-01  -4.681048158868399e+01  7.227044739829268e-01  -4.681048158868399e+01  6.093760319142232e-01  44.8252920101938    
1.500000000000000e+01  6.150947804192954e-01  4.313095785329345e+01  7.114764086882125e-01  -4.805831724704554e+01  7.114764086882125e-01  -4.805831724704554e+01  6.226500696184347e-01  43.6693290844177    
1.550000000000000e+01  6.277742167861918e-01  4.197291692105772e+01  7.002849856151047e-01  -4.928463137297724e+01  7.002849856151047e-01  -4.928463137297724e+01  6.354175930871989e-01  42.5334480532095    
1.600000000000000e+01  6.399700027850498e-01  4.083497269326855e+01  6.891421308075873e-01  -5.048980112171022e+01  6.891421308075873e-01  -5.048980112171022e+01  6.476933035206029e-01  41.4175546962288    
1.650000000000000e+01  6.513787740183602e-01  3.972507918511276e+01  6.781448411627210e-01  -5.164723906802311e+01  6.781448411627210e-01  -5.164723906802311e+01  6.591736821983007e-01  40.3300212860173    
1.700000000000000e+01  6.626484149013072e-01  3.862723713368492e+01  6.671369746657334e-01  -5.281058056286466e+01  6.671369746657334e-01  -5.281058056286466e+01  6.705074105560199e-01  39.254029946927     
1.750000000000000e+01  6.734794285606910e-01  3.754884423197510e+01  6.562072843720215e-01  -5.395404255096637e+01  6.562072843720215e-01  -5.395404255096637e+01  6.813948332404568e-01  38.197381810427     