
!*************************************************************************
!! ASITIC Ver 10.20.99.0.0.0
!!  Data generated by the <2Port> command in <slow> mode.
!! Generated on Thu Apr 11 17:21:13 1974
!# Spiral Data:	Name = <SP4>, Polygon Spiral Inductor, Radius = 100.00, Origin = <200.00,200.00>
!# Sides =  16, Metal =   2, Exit Metal =  -1
!# W =  8.00, S =  3.00, N =  2.00
!# Theta =  0.00, Phase =   1
!# Technolog File Data <BiCMOS.tek> @ <.>
!# Auto-Cell Mode:  <alpha> = 0.050000, <beta> = 0.800000
!# Metal Layers
!# Name=MSUB      Met=0  Lyr=  1  Mz=50.00  T=0.40  RS=0.04  Col=BLUE    
!# Name=M2        Met=1  Lyr=  2  Mz=47.00  T=0.80  RS=0.05  Col=GREEN   
!# Name=M3        Met=2  Lyr=  2  Mz=45.00  T=2.00  RS=0.02  Col=RED     
!# Substrate Layers
!# Lyr=    0  Eps=  12  Rho=1e+05  DZ=8.5e+02  T=8e+02
!# Lyr=    1  Eps=  12  Rho=1e+03  DZ=  52  T=   2
!# Lyr=    2  Eps=   4  Rho=1e+14  DZ=  50  T=  50
!*************************************************************************
# GHZ S MA S11 mag    S11 phase  S12 mag    S12 phase  S21 mag    S21 phase  S22 mag    S22 phase  
1.000000000000000e+00  6.196927605186951e-02  6.399338259563613e+01  9.683120595234576e-01  -5.298284523193855e+00  9.683120595234576e-01  -5.298284523193855e+00  6.283924750388699e-02  64.156650281581     
1.500000000000000e+00  8.982344228046603e-02  7.030218203958988e+01  9.618768220671695e-01  -7.839168955818529e+00  9.618768220671695e-01  -7.839168955818529e+00  9.106814178203684e-02  70.3878587935175    
2.000000000000000e+00  1.192625057866320e-01  7.322874868541028e+01  9.528275537024540e-01  -1.029617909991490e+01  9.528275537024540e-01  -1.029617909991490e+01  1.208474557760652e-01  73.2941070724221    
2.500000000000000e+00  1.516585143073668e-01  7.357537556707038e+01  9.443102721458805e-01  -1.253174838508813e+01  9.443102721458805e-01  -1.253174838508813e+01  1.539874160292676e-01  73.6049935229382    
3.000000000000000e+00  1.874901869150498e-01  7.352414586687740e+01  9.334011160437844e-01  -1.448865988949169e+01  9.334011160437844e-01  -1.448865988949169e+01  1.906552923837566e-01  73.6054215345417    
3.500000000000000e+00  2.120455939242442e-01  7.191700513494008e+01  9.243871611814903e-01  -1.719604605140171e+01  9.243871611814903e-01  -1.719604605140171e+01  2.144248283638895e-01  71.8562626792059    
4.000000000000000e+00  2.460448315790629e-01  7.038684268607753e+01  9.129515185989387e-01  -1.959405740587698e+01  9.129515185989387e-01  -1.959405740587698e+01  2.486389360403008e-01  70.3330024041354    
4.500000000000000e+00  2.764321802886233e-01  6.874411760797479e+01  9.014705994391913e-01  -2.176152884463742e+01  9.014705994391913e-01  -2.176152884463742e+01  2.792249151585315e-01  68.7013874682369    
5.000000000000000e+00  3.062503620422428e-01  6.698950128848622e+01  8.896023421827115e-01  -2.389992420342355e+01  8.896023421827115e-01  -2.389992420342355e+01  3.092296919696388e-01  66.9603951078576    
5.500000000000000e+00  3.333344083685907e-01  6.555620442626301e+01  8.751863246792252e-01  -2.614821949940244e+01  8.751863246792252e-01  -2.614821949940244e+01  3.366389334817163e-01  65.3738442473085    
6.000000000000000e+00  3.632487939030640e-01  6.329320304649383e+01  8.645253754155463e-01  -2.806259664419004e+01  8.645253754155463e-01  -2.806259664419004e+01  3.665727226617640e-01  63.295659391681     
6.500000000000000e+00  3.904623607328850e-01  6.141771322647544e+01  8.514068468106268e-01  -3.009796054424339e+01  8.514068468106268e-01  -3.009796054424339e+01  3.939451278464506e-01  61.4365969225026    
7.000000000000000e+00  4.167306896009579e-01  5.954411186099323e+01  8.379228512292134e-01  -3.210002405231963e+01  8.379228512292134e-01  -3.210002405231963e+01  4.203636791555367e-01  59.5795193082432    
7.500000000000001e+00  4.425542414447896e-01  5.783251638662967e+01  8.227930190866761e-01  -3.400622174360366e+01  8.227930190866761e-01  -3.400622174360366e+01  4.457343286375856e-01  57.857117242362     
8.000000000000000e+00  4.661810124215546e-01  5.583857413916949e+01  8.099732222427585e-01  -3.598979225426930e+01  8.099732222427585e-01  -3.598979225426930e+01  4.700885655764034e-01  55.9070131933292    
8.500000000000000e+00  4.908105067274866e-01  5.415985449522384e+01  7.946142061665288e-01  -3.774688381348427e+01  7.946142061665288e-01  -3.774688381348427e+01  4.952970673736395e-01  54.3108967383544    
9.000000000000000e+00  5.166490417608037e-01  5.265598273066791e+01  7.783811678735479e-01  -3.932736293522831e+01  7.783811678735479e-01  -3.932736293522831e+01  5.203645361172636e-01  52.6818997925367    
9.500000000000000e+00  5.357612948166173e-01  5.089316357450401e+01  7.625189856847832e-01  -4.131292024523221e+01  7.625189856847832e-01  -4.131292024523221e+01  5.382337551128914e-01  51.0210801915498    
1.000000000000000e+01  5.561023321151942e-01  4.905862566602599e+01  7.488553695203056e-01  -4.304757668885544e+01  7.488553695203056e-01  -4.304757668885544e+01  5.617492617355623e-01  49.3937798252646    
1.050000000000000e+01  5.736437363859226e-01  4.691954386302941e+01  7.364936044516671e-01  -4.528331779402735e+01  7.364936044516671e-01  -4.528331779402735e+01  5.778028083375819e-01  47.0210615953123    
1.100000000000000e+01  5.929313602460894e-01  4.533314478340481e+01  7.207908920759145e-01  -4.693569549996693e+01  7.207908920759145e-01  -4.693569549996693e+01  5.974480145397176e-01  45.4948961997441    
1.150000000000000e+01  6.462405436403447e-01  4.822303863695723e+01  6.711555654291641e-01  -4.403806505124330e+01  6.711555654291641e-01  -4.403806505124330e+01  6.559919406660876e-01  49.1073537932982    
1.200000000000000e+01  6.270128666277387e-01  4.214059020522824e+01  6.900211521426207e-01  -5.031676030670356e+01  6.900211521426207e-01  -5.031676030670356e+01  6.311269737263978e-01  42.3567053862035    
1.250000000000000e+01  6.441739345580848e-01  4.055378410479524e+01  6.762786000356658e-01  -5.191589155797003e+01  6.762786000356658e-01  -5.191589155797003e+01  6.475793234559064e-01  40.5167858473751    