
!*************************************************************************
!! ASITIC Ver 10.20.99.0.0.0
!!  Data generated by the <2Port> command in <slow> mode.
!! Generated on Thu Apr 11 17:21:13 1974
!# Spiral Data:	Name = <SP5>, Polygon Spiral Inductor, Radius = 120.00, Origin = <200.00,200.00>
!# Sides =   8, Metal =   1, Exit Metal =  -1
!# W =  8.00, S =  3.00, N =  2.00
!# Theta =  0.00, Phase =   1
!# Technolog File Data <BiCMOS.tek> @ <.>
!# Auto-Cell Mode:  <alpha> = 0.050000, <beta> = 0.800000
!# Metal Layers
!# Name=MSUB      Met=0  Lyr=  1  Mz=50.00  T=0.40  RS=0.04  Col=BLUE    
!# Name=M2        Met=1  Lyr=  2  Mz=47.00  T=0.80  RS=0.05  Col=GREEN   
!# Name=M3        Met=2  Lyr=  2  Mz=45.00  T=2.00  RS=0.02  Col=RED     
!# Substrate Layers
!# Lyr=    0  Eps=  12  Rho=1e+05  DZ=8.5e+02  T=8e+02
!# Lyr=    1  Eps=  12  Rho=1e+03  DZ=  52  T=   2
!# Lyr=    2  Eps=   4  Rho=1e+14  DZ=  50  T=  50
!*************************************************************************
# GHZ S MA S11 mag    S11 phase  S12 mag    S12 phase  S21 mag    S21 phase  S22 mag    S22 phase  
1.000000000000000e+00  9.230461711720915e-02  3.876166701662471e+01  9.159431234228613e-01  -6.781346011426775e+00  9.159431234228613e-01  -6.781346011426775e+00  9.383473569157942e-02  39.5263071136905    
1.500000000000000e+00  1.172190964581712e-01  5.084319075666594e+01  9.059187163666640e-01  -9.906110219021139e+00  9.059187163666640e-01  -9.906110219021139e+00  1.197614766422761e-01  51.3647506634166    
2.000000000000000e+00  1.498783088861484e-01  6.298245776317412e+01  8.838615191318957e-01  -1.265322371653950e+01  8.838615191318957e-01  -1.265322371653950e+01  1.533167317470564e-01  61.6772902546012    
2.500000000000000e+00  1.868380262556647e-01  6.248013916489785e+01  8.798633456731026e-01  -1.550310006965079e+01  8.798633456731026e-01  -1.550310006965079e+01  1.920321379165763e-01  61.264334843988     
3.000000000000000e+00  2.159291510893104e-01  6.495163621182945e+01  8.606874559746509e-01  -1.860535088909772e+01  8.606874559746509e-01  -1.860535088909772e+01  2.247116058615655e-01  63.5093050893126    
3.500000000000000e+00  2.644564809641858e-01  6.167873418070543e+01  8.550678335351567e-01  -2.079889890481505e+01  8.550678335351567e-01  -2.079889890481505e+01  2.669075838910832e-01  61.4146948644033    
4.000000000000000e+00  3.038298268038754e-01  6.147425885912961e+01  8.373985196410367e-01  -2.323566922285583e+01  8.373985196410367e-01  -2.323566922285583e+01  3.060051822477558e-01  61.036789813828     
4.500000000000000e+00  5.423231446252443e-01  5.904928235476196e+01  7.810537299945509e-01  -1.505136108341042e+01  7.810537299945509e-01  -1.505136108341042e+01  4.553968516646369e-01  70.3166752936529    
5.000000000000000e+00  3.689497515862181e-01  5.831672744499703e+01  8.074004012353126e-01  -2.853274206358546e+01  8.074004012353126e-01  -2.853274206358546e+01  3.728412313475120e-01  57.8640801193603    
5.500000000000000e+00  3.500487843116963e-01  4.968520492660259e+01  8.212021485245696e-01  -3.366846985326423e+01  8.212021485245696e-01  -3.366846985326423e+01  3.774040106604725e-01  54.2950648665126    
6.000000000000000e+00  4.386140762346360e-01  5.520635137159612e+01  7.711168016941123e-01  -3.307375742594986e+01  7.711168016941123e-01  -3.307375742594986e+01  4.409720229884107e-01  54.4842231733009    
6.500000000000000e+00  4.638194635745501e-01  5.230331389768700e+01  7.603853054156938e-01  -3.565962680946863e+01  7.603853054156938e-01  -3.565962680946863e+01  4.669376729249837e-01  52.0529224589052    
7.000000000000000e+00  4.802459791513712e-01  5.004381179957335e+01  7.470253651789851e-01  -3.865037070344226e+01  7.470253651789851e-01  -3.865037070344226e+01  4.865582957446813e-01  49.9781156515015    
7.500000000000001e+00  5.080907580289855e-01  4.734398935442317e+01  7.335508867776771e-01  -4.077017705940870e+01  7.335508867776771e-01  -4.077017705940870e+01  5.154786380135775e-01  47.7716712683294    
8.000000000000000e+00  5.362398114072935e-01  4.629298946211517e+01  7.086854279668728e-01  -4.283800699579799e+01  7.086854279668728e-01  -4.283800699579799e+01  5.447501284586531e-01  46.4998420540456    
8.500000000000000e+00  5.562445314133425e-01  4.508216028159507e+01  6.920260161102952e-01  -4.543850446407974e+01  6.920260161102952e-01  -4.543850446407974e+01  5.592305987674898e-01  44.7537130044661    
9.000000000000000e+00  5.884903939377393e-01  4.318585133270265e+01  6.707996177759592e-01  -4.681871090889138e+01  6.707996177759592e-01  -4.681871090889138e+01  5.914424281650237e-01  42.9117757935378    
9.500000000000000e+00  6.051879379309610e-01  4.050345281357471e+01  6.560688797472286e-01  -4.910121211665182e+01  6.560688797472286e-01  -4.910121211665182e+01  6.130464564494741e-01  40.9962471257601    
1.000000000000000e+01  7.768296516025924e-01  2.978435660723926e+01  5.634363131670377e-01  -2.359752483428707e+01  5.634363131670377e-01  -2.359752483428707e+01  9.527841890326032e-01  41.7859698974386    
1.050000000000000e+01  6.443241034225832e-01  3.731435184472914e+01  6.177082259553973e-01  -5.290994034196687e+01  6.177082259553973e-01  -5.290994034196687e+01  6.532826097469105e-01  37.5480710369338    
1.100000000000000e+01  7.494892200094690e-01  5.265574122310105e+01  6.828549182477349e-01  1.467788695419321e+02  6.828549182477349e-01  1.467788695419321e+02  6.770288218894049e-01  65.3360602707253    
1.150000000000000e+01  7.492943544069258e-01  2.779622723250154e+01  6.785676050550227e-01  -6.514258599415793e+01  6.785676050550227e-01  -6.514258599415793e+01  6.245174576746282e-01  39.6223756103301    
1.200000000000000e+01  7.118261169862765e-01  3.422438591685433e+01  5.413413031837901e-01  -5.748293630854933e+01  5.413413031837901e-01  -5.748293630854933e+01  7.164881164049752e-01  33.5995189243338    
1.250000000000000e+01  8.596282265373041e-01  3.692401349034295e+01  5.589108496857589e-01  -5.490431994378219e+01  5.589108496857589e-01  -5.490431994378219e+01  7.015560354756519e-01  32.0393844742481    
1.300000000000000e+01  7.884100028887491e-01  3.429954606113530e+01  4.571942445592938e-01  -5.551242047016435e+01  4.571942445592938e-01  -5.551242047016435e+01  7.847962289291537e-01  31.3225646188918    
1.350000000000000e+01  6.799599993969845e-01  2.835322298704639e+01  5.218567536229142e-01  -6.394067448056683e+01  5.218567536229142e-01  -6.394067448056683e+01  7.323641804260942e-01  26.5855150801453    
1.400000000000000e+01  7.525347919581267e-01  2.646401250443276e+01  5.024427994507750e-01  -6.420459827317541e+01  5.024427994507750e-01  -6.420459827317541e+01  7.555261995809159e-01  26.0966920257289    
1.450000000000000e+01  7.340575208808773e-01  2.203234421849896e+01  4.958534652165630e-01  -6.893024870770107e+01  4.958534652165630e-01  -6.893024870770107e+01  7.577966269420927e-01  24.8301864877886    
1.500000000000000e+01  1.190955967173799e+00  2.479720096049710e+01  3.699412247919404e-01  1.459221560615163e+02  3.699412247919404e-01  1.459221560615163e+02  8.594700438026314e-01  39.2888721452162    
1.550000000000000e+01  1.469454603233288e+01  -1.521196416936910e+02  2.314887315218071e+01  1.684464897154894e+02  2.314887315218071e+01  1.684464897154894e+02  1.027728176955254e+01  -142.352592387291   
1.600000000000000e+01  7.510652793793280e-01  2.540872937654986e+01  7.041494263087541e-01  -7.269480070598904e+01  7.041494263087541e-01  -7.269480070598904e+01  5.746290724294620e-01  14.9489829474481    
1.650000000000000e+01  8.030896632429165e-01  2.077928915570494e+01  4.103444078457276e-01  -7.156571918620433e+01  4.103444078457276e-01  -7.156571918620433e+01  8.077680684880448e-01  19.8436009556387    
1.700000000000000e+01  7.982647965279946e-01  1.789432652623044e+01  4.093234625730899e-01  -7.479477786336329e+01  4.093234625730899e-01  -7.479477786336329e+01  8.074733036787556e-01  18.3894352810305    
1.750000000000000e+01  7.891271609716405e-01  8.851424141306472e+00  4.509412531007777e-01  -8.235473766776306e+01  4.509412531007777e-01  -8.235473766776306e+01  7.901007221481801e-01  16.463824099633     