
!*************************************************************************
!! ASITIC Ver 10.20.99.0.0.0
!!  Data generated by the <2Port> command in <slow> mode.
!! Generated on Thu Apr 11 17:21:13 1974
!# Spiral Data:	Name = <SP3>, Polygon Spiral Inductor, Radius = 100.00, Origin = <200.00,200.00>
!# Sides =   8, Metal =   4, Exit Metal =  -1
!# W =  8.00, S =  3.00, N =  3.00
!# Theta =  0.00, Phase =   1
!# Technolog File Data <CMOS.tek> @ <.>
!# Auto-Cell Mode:  <alpha> = 0.050000, <beta> = 0.800000
!# Metal Layers
!# Name=M1        Met=0  Lyr=  1  Mz=48.70  T=0.50  RS=0.07  Col=YELLOW  
!# Name=M2        Met=1  Lyr=  1  Mz=47.60  T=0.50  RS=0.06  Col=LIGHTSKYBLUE1
!# Name=M3        Met=2  Lyr=  1  Mz=46.50  T=0.50  RS=0.06  Col=MEDIUM PURPLE
!# Name=M4        Met=3  Lyr=  1  Mz=45.50  T=0.50  RS=0.06  Col=LIGHT GREEN
!# Name=M5        Met=4  Lyr=  1  Mz=44.00  T=1.00  RS=0.03  Col=GREY    
!# Substrate Layers
!# Lyr=    0  Eps=  12  Rho=  10  DZ=7.5e+02  T=7e+02
!# Lyr=    1  Eps= 3.9  Rho=1e+14  DZ=  50  T=  50
!*************************************************************************
# GHZ S MA S11 mag    S11 phase  S12 mag    S12 phase  S21 mag    S21 phase  S22 mag    S22 phase  
1.000000000000000e+00  1.140989978090985e-01  5.544122054458773e+01  9.436112710392391e-01  -7.956812172550378e+00  9.436112710392391e-01  -7.956812172550378e+00  1.150847732882081e-01  55.8839440993316    
1.500000000000000e+00  1.600306309291143e-01  5.942773364725045e+01  9.369126630807102e-01  -1.187162920871629e+01  9.369126630807102e-01  -1.187162920871629e+01  1.615998284838181e-01  59.8952178423724    
2.000000000000000e+00  2.060983862708926e-01  5.978262568422173e+01  9.278564956464938e-01  -1.571456285232342e+01  9.278564956464938e-01  -1.571456285232342e+01  2.082080498947814e-01  60.2970660138449    
2.500000000000000e+00  2.509393663550647e-01  5.859887201529052e+01  9.168396354679911e-01  -1.946994991336781e+01  9.168396354679911e-01  -1.946994991336781e+01  2.535475357700299e-01  59.1742055772553    
3.000000000000000e+00  2.939860378885389e-01  5.668367550096753e+01  9.042564984460102e-01  -2.312969249239247e+01  9.042564984460102e-01  -2.312969249239247e+01  2.970502085840095e-01  57.3278803033644    
3.500000000000000e+00  3.349074331366993e-01  5.437531966978651e+01  8.903249232214570e-01  -2.668390828324485e+01  8.903249232214570e-01  -2.668390828324485e+01  3.383812142846773e-01  55.0939653420241    
4.000000000000000e+00  3.735727077134444e-01  5.188356060056603e+01  8.754661521500146e-01  -3.013129023433931e+01  8.754661521500146e-01  -3.013129023433931e+01  3.774100916786359e-01  52.6797018488563    
4.500000000000000e+00  4.098921115559157e-01  4.929262411673201e+01  8.598408282223716e-01  -3.346689971631977e+01  8.598408282223716e-01  -3.346689971631977e+01  4.140428954332744e-01  50.1688227288759    
5.000000000000000e+00  4.438965200431145e-01  4.668077924892139e+01  8.437999905945216e-01  -3.669355279456388e+01  8.437999905945216e-01  -3.669355279456388e+01  4.483137350041346e-01  47.638488892732     
5.500000000000000e+00  4.755976916479864e-01  4.407031476357267e+01  8.274488055880285e-01  -3.980927981839623e+01  8.274488055880285e-01  -3.980927981839623e+01  4.802306731992924e-01  45.1110405245329    
6.000000000000000e+00  5.050961506488811e-01  4.149815439423737e+01  8.110724305186670e-01  -4.281882299412516e+01  8.110724305186670e-01  -4.281882299412516e+01  5.098978753774217e-01  42.6225705243933    
6.500000000000000e+00  5.324733547159795e-01  3.897218404979397e+01  7.947745172823772e-01  -4.572382995626541e+01  7.947745172823772e-01  -4.572382995626541e+01  5.373959906548146e-01  40.1810123644262    
7.000000000000000e+00  5.578182012440804e-01  3.649583275060227e+01  7.786312700275373e-01  -4.852612236114294e+01  7.786312700275373e-01  -4.852612236114294e+01  5.628124937220378e-01  37.7898623455267    
7.500000000000001e+00  5.812763339925782e-01  3.408527230507328e+01  7.628494389262600e-01  -5.123245729411256e+01  7.628494389262600e-01  -5.123245729411256e+01  5.862985152602317e-01  35.4647613706335    
8.000000000000000e+00  6.029543300392167e-01  3.173748735062097e+01  7.474628876264059e-01  -5.384585429048191e+01  7.474628876264059e-01  -5.384585429048191e+01  6.079598823786706e-01  33.2028105279155    
8.500000000000000e+00  6.229287491349998e-01  2.945084862705812e+01  7.325139174596769e-01  -5.636727323517657e+01  7.325139174596769e-01  -5.636727323517657e+01  6.278717250126400e-01  31.0024975812721    
9.000000000000000e+00  6.414012290502432e-01  2.722961969756009e+01  7.180981493282160e-01  -5.880802069323997e+01  7.180981493282160e-01  -5.880802069323997e+01  6.462421725516733e-01  28.8676784510186    
9.500000000000000e+00  6.584456689873903e-01  2.506997636431100e+01  7.042285756865260e-01  -6.116948828666131e+01  7.042285756865260e-01  -6.116948828666131e+01  6.631440276624669e-01  26.7946586278142    
1.000000000000000e+01  6.741710271424122e-01  2.296994444132763e+01  6.909296725268338e-01  -6.345624382953633e+01  6.909296725268338e-01  -6.345624382953633e+01  6.786875271768330e-01  24.7814292051029    
1.050000000000000e+01  6.886543867596826e-01  2.092424985535968e+01  6.781809299756756e-01  -6.567052653197327e+01  6.781809299756756e-01  -6.567052653197327e+01  6.929477038476175e-01  22.8228108279602    
1.100000000000000e+01  7.025167471192869e-01  1.893310522227620e+01  6.660233262373967e-01  -6.786139867484728e+01  6.660233262373967e-01  -6.786139867484728e+01  7.065764753830447e-01  20.9167973900318    
1.150000000000000e+01  7.148818197219313e-01  1.699602496559150e+01  6.544918197928719e-01  -6.995140483532735e+01  6.544918197928719e-01  -6.995140483532735e+01  7.186504243354795e-01  19.0668025992937    
1.200000000000000e+01  7.261940843605996e-01  1.511026360384734e+01  6.435750597996371e-01  -7.197441750883419e+01  6.435750597996371e-01  -7.197441750883419e+01  7.296321288137091e-01  17.2686841989143    
1.250000000000000e+01  7.367393318773088e-01  1.326891544461009e+01  6.332181999067726e-01  -7.395247461437283e+01  6.332181999067726e-01  -7.395247461437283e+01  7.398170290335256e-01  15.5146044052727    
1.300000000000000e+01  7.464837867188796e-01  1.147122186810615e+01  6.234336732862893e-01  -7.588021308363227e+01  6.234336732862893e-01  -7.588021308363227e+01  7.491679211504839e-01  13.8042393069036    
1.350000000000000e+01  7.554918227675034e-01  9.714520010816315e+00  6.142086673753222e-01  -7.776106790769278e+01  6.142086673753222e-01  -7.776106790769278e+01  7.577498777327847e-01  12.1349147128525    
1.400000000000000e+01  7.637287703953133e-01  7.998846249731192e+00  6.055526206987710e-01  -7.958958663432168e+01  6.055526206987710e-01  -7.958958663432168e+01  7.655239077363357e-01  10.5071019767044    
1.450000000000000e+01  7.714350608100733e-01  6.316657239585926e+00  5.974023342004756e-01  -8.138610198201118e+01  5.974023342004756e-01  -8.138610198201118e+01  7.727405340467798e-01  8.91237656581035    
1.500000000000000e+01  7.785660581162481e-01  4.668055387407767e+00  5.897656199570509e-01  -8.314491642620226e+01  5.897656199570509e-01  -8.314491642620226e+01  7.793509558153811e-01  7.35126118493805    
1.550000000000000e+01  7.851660356947042e-01  3.050790933443515e+00  5.826261716627847e-01  -8.486873094592467e+01  5.826261716627847e-01  -8.486873094592467e+01  7.853998345261716e-01  5.82149961354687    
1.600000000000000e+01  7.911931520057234e-01  1.465599935574984e+00  5.759872081670721e-01  -8.655204010624661e+01  5.759872081670721e-01  -8.655204010624661e+01  7.908404359651143e-01  4.32423785470708    
1.650000000000000e+01  7.968480882810958e-01  -9.515244410839145e-02  5.697925203831909e-01  -8.821324431204238e+01  5.697925203831909e-01  -8.821324431204238e+01  7.958838746992011e-01  2.85101861334306    
1.700000000000000e+01  8.020817179568230e-01  -1.630647093819323e+00  5.640465499054438e-01  -8.984661156330452e+01  5.640465499054438e-01  -8.984661156330452e+01  8.004762609936523e-01  1.40305917260373    
1.750000000000000e+01  8.069239765198545e-01  -3.142699973942993e+00  5.587338740176190e-01  -9.145424215362067e+01  5.587338740176190e-01  -9.145424215362067e+01  8.046476719637469e-01  -0.0214596576583213 