
!*************************************************************************
!! ASITIC Ver 10.20.99.0.0.0
!!  Data generated by the <2Port> command in <slow> mode.
!! Generated on Thu Apr 11 17:21:13 1974
!# Spiral Data:	Name = <SP4>, Polygon Spiral Inductor, Radius = 100.00, Origin = <200.00,200.00>
!# Sides =  16, Metal =   4, Exit Metal =  -1
!# W =  8.00, S =  3.00, N =  2.00
!# Theta =  0.00, Phase =   1
!# Technolog File Data <CMOS.tek> @ <.>
!# Auto-Cell Mode:  <alpha> = 0.050000, <beta> = 0.800000
!# Metal Layers
!# Name=M1        Met=0  Lyr=  1  Mz=48.70  T=0.50  RS=0.07  Col=YELLOW  
!# Name=M2        Met=1  Lyr=  1  Mz=47.60  T=0.50  RS=0.06  Col=LIGHTSKYBLUE1
!# Name=M3        Met=2  Lyr=  1  Mz=46.50  T=0.50  RS=0.06  Col=MEDIUM PURPLE
!# Name=M4        Met=3  Lyr=  1  Mz=45.50  T=0.50  RS=0.06  Col=LIGHT GREEN
!# Name=M5        Met=4  Lyr=  1  Mz=44.00  T=1.00  RS=0.03  Col=GREY    
!# Substrate Layers
!# Lyr=    0  Eps=  12  Rho=  10  DZ=7.5e+02  T=7e+02
!# Lyr=    1  Eps= 3.9  Rho=1e+14  DZ=  50  T=  50
!*************************************************************************
# GHZ S MA S11 mag    S11 phase  S12 mag    S12 phase  S21 mag    S21 phase  S22 mag    S22 phase  
1.000000000000000e+00  7.151412529875481e-02  5.235460663794206e+01  9.598051914962412e-01  -5.222081334997573e+00  9.598051914962412e-01  -5.222081334997573e+00  7.209533042536799e-02  52.7775895056534    
1.500000000000000e+00  9.825477369145699e-02  5.908471936993045e+01  9.572714354508527e-01  -7.806624626171632e+00  9.572714354508527e-01  -7.806624626171632e+00  9.915243950727258e-02  59.4802483508852    
2.000000000000000e+00  1.248887571828530e-01  6.142288715920107e+01  9.538884350675373e-01  -1.043572944278791e+01  9.538884350675373e-01  -1.043572944278791e+01  1.262577422338027e-01  61.8789175486228    
2.500000000000000e+00  1.524288994994485e-01  6.209010495052132e+01  9.496042678672809e-01  -1.299583160284079e+01  9.496042678672809e-01  -1.299583160284079e+01  1.541558524653096e-01  62.5731908295517    
3.000000000000000e+00  1.797440627186784e-01  6.176732994886755e+01  9.446042563154035e-01  -1.553089196638751e+01  9.446042563154035e-01  -1.553089196638751e+01  1.818147271778664e-01  62.2863813536169    
3.500000000000000e+00  2.097064478688480e-01  6.120534012002374e+01  9.383095960037626e-01  -1.784946943417728e+01  9.383095960037626e-01  -1.784946943417728e+01  2.116994176956170e-01  61.6658187486365    
4.000000000000000e+00  2.329104000776004e-01  5.958962391429190e+01  9.325872812903988e-01  -2.051107657507639e+01  9.325872812903988e-01  -2.051107657507639e+01  2.356210199133815e-01  60.1970831790175    
4.500000000000000e+00  2.585650059538248e-01  5.809181373316614e+01  9.257033702427544e-01  -2.295323162585134e+01  9.257033702427544e-01  -2.295323162585134e+01  2.615697129176864e-01  58.7484155030419    
5.000000000000000e+00  2.835430118451205e-01  5.645660981469303e+01  9.183781861288994e-01  -2.536375052170346e+01  9.183781861288994e-01  -2.536375052170346e+01  2.868242346835628e-01  57.1640280990613    
5.500000000000000e+00  3.077758070457343e-01  5.471381865260058e+01  9.105808204050949e-01  -2.773887195912663e+01  9.105808204050949e-01  -2.773887195912663e+01  3.113130668368480e-01  55.4738000982742    
6.000000000000000e+00  3.306385805944367e-01  5.279493693648852e+01  9.030703167354470e-01  -3.019378460755241e+01  9.030703167354470e-01  -3.019378460755241e+01  3.333634247171855e-01  53.4046363404645    
6.500000000000000e+00  3.539733203336753e-01  5.107580081196323e+01  8.940135116905694e-01  -3.238612872120033e+01  8.940135116905694e-01  -3.238612872120033e+01  3.579625136215328e-01  51.9435271673797    
7.000000000000000e+00  3.758795039119326e-01  4.920418113676637e+01  8.852584223318535e-01  -3.465460800771422e+01  8.852584223318535e-01  -3.465460800771422e+01  3.800608653926088e-01  50.1271580410221    
7.500000000000001e+00  3.970012687897642e-01  4.732802558671523e+01  8.763323797899712e-01  -3.688771101105729e+01  8.763323797899712e-01  -3.688771101105729e+01  4.013534973123078e-01  48.3065964788986    
8.000000000000000e+00  4.199483092168659e-01  4.569369150324877e+01  8.661986650376091e-01  -3.887456801121689e+01  8.661986650376091e-01  -3.887456801121689e+01  4.241200704133502e-01  46.6460029821989    
8.500000000000000e+00  4.368149475086801e-01  4.356949489238366e+01  8.579881203730730e-01  -4.124084384661607e+01  8.579881203730730e-01  -4.124084384661607e+01  4.414386114133927e-01  44.6608142325122    
9.000000000000000e+00  4.555595831371705e-01  4.170356381326673e+01  8.486827126344813e-01  -4.336385265282747e+01  8.486827126344813e-01  -4.336385265282747e+01  4.602844668160587e-01  42.8516737978824    
9.500000000000000e+00  4.735378339875512e-01  3.983816073692741e+01  8.395000185570136e-01  -4.546554000419002e+01  8.395000185570136e-01  -4.546554000419002e+01  4.780453967225475e-01  40.9769998445322    
1.000000000000000e+01  4.907445332817155e-01  3.801412843683590e+01  8.299701227604854e-01  -4.750138784267105e+01  8.299701227604854e-01  -4.750138784267105e+01  4.956011906468561e-01  39.2766122928139    
1.050000000000000e+01  5.071915247847977e-01  3.619114266390707e+01  8.205895135972751e-01  -4.951485051533678e+01  8.205895135972751e-01  -4.951485051533678e+01  5.120768114261023e-01  37.5113340080091    
1.100000000000000e+01  5.234101504463086e-01  3.440009035590485e+01  8.113397916503796e-01  -5.152903755802775e+01  8.113397916503796e-01  -5.152903755802775e+01  5.283124014723978e-01  35.7759004642864    
1.150000000000000e+01  5.384736957616780e-01  3.262221788417273e+01  8.021234783903796e-01  -5.347692253700742e+01  8.021234783903796e-01  -5.347692253700742e+01  5.433603360506299e-01  34.055781110873     
1.200000000000000e+01  5.527289102473837e-01  3.086725249028095e+01  7.930214510356592e-01  -5.538208490014824e+01  7.930214510356592e-01  -5.538208490014824e+01  5.575748049686020e-01  32.3591458979337    
1.250000000000000e+01  5.664506953328015e-01  2.913431508964564e+01  7.840308216569287e-01  -5.726353864756374e+01  7.840308216569287e-01  -5.726353864756374e+01  5.712347084972853e-01  30.6842219847562    
1.300000000000000e+01  5.783473565173917e-01  2.725929802995244e+01  7.769889948689711e-01  -5.928547642864617e+01  7.769889948689711e-01  -5.928547642864617e+01  5.817966465481630e-01  28.5044249061036    
1.350000000000000e+01  5.920154059797763e-01  2.573713104099035e+01  7.664900550485807e-01  -6.093203042835208e+01  7.664900550485807e-01  -6.093203042835208e+01  5.966076690943516e-01  27.4033424614371    
1.400000000000000e+01  6.037848984108838e-01  2.407458891081464e+01  7.579891764790302e-01  -6.271168216229191e+01  7.579891764790302e-01  -6.271168216229191e+01  6.082455438075957e-01  25.7994937298467    
1.450000000000000e+01  6.187869182184353e-01  2.295364487122836e+01  7.471047506660419e-01  -6.396509185270098e+01  7.471047506660419e-01  -6.396509185270098e+01  6.227879129017649e-01  24.575517516519     
1.500000000000000e+01  6.258981021629436e-01  2.081394637225971e+01  7.415155073788872e-01  -6.620299353680964e+01  7.415155073788872e-01  -6.620299353680964e+01  6.300339750930202e-01  22.6555820785098    
1.550000000000000e+01  6.361691750727030e-01  1.921660979055439e+01  7.335790843885337e-01  -6.790763472580532e+01  7.335790843885337e-01  -6.790763472580532e+01  6.401103079403258e-01  21.116678988158     
1.600000000000000e+01  6.488852410141784e-01  1.814540717939641e+01  7.237117234974852e-01  -6.908813197995698e+01  7.237117234974852e-01  -6.908813197995698e+01  6.521914965779562e-01  19.8672793779561    
1.650000000000000e+01  6.551405247501922e-01  1.608791270055299e+01  7.183646651255328e-01  -7.123071630480794e+01  7.183646651255328e-01  -7.123071630480794e+01  6.586261778443133e-01  18.1053871639826    
1.700000000000000e+01  6.639957235570770e-01  1.455312099476716e+01  7.110758908359306e-01  -7.286003073733276e+01  7.110758908359306e-01  -7.286003073733276e+01  6.672235297283355e-01  16.6291254673519    
1.750000000000000e+01  6.724213171077542e-01  1.303792456891804e+01  7.040110848338260e-01  -7.446623903240157e+01  7.040110848338260e-01  -7.446623903240157e+01  6.753707432042281e-01  15.1724750186765    