
!*************************************************************************
!! ASITIC Ver 10.20.99.0.0.0
!!  Data generated by the <2Port> command in <slow> mode.
!! Generated on Thu Apr 11 17:21:13 1974
!# Spiral Data:	Name = <SP2>, Polygon Spiral Inductor, Radius = 80.00, Origin = <200.00,200.00>
!# Sides =   8, Metal =   4, Exit Metal =  -1
!# W =  6.00, S =  2.00, N =  2.00
!# Theta =  0.00, Phase =   1
!# Technolog File Data <CMOS.tek> @ <.>
!# Auto-Cell Mode:  <alpha> = 0.050000, <beta> = 0.800000
!# Metal Layers
!# Name=M1        Met=0  Lyr=  1  Mz=48.70  T=0.50  RS=0.07  Col=YELLOW  
!# Name=M2        Met=1  Lyr=  1  Mz=47.60  T=0.50  RS=0.06  Col=LIGHTSKYBLUE1
!# Name=M3        Met=2  Lyr=  1  Mz=46.50  T=0.50  RS=0.06  Col=MEDIUM PURPLE
!# Name=M4        Met=3  Lyr=  1  Mz=45.50  T=0.50  RS=0.06  Col=LIGHT GREEN
!# Name=M5        Met=4  Lyr=  1  Mz=44.00  T=1.00  RS=0.03  Col=GREY    
!# Substrate Layers
!# Lyr=    0  Eps=  12  Rho=  10  DZ=7.5e+02  T=7e+02
!# Lyr=    1  Eps= 3.9  Rho=1e+14  DZ=  50  T=  50
!*************************************************************************
# GHZ S MA S11 mag    S11 phase  S12 mag    S12 phase  S21 mag    S21 phase  S22 mag    S22 phase  
1.000000000000000e+00  6.373211135122668e-02  4.706356844451657e+01  9.586259316066692e-01  -3.926126833310132e+00  9.586259316066692e-01  -3.926126833310132e+00  6.434060278875618e-02  47.629151538159     
1.500000000000000e+00  8.431212135468000e-02  5.561386710051172e+01  9.569370845559784e-01  -5.880615531250696e+00  9.569370845559784e-01  -5.880615531250696e+00  8.534714256708364e-02  56.1759205659893    
2.000000000000000e+00  1.063897453508354e-01  5.982743090850311e+01  9.545479365994157e-01  -7.822580967799642e+00  9.545479365994157e-01  -7.822580967799642e+00  1.078387076819444e-01  60.3871010743091    
2.500000000000000e+00  1.290255626063704e-01  6.187816254682794e+01  9.515863251503870e-01  -9.753420283530575e+00  9.515863251503870e-01  -9.753420283530575e+00  1.308758937119226e-01  62.4487217823405    
3.000000000000000e+00  1.517758930393095e-01  6.267989200388132e+01  9.479812206465961e-01  -1.166770138524236e+01  9.479812206465961e-01  -1.166770138524236e+01  1.540139857312103e-01  63.2737247998919    
3.500000000000000e+00  1.744149641766138e-01  6.277720575082650e+01  9.438982300870751e-01  -1.356603162956388e+01  9.438982300870751e-01  -1.356603162956388e+01  1.770298117325103e-01  63.4022090277382    
4.000000000000000e+00  1.968147978477648e-01  6.241192754801394e+01  9.393232174894767e-01  -1.544612996250536e+01  9.393232174894767e-01  -1.544612996250536e+01  1.997944982882585e-01  63.0740609837103    
4.500000000000000e+00  2.188721232391969e-01  6.171862915974181e+01  9.342182815194620e-01  -1.730472062907943e+01  9.342182815194620e-01  -1.730472062907943e+01  2.222032343990829e-01  62.4227289782176    
5.000000000000000e+00  2.405577848918639e-01  6.083599582631796e+01  9.287615954750033e-01  -1.914443172835101e+01  9.287615954750033e-01  -1.914443172835101e+01  2.442285969168083e-01  61.5846641549879    
5.500000000000000e+00  2.618213301915648e-01  5.980664309231675e+01  9.229234752031389e-01  -2.096300579132621e+01  9.229234752031389e-01  -2.096300579132621e+01  2.658185728687086e-01  60.6021929392721    
6.000000000000000e+00  2.826137489161089e-01  5.865740189443077e+01  9.166653818791024e-01  -2.275788979374078e+01  9.166653818791024e-01  -2.275788979374078e+01  2.869223486182158e-01  59.5020483819188    
6.500000000000000e+00  3.029416495265821e-01  5.744850441647359e+01  9.101575712592671e-01  -2.453174073733287e+01  9.101575712592671e-01  -2.453174073733287e+01  3.075482241313167e-01  58.3431811085236    
7.000000000000000e+00  3.227762909509946e-01  5.618618066681222e+01  9.033661948363618e-01  -2.628267447856292e+01  9.033661948363618e-01  -2.628267447856292e+01  3.276659084414560e-01  57.1319511345151    
7.500000000000001e+00  3.421046370524097e-01  5.488605719423512e+01  8.963215595417980e-01  -2.801027156125804e+01  8.963215595417980e-01  -2.801027156125804e+01  3.472619003642513e-01  55.8837664816375    
8.000000000000000e+00  3.608695667222422e-01  5.354949937580240e+01  8.889943748753779e-01  -2.971063068940813e+01  8.889943748753779e-01  -2.971063068940813e+01  3.662772837890234e-01  54.6002528062154    
8.500000000000000e+00  3.791532446870378e-01  5.220624375149688e+01  8.815272125374057e-01  -3.139011032854479e+01  8.815272125374057e-01  -3.139011032854479e+01  3.847964612623122e-01  53.3101856493091    
9.000000000000000e+00  3.969110809240809e-01  5.085292478412872e+01  8.738918419162567e-01  -3.304541084038692e+01  8.738918419162567e-01  -3.304541084038692e+01  4.027733450626466e-01  52.0105017956759    
9.500000000000000e+00  4.141419382765531e-01  4.949501320285643e+01  8.661143360709486e-01  -3.467639991491961e+01  8.661143360709486e-01  -3.467639991491961e+01  4.202065710283552e-01  50.7065898396908    
1.000000000000000e+01  4.308180734127445e-01  4.812808901457419e+01  8.581574736210197e-01  -3.628066773407297e+01  8.581574736210197e-01  -3.628066773407297e+01  4.370663008739053e-01  49.394333966386     
1.050000000000000e+01  4.469953010262565e-01  4.677312639940475e+01  8.501670266889241e-01  -3.786256724913596e+01  8.501670266889241e-01  -3.786256724913596e+01  4.534118773431418e-01  48.0939291690656    
1.100000000000000e+01  4.632570212085038e-01  4.543388116268892e+01  8.421247974503010e-01  -3.946152101754957e+01  8.421247974503010e-01  -3.946152101754957e+01  4.698322415995231e-01  46.8071904045199    
1.150000000000000e+01  4.784309736527544e-01  4.409209801714049e+01  8.340076304825929e-01  -4.099710431393003e+01  8.340076304825929e-01  -4.099710431393003e+01  4.851410089109473e-01  45.5202147005229    
1.200000000000000e+01  4.930996571273356e-01  4.276024932828629e+01  8.258595157489174e-01  -4.250863975394945e+01  8.258595157489174e-01  -4.250863975394945e+01  4.999274698858116e-01  44.2432957657103    
1.250000000000000e+01  5.070719904543073e-01  4.143981955170032e+01  8.177162996205928e-01  -4.398238280118029e+01  8.177162996205928e-01  -4.398238280118029e+01  5.139987340191058e-01  42.9785347466407    
1.300000000000000e+01  5.207514082102624e-01  4.013217471814657e+01  8.095633596209498e-01  -4.544597818105803e+01  8.095633596209498e-01  -4.544597818105803e+01  5.277619257755929e-01  41.7260033927602    
1.350000000000000e+01  5.339549220702174e-01  3.883790813144341e+01  8.014311354489464e-01  -4.688632335800647e+01  8.014311354489464e-01  -4.688632335800647e+01  5.410324312428108e-01  40.4868945696919    
1.400000000000000e+01  5.466938087412124e-01  3.755770279528038e+01  7.933342422340874e-01  -4.830375910801124e+01  7.933342422340874e-01  -4.830375910801124e+01  5.538216675521050e-01  39.2618707616259    
1.450000000000000e+01  5.589799052036338e-01  3.629207135865943e+01  7.852860682342160e-01  -4.969865808783591e+01  7.852860682342160e-01  -4.969865808783591e+01  5.661416331674375e-01  38.0514261042333    
1.500000000000000e+01  5.706323357922725e-01  3.504313866595563e+01  7.773289292352482e-01  -5.105728970147582e+01  7.773289292352482e-01  -5.105728970147582e+01  5.778094773890797e-01  36.8582922604537    
1.550000000000000e+01  5.820464108840531e-01  3.380791946387989e+01  7.694162745519313e-01  -5.240793941758579e+01  7.694162745519313e-01  -5.240793941758579e+01  5.892248970028920e-01  35.678241719131     
1.600000000000000e+01  5.930456341423924e-01  3.258803473030481e+01  7.615855881454483e-01  -5.373733356410958e+01  7.615855881454483e-01  -5.373733356410958e+01  6.002095604080352e-01  34.5134846254208    
1.650000000000000e+01  6.036429364497393e-01  3.138354491327904e+01  7.538458235533582e-01  -5.504593311336244e+01  7.538458235533582e-01  -5.504593311336244e+01  6.107766135300166e-01  33.3640682116924    
1.700000000000000e+01  6.138512933566029e-01  3.019443773237633e+01  7.462049684589092e-01  -5.633421238799782e+01  7.462049684589092e-01  -5.633421238799782e+01  6.209392540634765e-01  32.2299678476137    
1.750000000000000e+01  6.236836535634313e-01  2.902063953061479e+01  7.386701035138934e-01  -5.760265610669296e+01  7.386701035138934e-01  -5.760265610669296e+01  6.307106579308736e-01  31.1110982691054    