
!*************************************************************************
!! ASITIC Ver 10.20.99.0.0.0
!!  Data generated by the <2Port> command in <slow> mode.
!! Generated on Thu Apr 11 17:21:13 1974
!# Spiral Data:	Name = <SP5>, Polygon Spiral Inductor, Radius = 120.00, Origin = <200.00,200.00>
!# Sides =   8, Metal =   2, Exit Metal =  -1
!# W =  8.00, S =  3.00, N =  2.00
!# Theta =  0.00, Phase =   1
!# Technolog File Data <CMOS.tek> @ <.>
!# Auto-Cell Mode:  <alpha> = 0.050000, <beta> = 0.800000
!# Metal Layers
!# Name=M1        Met=0  Lyr=  1  Mz=48.70  T=0.50  RS=0.07  Col=YELLOW  
!# Name=M2        Met=1  Lyr=  1  Mz=47.60  T=0.50  RS=0.06  Col=LIGHTSKYBLUE1
!# Name=M3        Met=2  Lyr=  1  Mz=46.50  T=0.50  RS=0.06  Col=MEDIUM PURPLE
!# Name=M4        Met=3  Lyr=  1  Mz=45.50  T=0.50  RS=0.06  Col=LIGHT GREEN
!# Name=M5        Met=4  Lyr=  1  Mz=44.00  T=1.00  RS=0.03  Col=GREY    
!# Substrate Layers
!# Lyr=    0  Eps=  12  Rho=  10  DZ=7.5e+02  T=7e+02
!# Lyr=    1  Eps= 3.9  Rho=1e+14  DZ=  50  T=  50
!*************************************************************************
# GHZ S MA S11 mag    S11 phase  S12 mag    S12 phase  S21 mag    S21 phase  S22 mag    S22 phase  
1.000000000000000e+00  1.040805110904117e-01  3.286422123745279e+01  9.175235872452779e-01  -6.757751173265310e+00  9.175235872452779e-01  -6.757751173265310e+00  1.049849077831359e-01  33.7594909734455    
1.500000000000000e+00  1.271934405843092e-01  4.092381314088396e+01  9.148755399055510e-01  -1.012476364439017e+01  9.148755399055510e-01  -1.012476364439017e+01  1.288886216245334e-01  41.9788541645612    
2.000000000000000e+00  1.400122572726745e-01  4.111836657036032e+01  9.124929216149040e-01  -1.417967333380599e+01  9.124929216149040e-01  -1.417967333380599e+01  1.466844571285081e-01  44.6345740776571    
2.500000000000000e+00  1.793918712979419e-01  4.691409863290328e+01  9.067395672429434e-01  -1.683123390148750e+01  9.067395672429434e-01  -1.683123390148750e+01  1.831492349385697e-01  48.3474238120556    
3.000000000000000e+00  2.085703223513095e-01  4.774697886752252e+01  9.012069659860431e-01  -2.003442806190611e+01  9.012069659860431e-01  -2.003442806190611e+01  2.124349512904003e-01  49.0400453139784    
3.500000000000000e+00  9.828274948954687e-01  -1.798807994002829e+02  7.847443971012412e-03  1.277475321518409e+02  7.847443971012412e-03  1.277475321518409e+02  1.000165704330203e+00  179.983420725684    
4.000000000000000e+00  2.631851153717931e-01  4.640172462326793e+01  8.882787369375621e-01  -2.643929630289886e+01  8.882787369375621e-01  -2.643929630289886e+01  2.682182918548972e-01  47.8822647244553    
4.500000000000000e+00  2.930003685786276e-01  4.540428815337720e+01  8.802511139956016e-01  -2.938059588544498e+01  8.802511139956016e-01  -2.938059588544498e+01  2.973839320394289e-01  46.6616446618441    
5.000000000000000e+00  3.183528133869762e-01  4.373181612186785e+01  8.724677555044137e-01  -3.245597359602106e+01  8.724677555044137e-01  -3.245597359602106e+01  3.231880560025328e-01  45.1094206566629    
5.500000000000000e+00  3.393252704755963e-01  4.155520200343542e+01  8.651368134432387e-01  -3.566820519893883e+01  8.651368134432387e-01  -3.566820519893883e+01  3.456211768360470e-01  43.3603197515827    
6.000000000000000e+00  3.627245162631921e-01  3.960425593444904e+01  8.568092020591537e-01  -3.863733151865961e+01  8.568092020591537e-01  -3.863733151865961e+01  3.693035962549450e-01  41.5239626323877    
6.500000000000000e+00  3.850715612928559e-01  3.756281212547828e+01  8.483418170915613e-01  -4.155066036589366e+01  8.483418170915613e-01  -4.155066036589366e+01  3.918628419635192e-01  39.5992908761916    
7.000000000000000e+00  4.078659563009456e-01  3.556523226552834e+01  8.388789510022062e-01  -4.432082929930581e+01  8.388789510022062e-01  -4.432082929930581e+01  4.149254413270140e-01  37.7426697159612    
7.500000000000001e+00  4.265469095511453e-01  3.333230781548608e+01  8.311546597465436e-01  -4.720942053554090e+01  8.311546597465436e-01  -4.720942053554090e+01  4.335423805701688e-01  35.6050044668492    
8.000000000000000e+00  4.376118244372606e-01  3.046330826668095e+01  8.252430196031731e-01  -5.052215368014863e+01  8.252430196031731e-01  -5.052215368014863e+01  4.469963897015465e-01  33.6741459806425    
8.500000000000000e+00  4.637951072667252e-01  2.902441160848962e+01  8.141228773133331e-01  -5.265092809769806e+01  8.141228773133331e-01  -5.265092809769806e+01  4.707075125065743e-01  31.5352110822887    
9.000000000000000e+00  4.758132855370832e-01  2.638345338544162e+01  8.075140212297418e-01  -5.569828819809538e+01  8.075140212297418e-01  -5.569828819809538e+01  4.841971372750996e-01  29.6201201522615    
9.500000000000000e+00  4.970157487840787e-01  2.472828931683187e+01  7.976675231209841e-01  -5.788497587859315e+01  7.976675231209841e-01  -5.788497587859315e+01  5.035659416224243e-01  27.4760425271717    
1.000000000000000e+01  5.173777742890723e-01  2.308628039296055e+01  7.875328526892779e-01  -5.999891760144925e+01  7.875328526892779e-01  -5.999891760144925e+01  5.223342550507879e-01  25.3960900381046    
1.050000000000000e+01  5.275192442768150e-01  2.056392066429432e+01  7.815008096638411e-01  -6.284299186650588e+01  7.815008096638411e-01  -6.284299186650588e+01  5.332723509537979e-01  23.4703521130547    
1.100000000000000e+01  5.398805010450347e-01  1.838602759234531e+01  7.746672636349189e-01  -6.536876647542152e+01  7.746672636349189e-01  -6.536876647542152e+01  5.453657726393111e-01  21.483832703019     
1.150000000000000e+01  5.478715055684432e-01  1.583068730166408e+01  7.698406220524224e-01  -6.821705920266784e+01  7.698406220524224e-01  -6.821705920266784e+01  5.538216532816094e-01  19.605145524011     
1.200000000000000e+01  5.642363894621578e-01  1.426089999289384e+01  7.607359252083652e-01  -7.013500076655812e+01  7.607359252083652e-01  -7.013500076655812e+01  5.686876125076804e-01  17.5861007079474    
1.250000000000000e+01  5.752626194849804e-01  1.223463661039663e+01  7.542475911916900e-01  -7.245773608205846e+01  7.542475911916900e-01  -7.245773608205846e+01  5.791099758771624e-01  15.6711279145771    
1.300000000000000e+01  5.855751173474697e-01  1.023090814184855e+01  7.480946481217471e-01  -7.474180654037193e+01  7.480946481217471e-01  -7.474180654037193e+01  5.887555583403542e-01  13.7770307208502    
1.350000000000000e+01  5.991565161219276e-01  8.729650443711556e+00  7.398701748449179e-01  -7.652724453292404e+01  7.398701748449179e-01  -7.652724453292404e+01  6.010821564837648e-01  11.8279626211605    
1.400000000000000e+01  6.047351090530394e-01  6.339905040184168e+00  7.363810267568014e-01  -7.915089706075102e+01  7.363810267568014e-01  -7.915089706075102e+01  6.063751485814901e-01  10.0517451252004    
1.450000000000000e+01  6.127150473152719e-01  4.365355396173918e+00  7.315258442538479e-01  -8.136744751117755e+01  7.315258442538479e-01  -8.136744751117755e+01  6.135413497628731e-01  8.21931298301638    
1.500000000000000e+01  6.203175719397028e-01  2.438454637181090e+00  7.268765265674237e-01  -8.352800001919942e+01  7.268765265674237e-01  -8.352800001919942e+01  6.202583399359957e-01  6.40323003640632    
1.550000000000000e+01  6.275782864784947e-01  5.507834884232522e-01  7.223804797769621e-01  -8.564343696678969e+01  7.223804797769621e-01  -8.564343696678969e+01  6.265808791180899e-01  4.61093689978       
1.600000000000000e+01  6.265497303756451e-01  -2.578579595439193e+00  7.241892334746909e-01  -8.899120310165469e+01  7.241892334746909e-01  -8.899120310165469e+01  6.242600678798685e-01  3.07756413199013    
1.650000000000000e+01  6.406611861264155e-01  -3.139344512138955e+00  7.142455533795135e-01  -8.976461724654030e+01  7.142455533795135e-01  -8.976461724654030e+01  6.376589462193298e-01  1.07220481766019    
1.700000000000000e+01  6.460266873400881e-01  -5.014162352014130e+00  7.110859718007521e-01  -9.184427147816464e+01  7.110859718007521e-01  -9.184427147816464e+01  6.419267358591005e-01  -0.669343548991865  
1.750000000000000e+01  6.459484425048917e-01  -8.030340251523166e+00  7.128810801608579e-01  -9.507301102226029e+01  7.128810801608579e-01  -9.507301102226029e+01  6.395229694046267e-01  -2.13371191969012   