
!*************************************************************************
!! ASITIC Ver 10.20.99.0.0.0
!!  Data generated by the <2Port> command in <slow> mode.
!! Generated on Thu Apr 11 17:21:13 1974
!# Spiral Data:	Name = <SP1>, Polygon Spiral Inductor, Radius = 60.00, Origin = <200.00,200.00>
!# Sides =   8, Metal =   4, Exit Metal =  -1
!# W =  6.00, S =  2.00, N =  2.00
!# Theta =  0.00, Phase =   1
!# Technolog File Data <CMOS.tek> @ <.>
!# Auto-Cell Mode:  <alpha> = 0.050000, <beta> = 0.800000
!# Metal Layers
!# Name=M1        Met=0  Lyr=  1  Mz=48.70  T=0.50  RS=0.07  Col=YELLOW  
!# Name=M2        Met=1  Lyr=  1  Mz=47.60  T=0.50  RS=0.06  Col=LIGHTSKYBLUE1
!# Name=M3        Met=2  Lyr=  1  Mz=46.50  T=0.50  RS=0.06  Col=MEDIUM PURPLE
!# Name=M4        Met=3  Lyr=  1  Mz=45.50  T=0.50  RS=0.06  Col=LIGHT GREEN
!# Name=M5        Met=4  Lyr=  1  Mz=44.00  T=1.00  RS=0.03  Col=GREY    
!# Substrate Layers
!# Lyr=    0  Eps=  12  Rho=  10  DZ=7.5e+02  T=7e+02
!# Lyr=    1  Eps= 3.9  Rho=1e+14  DZ=  50  T=  50
!*************************************************************************
# GHZ S MA S11 mag    S11 phase  S12 mag    S12 phase  S21 mag    S21 phase  S22 mag    S22 phase  
1.000000000000000e+00  4.134499965374887e-02  4.350752641962535e+01  9.708373852527634e-01  -2.537683816915579e+00  9.708373852527634e-01  -2.537683816915579e+00  4.202090127218574e-02  44.5407638753434    
1.500000000000000e+00  5.308746465992931e-02  5.329740108352773e+01  9.701165103013655e-01  -3.802981117732728e+00  9.701165103013655e-01  -3.802981117732728e+00  5.426855168670356e-02  54.3227130593723    
2.000000000000000e+00  6.601011868953188e-02  5.881307042698447e+01  9.690773814361728e-01  -5.062134517217902e+00  9.690773814361728e-01  -5.062134517217902e+00  6.769033107164757e-02  59.802579752629     
2.500000000000000e+00  7.947953286643313e-02  6.204723696022421e+01  9.678062343339403e-01  -6.317509346467970e+00  9.678062343339403e-01  -6.317509346467970e+00  8.164891728595526e-02  63.0153774262906    
3.000000000000000e+00  9.318864941728021e-02  6.389834860613670e+01  9.662367887722373e-01  -7.565790526126723e+00  9.662367887722373e-01  -7.565790526126723e+00  9.583626357460912e-02  64.8660287638427    
3.500000000000000e+00  1.069801048940216e-01  6.495206104675154e+01  9.644814848170701e-01  -8.808409436016484e+00  9.644814848170701e-01  -8.808409436016484e+00  1.100980387829078e-01  65.9336391006805    
4.000000000000000e+00  1.207723994569707e-01  6.546736474052020e+01  9.625149293001500e-01  -1.004435193773810e+01  9.625149293001500e-01  -1.004435193773810e+01  1.243528204073534e-01  66.4745064807592    
4.500000000000000e+00  1.345010048037220e-01  6.558911732920367e+01  9.602910636214831e-01  -1.127172080670717e+01  9.602910636214831e-01  -1.127172080670717e+01  1.385348956368001e-01  66.6316433556771    
5.000000000000000e+00  1.481552947928240e-01  6.547952185060990e+01  9.579311823755765e-01  -1.249339298236973e+01  9.579311823755765e-01  -1.249339298236973e+01  1.526365868001877e-01  66.5627905695984    
5.500000000000000e+00  1.617071650097353e-01  6.518336352207062e+01  9.553956051287651e-01  -1.370805643482894e+01  9.553956051287651e-01  -1.370805643482894e+01  1.666283411084189e-01  66.3122242490431    
6.000000000000000e+00  1.751335339307321e-01  6.472749535262074e+01  9.526329672002136e-01  -1.491445985187374e+01  9.526329672002136e-01  -1.491445985187374e+01  1.804855834530433e-01  65.9066883506246    
6.500000000000000e+00  1.884359976557028e-01  6.418616617408168e+01  9.497649477539372e-01  -1.611462777050044e+01  9.497649477539372e-01  -1.611462777050044e+01  1.942118828631176e-01  65.4176864680198    
7.000000000000000e+00  2.016025385897210e-01  6.356343241420314e+01  9.467453493173018e-01  -1.730762681658964e+01  9.467453493173018e-01  -1.730762681658964e+01  2.077937960794322e-01  64.8496068605237    
7.500000000000001e+00  2.146265317733980e-01  6.287689578195222e+01  9.435809225059847e-01  -1.849339199146857e+01  9.435809225059847e-01  -1.849339199146857e+01  2.212243181575702e-01  64.2196068215042    
8.000000000000000e+00  2.274675538732577e-01  6.212446774099864e+01  9.402239388629686e-01  -1.966919895614357e+01  9.402239388629686e-01  -1.966919895614357e+01  2.344611173318530e-01  63.5261195444078    
8.500000000000000e+00  2.401848465402044e-01  6.134665900827576e+01  9.367849221311467e-01  -2.083989322159801e+01  9.367849221311467e-01  -2.083989322159801e+01  2.475659178439436e-01  62.8077184004838    
9.000000000000000e+00  2.527444649202140e-01  6.053639658782917e+01  9.332199088625797e-01  -2.200307317618691e+01  9.332199088625797e-01  -2.200307317618691e+01  2.605030549771875e-01  62.0579415775102    
9.500000000000000e+00  2.651425305218815e-01  5.969995661306331e+01  9.295349377030033e-01  -2.315863863516566e+01  9.295349377030033e-01  -2.315863863516566e+01  2.732682968477491e-01  61.2829022659553    
1.000000000000000e+01  2.773596172847523e-01  5.882973168150816e+01  9.256781957714821e-01  -2.430503459505670e+01  9.256781957714821e-01  -2.430503459505670e+01  2.858399974114040e-01  60.4755683466706    
1.050000000000000e+01  2.894208305853116e-01  5.795491757794768e+01  9.217679453219391e-01  -2.544482131244021e+01  9.217679453219391e-01  -2.544482131244021e+01  2.982465155933736e-01  59.6636477902151    
1.100000000000000e+01  3.018159713799650e-01  5.710046432522932e+01  9.178674255387459e-01  -2.660923929470530e+01  9.178674255387459e-01  -2.660923929470530e+01  3.109831220678215e-01  58.8681780884533    
1.150000000000000e+01  3.135630714641258e-01  5.620078282091877e+01  9.137618777987410e-01  -2.773511607587925e+01  9.137618777987410e-01  -2.773511607587925e+01  3.230531971916591e-01  58.032323115646     
1.200000000000000e+01  3.251346386442319e-01  5.529253699699306e+01  9.095653952815171e-01  -2.885290406871348e+01  9.095653952815171e-01  -2.885290406871348e+01  3.349359147513103e-01  57.1883567764594    
1.250000000000000e+01  3.363505595649101e-01  5.437098421105889e+01  9.052650444295316e-01  -2.995102980316034e+01  9.052650444295316e-01  -2.995102980316034e+01  3.464487845451137e-01  56.3326709586903    
1.300000000000000e+01  3.475574792161782e-01  5.345159702234374e+01  9.009049823300217e-01  -3.105181735445903e+01  9.009049823300217e-01  -3.105181735445903e+01  3.579423955636323e-01  55.4783509317835    
1.350000000000000e+01  3.585841504593718e-01  5.252882197840238e+01  8.964716182301704e-01  -3.214427327634280e+01  8.964716182301704e-01  -3.214427327634280e+01  3.692432861340348e-01  54.6209568548235    
1.400000000000000e+01  3.694295882429416e-01  5.160391592005883e+01  8.919706511755858e-01  -3.322833381514626e+01  8.919706511755858e-01  -3.322833381514626e+01  3.803502946549243e-01  53.7617109191165    
1.450000000000000e+01  3.800930917101739e-01  5.067796649827366e+01  8.874077015024082e-01  -3.430394386353727e+01  8.874077015024082e-01  -3.430394386353727e+01  3.912625622427369e-01  52.9016703589871    
1.500000000000000e+01  3.903905235294074e-01  4.974768849456864e+01  8.827784858200529e-01  -3.535903408770519e+01  8.827784858200529e-01  -3.535903408770519e+01  4.017935347273543e-01  52.0387601628046    
1.550000000000000e+01  4.006827357111427e-01  4.882264844597045e+01  8.781094308535161e-01  -3.641714338551491e+01  8.781094308535161e-01  -3.641714338551491e+01  4.123083879602593e-01  51.1800801671439    
1.600000000000000e+01  4.107926380429851e-01  4.789905825862898e+01  8.733947908093634e-01  -3.746669254158493e+01  8.733947908093634e-01  -3.746669254158493e+01  4.226277553627268e-01  50.3230266806471    
1.650000000000000e+01  4.207205752515407e-01  4.697754663623613e+01  8.686397550729296e-01  -3.850766256482798e+01  8.686397550729296e-01  -3.850766256482798e+01  4.327518911422052e-01  49.4682092828278    
1.700000000000000e+01  4.304671227196548e-01  4.605866440110458e+01  8.638493833415942e-01  -3.954004318551496e+01  8.638493833415942e-01  -3.954004318551496e+01  4.426812951669779e-01  48.6161615486997    
1.750000000000000e+01  4.400330743168999e-01  4.514289440199948e+01  8.590285982729420e-01  -4.056383267114499e+01  8.590285982729420e-01  -4.056383267114499e+01  4.524167000355967e-01  47.7673507029588    