
!*************************************************************************
!! ASITIC Ver 10.20.99.0.0.0
!!  Data generated by the <2Port> command in <slow> mode.
!! Generated on Thu Apr 11 17:21:13 1974
!# Spiral Data:	Name = <SP6>, Polygon Spiral Inductor, Radius = 120.00, Origin = <200.00,200.00>
!# Sides =  16, Metal =   4, Exit Metal =  -1
!# W =  8.00, S =  3.00, N =  2.00
!# Theta =  0.00, Phase =   1
!# Technolog File Data <CMOS.tek> @ <.>
!# Auto-Cell Mode:  <alpha> = 0.050000, <beta> = 0.800000
!# Metal Layers
!# Name=M1        Met=0  Lyr=  1  Mz=48.70  T=0.50  RS=0.07  Col=YELLOW  
!# Name=M2        Met=1  Lyr=  1  Mz=47.60  T=0.50  RS=0.06  Col=LIGHTSKYBLUE1
!# Name=M3        Met=2  Lyr=  1  Mz=46.50  T=0.50  RS=0.06  Col=MEDIUM PURPLE
!# Name=M4        Met=3  Lyr=  1  Mz=45.50  T=0.50  RS=0.06  Col=LIGHT GREEN
!# Name=M5        Met=4  Lyr=  1  Mz=44.00  T=1.00  RS=0.03  Col=GREY    
!# Substrate Layers
!# Lyr=    0  Eps=  12  Rho=  10  DZ=7.5e+02  T=7e+02
!# Lyr=    1  Eps= 3.9  Rho=1e+14  DZ=  50  T=  50
!*************************************************************************
# GHZ S MA S11 mag    S11 phase  S12 mag    S12 phase  S21 mag    S21 phase  S22 mag    S22 phase  
1.000000000000000e+00  9.285143386280457e-02  5.286001932036022e+01  9.498778169505274e-01  -6.821464361309610e+00  9.498778169505274e-01  -6.821464361309610e+00  9.334324895178732e-02  53.149098533586     
1.500000000000000e+00  1.283994473711556e-01  5.832623201094982e+01  9.457339041400459e-01  -1.019973471888639e+01  9.457339041400459e-01  -1.019973471888639e+01  1.292007247546674e-01  58.624326608422     
2.000000000000000e+00  1.648554052820196e-01  5.982097859760466e+01  9.400496640075101e-01  -1.353913490478692e+01  9.400496640075101e-01  -1.353913490478692e+01  1.659469294841727e-01  60.139284786807     
2.500000000000000e+00  2.010480279085649e-01  5.953257145470003e+01  9.330251289721992e-01  -1.683294711358862e+01  9.330251289721992e-01  -1.683294711358862e+01  2.024113540894363e-01  59.8799208076026    
3.000000000000000e+00  2.364785243291367e-01  5.834241013854874e+01  9.248671473681037e-01  -2.007693500435652e+01  9.248671473681037e-01  -2.007693500435652e+01  2.380952480833051e-01  58.7241598318616    
3.500000000000000e+00  2.708275383238490e-01  5.662862601910398e+01  9.156380140383320e-01  -2.326259079667978e+01  9.156380140383320e-01  -2.326259079667978e+01  2.726768165061857e-01  57.0486129431813    
4.000000000000000e+00  3.039642059977625e-01  5.462928487096026e+01  9.055906740786268e-01  -2.638992175879395e+01  9.055906740786268e-01  -2.638992175879395e+01  3.060254194603313e-01  55.0895655009155    
4.500000000000000e+00  3.357438426317590e-01  5.244343852799951e+01  8.947701826737797e-01  -2.945261070805334e+01  8.947701826737797e-01  -2.945261070805334e+01  3.379935351473502e-01  52.9457874336539    
5.000000000000000e+00  3.661420584219508e-01  5.016381825748909e+01  8.834120372314901e-01  -3.245224009838812e+01  8.834120372314901e-01  -3.245224009838812e+01  3.685574893597585e-01  50.7090759957599    
5.500000000000000e+00  3.950873574112786e-01  4.782040419746534e+01  8.715480388856458e-01  -3.538429180742342e+01  8.715480388856458e-01  -3.538429180742342e+01  3.976430713965094e-01  48.4094802503791    
6.000000000000000e+00  4.226014418852551e-01  4.545937197913970e+01  8.593919082960906e-01  -3.825110457951324e+01  8.593919082960906e-01  -3.825110457951324e+01  4.252734052366655e-01  46.0925865269208    
6.500000000000000e+00  4.486763304787978e-01  4.309445408177120e+01  8.470073735665854e-01  -4.105128524613882e+01  8.470073735665854e-01  -4.105128524613882e+01  4.514392232371331e-01  43.7721317878478    
7.000000000000000e+00  4.733123686696888e-01  4.073414883290501e+01  8.344441752294238e-01  -4.378353984229951e+01  8.344441752294238e-01  -4.378353984229951e+01  4.761392345006382e-01  41.4566542684068    
7.500000000000001e+00  4.965765537619672e-01  3.840100243368784e+01  8.218876772490955e-01  -4.645171459875932e+01  8.218876772490955e-01  -4.645171459875932e+01  4.994431047958794e-01  39.1682836555524    
8.000000000000000e+00  5.184948775003270e-01  3.609591602273430e+01  8.093697568575176e-01  -4.905568645100192e+01  8.093697568575176e-01  -4.905568645100192e+01  5.213757257431652e-01  36.9079943872931    
8.500000000000000e+00  5.390676916110162e-01  3.382087326828027e+01  7.969350004318707e-01  -5.159342360575451e+01  7.969350004318707e-01  -5.159342360575451e+01  5.419362188950596e-01  34.6778755562626    
9.000000000000000e+00  5.584387599849190e-01  3.158480417322235e+01  7.846913556298479e-01  -5.407351321804265e+01  7.846913556298479e-01  -5.407351321804265e+01  5.612714681227065e-01  32.48646868593      
9.500000000000000e+00  5.766199633521154e-01  2.938670132354341e+01  7.726656877908404e-01  -5.649467609886842e+01  7.726656877908404e-01  -5.649467609886842e+01  5.793924856632605e-01  30.3328776364576    
1.000000000000000e+01  5.936687076016041e-01  2.722757066957457e+01  7.609007251441500e-01  -5.885903921815721e+01  7.609007251441500e-01  -5.885903921815721e+01  5.963571593690419e-01  28.2180640779777    
1.050000000000000e+01  6.096156369137566e-01  2.510426780234203e+01  7.493941441860040e-01  -6.116666395504585e+01  7.493941441860040e-01  -6.116666395504585e+01  6.121945523410171e-01  26.1389852903439    
1.100000000000000e+01  6.250337691602209e-01  2.302209854043320e+01  7.382363002353706e-01  -6.346034980331968e+01  7.382363002353706e-01  -6.346034980331968e+01  6.274947273666267e-01  24.099007501442     
1.150000000000000e+01  6.390398136671445e-01  2.097883853809050e+01  7.274353073148322e-01  -6.566918681180270e+01  7.274353073148322e-01  -6.566918681180270e+01  6.413492420402166e-01  22.0991657692624    
1.200000000000000e+01  6.520232263463289e-01  1.897552948270144e+01  7.170241717047484e-01  -6.782099520420108e+01  7.170241717047484e-01  -6.782099520420108e+01  6.541569779557544e-01  20.1392834748415    
1.250000000000000e+01  6.642689485643154e-01  1.700650681468880e+01  7.069697922690291e-01  -6.993666508363840e+01  7.069697922690291e-01  -6.993666508363840e+01  6.662082441970570e-01  18.2129797271981    
1.300000000000000e+01  6.757127503320819e-01  1.507267285842814e+01  6.973043386334478e-01  -7.200937627810659e+01  6.973043386334478e-01  -7.200937627810659e+01  6.774370826822120e-01  16.3214588339387    
1.350000000000000e+01  6.864029796376488e-01  1.317265683535921e+01  6.880340419677536e-01  -7.404140141936512e+01  6.880340419677536e-01  -7.404140141936512e+01  6.878923991576784e-01  14.4633194310603    
1.400000000000000e+01  6.962806306150495e-01  1.130795069798243e+01  6.791867071736830e-01  -7.602596656019598e+01  6.791867071736830e-01  -7.602596656019598e+01  6.975127417638373e-01  12.6403907246039    
1.450000000000000e+01  7.055979819007859e-01  9.471394116711011e+00  6.707147581016135e-01  -7.798305103107958e+01  6.707147581016135e-01  -7.798305103107958e+01  7.065566678683057e-01  10.844765658636     
1.500000000000000e+01  7.142911192661154e-01  7.664241891225309e+00  6.626414105657117e-01  -7.990592193838189e+01  6.626414105657117e-01  -7.990592193838189e+01  7.149580202052770e-01  9.0780195608357     
1.550000000000000e+01  7.223978283051817e-01  5.884999501030430e+00  6.549641889944449e-01  -8.179659363875122e+01  6.549641889944449e-01  -8.179659363875122e+01  7.227550913147101e-01  7.338628353476      
1.600000000000000e+01  7.298606543728715e-01  4.135480749058466e+00  6.477010511108504e-01  -8.364855996471762e+01  6.477010511108504e-01  -8.364855996471762e+01  7.298874372478308e-01  5.62875913652426    
1.650000000000000e+01  7.368978643601533e-01  2.407808577230059e+00  6.408031069801299e-01  -8.548046440805923e+01  6.408031069801299e-01  -8.548046440805923e+01  7.365805217091502e-01  3.93975661114398    
1.700000000000000e+01  7.434471199613388e-01  7.036901889681121e-01  6.342869183444321e-01  -8.728576396872991e+01  6.342869183444321e-01  -8.728576396872991e+01  7.427692332741478e-01  2.27366399104872    
1.750000000000000e+01  7.495365768528900e-01  -9.782604309126506e-01  6.281462560672370e-01  -8.906616866487515e+01  6.281462560672370e-01  -8.906616866487515e+01  7.484821877992275e-01  0.629064860493967   