
!*************************************************************************
!! ASITIC Ver 10.20.99.0.0.0
!!  Data generated by the <2Port> command in <slow> mode.
!! Generated on Thu Apr 11 17:21:13 1974
!# Spiral Data:	Name = <SQ_260>, Square Spiral Inductor
!# L1 = 260.00, L2 = 260.00, Origin = <100.00,120.00>
!# Sides =   4, Metal =   2, Exit Metal =   1
!# W = 10.00, S =  4.00, N =  2.25
!# Theta =  0.00, Phase =   1
!# Technolog File Data <BiCMOS.tek> @ <.>
!# Auto-Cell Mode:  <alpha> = 0.050000, <beta> = 0.800000
!# Metal Layers
!# Name=MSUB      Met=0  Lyr=  1  Mz=50.00  T=0.40  RS=0.04  Col=BLUE    
!# Name=M2        Met=1  Lyr=  2  Mz=47.00  T=0.80  RS=0.05  Col=GREEN   
!# Name=M3        Met=2  Lyr=  2  Mz=45.00  T=2.00  RS=0.02  Col=RED     
!# Substrate Layers
!# Lyr=    0  Eps=  12  Rho=1e+05  DZ=8.5e+02  T=8e+02
!# Lyr=    1  Eps=  12  Rho=1e+03  DZ=  52  T=   2
!# Lyr=    2  Eps=   4  Rho=1e+14  DZ=  50  T=  50
!*************************************************************************
# GHZ S MA S11 mag    S11 phase  S12 mag    S12 phase  S21 mag    S21 phase  S22 mag    S22 phase  
1.000000000000000e+00  1.334993635712411e-01  6.669556727723452e+01  9.317239985689065e-01  -1.147956763985045e+01  9.317239985689065e-01  -1.147956763985045e+01  1.370999493318695e-01  66.615801277019     
1.500000000000000e+00  2.009115267149889e-01  6.872664589383989e+01  9.082644794272259e-01  -1.666952949510649e+01  9.082644794272259e-01  -1.666952949510649e+01  2.056599883805455e-01  68.5535950356332    
2.000000000000000e+00  2.691380413433888e-01  6.698232366333743e+01  8.816563352269906e-01  -2.155435209584478e+01  8.816563352269906e-01  -2.155435209584478e+01  2.748609468333614e-01  66.830260484449     
2.500000000000000e+00  3.347009179043259e-01  6.388212588789683e+01  8.529141708276066e-01  -2.620172584538298e+01  8.529141708276066e-01  -2.620172584538298e+01  3.412765644481442e-01  63.7842075327878    
3.000000000000000e+00  3.961684594891639e-01  6.027460490260673e+01  8.222309457853370e-01  -3.065422894479813e+01  8.222309457853370e-01  -3.065422894479813e+01  4.035360850184658e-01  60.2396281352998    
3.500000000000000e+00  4.528769200138216e-01  5.655014384852244e+01  7.901564884983338e-01  -3.491973709285702e+01  7.901564884983338e-01  -3.491973709285702e+01  4.609396556069583e-01  56.5776299249903    
4.000000000000000e+00  5.086766188695457e-01  5.261229496788344e+01  7.549613976814865e-01  -3.931101554094350e+01  7.549613976814865e-01  -3.931101554094350e+01  5.173893484041926e-01  52.7024720499294    
4.500000000000000e+00  5.558319386426549e-01  4.899968349868794e+01  7.207638088117685e-01  -4.324883139952864e+01  7.207638088117685e-01  -4.324883139952864e+01  5.650777910915492e-01  49.1465274951199    
5.000000000000000e+00  5.982610980086323e-01  4.552039059706166e+01  6.862185215989145e-01  -4.700840741389653e+01  6.862185215989145e-01  -4.700840741389653e+01  6.079728920604829e-01  45.7217100429654    
5.500000000000000e+00  6.363996802699494e-01  4.219592262977935e+01  6.517566974229025e-01  -5.060696468336483e+01  6.517566974229025e-01  -5.060696468336483e+01  6.464848707131363e-01  42.4488366085672    
6.000000000000000e+00  6.704400947799404e-01  3.902293479654647e+01  6.175771918042250e-01  -5.404216073260312e+01  6.175771918042250e-01  -5.404216073260312e+01  6.808342227850871e-01  39.3257996960375    
6.500000000000000e+00  7.008724871793006e-01  3.600242392096050e+01  5.839546029367479e-01  -5.733627263832958e+01  5.839546029367479e-01  -5.733627263832958e+01  7.114923285114647e-01  36.3528829762292    
7.000000000000000e+00  7.279675186646326e-01  3.312592222742257e+01  5.510185660798537e-01  -6.049473329867212e+01  5.510185660798537e-01  -6.049473329867212e+01  7.387452886601343e-01  33.5222826070913    
7.500000000000001e+00  7.519641044715751e-01  3.038644504302246e+01  5.188873455607568e-01  -6.351995878297816e+01  5.188873455607568e-01  -6.351995878297816e+01  7.628455729230839e-01  30.8277163917567    
8.000000000000000e+00  7.733307842620118e-01  2.777404931885898e+01  4.876336840390010e-01  -6.644094939144729e+01  4.876336840390010e-01  -6.644094939144729e+01  7.842473023865634e-01  28.2583390896394    
8.500000000000000e+00  7.922645559986550e-01  2.528032736895001e+01  4.573003089198823e-01  -6.926159612721133e+01  4.573003089198823e-01  -6.926159612721133e+01  8.031608182814097e-01  25.806337082422     
9.000000000000000e+00  8.089399052366151e-01  2.289837910996545e+01  4.279249405764141e-01  -7.198363684061810e+01  4.279249405764141e-01  -7.198363684061810e+01  8.197716756160895e-01  23.4654219288896    
9.500000000000000e+00  8.237369829049753e-01  2.061652189078324e+01  3.994777822860624e-01  -7.463895457053670e+01  3.994777822860624e-01  -7.463895457053670e+01  8.344486932537060e-01  21.2229170319392    
1.000000000000000e+01  8.367825801873237e-01  1.842829320177086e+01  3.719599266269675e-01  -7.723065570344835e+01  3.719599266269675e-01  -7.723065570344835e+01  8.473293203366444e-01  19.0729045434696    
1.050000000000000e+01  8.485886724611538e-01  1.628159586809953e+01  3.447255670468304e-01  -7.983919913996039e+01  3.447255670468304e-01  -7.983919913996039e+01  8.589233306351165e-01  16.9630566585866    
1.100000000000000e+01  8.586224609603195e-01  1.425913814827063e+01  3.189918450467559e-01  -8.234500083431659e+01  3.189918450467559e-01  -8.234500083431659e+01  8.687093460582387e-01  14.9765256265452    
1.150000000000000e+01  8.673858277848402e-01  1.230962976171631e+01  2.941070326437450e-01  -8.482927654993507e+01  2.941070326437450e-01  -8.482927654993507e+01  8.771879184483722e-01  13.0618342092535    
1.200000000000000e+01  8.749291023396532e-01  1.043149841381687e+01  2.700913134912847e-01  -8.729182492735315e+01  2.700913134912847e-01  -8.729182492735315e+01  8.844161062576812e-01  11.2179219166961    
1.250000000000000e+01  8.815112181800477e-01  8.610900879063500e+00  2.468031298307462e-01  -8.978570542534591e+01  2.468031298307462e-01  -8.978570542534591e+01  8.906454038276121e-01  9.42990267636892    
1.300000000000000e+01  8.871536733446957e-01  6.847003341721972e+00  2.242605536298931e-01  -9.231953709119982e+01  2.242605536298931e-01  -9.231953709119982e+01  8.959038601735402e-01  7.69742459581488    
1.350000000000000e+01  8.919415194635492e-01  5.135272905747953e+00  2.024320666165027e-01  -9.492448208192094e+01  2.024320666165027e-01  -9.492448208192094e+01  9.002781282785044e-01  6.01592587043807    
1.400000000000000e+01  8.958887898725097e-01  3.476040540537773e+00  1.813458051750345e-01  -9.761879432033274e+01  1.813458051750345e-01  -9.761879432033274e+01  9.037867718376212e-01  4.38619310083407    
1.450000000000000e+01  8.991845450241241e-01  1.856705251445063e+00  1.608687249100652e-01  -1.005029933181283e+02  1.608687249100652e-01  -1.005029933181283e+02  9.066137984800329e-01  2.79461184249156    
1.500000000000000e+01  9.003137420407586e-01  8.321848299078449e-01  1.491776645505157e-01  -1.023553284724743e+02  1.491776645505157e-01  -1.023553284724743e+02  9.072357465579505e-01  1.77173391036318    
1.550000000000000e+01  9.027624728436848e-01  9.415195851103416e-03  1.409581223861563e-01  -1.046858354157411e+02  1.409581223861563e-01  -1.046858354157411e+02  9.082800334588532e-01  0.85276944955282    
1.600000000000000e+01  9.039630370655617e-01  -1.260889933788321e+00  1.256428061719518e-01  -1.073968757683275e+02  1.256428061719518e-01  -1.073968757683275e+02  9.075288449568492e-01  -0.507831278968418  
1.650000000000000e+01  9.053012634509854e-01  -2.688408637332273e+00  1.083359835595271e-01  -1.111689885085669e+02  1.083359835595271e-01  -1.111689885085669e+02  9.084623750683760e-01  -1.91640179579712   
1.700000000000000e+01  9.070266798995682e-01  -4.680608780648480e+00  8.322542738014262e-02  -1.186219248925049e+02  8.322542738014262e-02  -1.186219248925049e+02  9.079574627219817e-01  -4.03742416059114   
1.750000000000000e+01  9.072878891056151e-01  -6.084593981545099e+00  6.718402761632376e-02  -1.256105945539415e+02  6.718402761632376e-02  -1.256105945539415e+02  9.077560419198966e-01  -5.43200385796831   