
!*************************************************************************
!! ASITIC Ver 10.20.99.0.0.0
!!  Data generated by the <2Port> command in <slow> mode.
!! Generated on Thu Apr 11 17:21:13 1974
!# Spiral Data:	Name = <SQ_300>, Square Spiral Inductor
!# L1 = 300.00, L2 = 300.00, Origin = <100.00,100.00>
!# Sides =   4, Metal =   2, Exit Metal =   1
!# W =  8.00, S =  2.00, N =  4.00
!# Theta =  0.00, Phase =   1
!# Technolog File Data <BiCMOS.tek> @ <.>
!# Auto-Cell Mode:  <alpha> = 0.050000, <beta> = 0.800000
!# Metal Layers
!# Name=MSUB      Met=0  Lyr=  1  Mz=50.00  T=0.40  RS=0.04  Col=BLUE    
!# Name=M2        Met=1  Lyr=  2  Mz=47.00  T=0.80  RS=0.05  Col=GREEN   
!# Name=M3        Met=2  Lyr=  2  Mz=45.00  T=2.00  RS=0.02  Col=RED     
!# Substrate Layers
!# Lyr=    0  Eps=  12  Rho=1e+05  DZ=8.5e+02  T=8e+02
!# Lyr=    1  Eps=  12  Rho=1e+03  DZ=  52  T=   2
!# Lyr=    2  Eps=   4  Rho=1e+14  DZ=  50  T=  50
!*************************************************************************
# GHZ S MA S11 mag    S11 phase  S12 mag    S12 phase  S21 mag    S21 phase  S22 mag    S22 phase  
1.000000000000000e+00  4.144355203130737e-01  5.138715190376384e+01  7.921552850410432e-01  -3.001060911880894e+01  7.921552850410432e-01  -3.001060911880894e+01  4.191909720265751e-01  51.5757041508344    
1.500000000000000e+00  5.593742670364661e-01  4.437382503370718e+01  6.973147186811538e-01  -4.195800047230068e+01  6.973147186811538e-01  -4.195800047230068e+01  5.658954781570256e-01  44.5766798833118    
2.000000000000000e+00  6.649942766508993e-01  3.720604128718235e+01  6.033403331739172e-01  -5.185756122553811e+01  6.033403331739172e-01  -5.185756122553811e+01  6.727734354939324e-01  37.4333539267652    
2.500000000000000e+00  7.393686688626301e-01  3.087344084962728e+01  5.177189907736321e-01  -6.012392311951972e+01  5.177189907736321e-01  -6.012392311951972e+01  7.480061470904583e-01  31.1305487617894    
3.000000000000000e+00  7.916432771404313e-01  2.547535552933249e+01  4.427045475326843e-01  -6.719115713331085e+01  4.427045475326843e-01  -6.719115713331085e+01  8.008101380040885e-01  25.7632366521063    
3.500000000000000e+00  8.286091607600953e-01  2.085467949072747e+01  3.774193416995226e-01  -7.340346738031678e+01  3.774193416995226e-01  -7.340346738031678e+01  8.380851002445900e-01  21.1750573954786    
4.000000000000000e+00  8.567776155132416e-01  1.670779726846298e+01  3.184726168071647e-01  -7.940904703997231e+01  3.184726168071647e-01  -7.940904703997231e+01  8.663840336303209e-01  17.05876634723      
4.500000000000000e+00  8.756882474683676e-01  1.321183899792005e+01  2.687376420255279e-01  -8.479257160440999e+01  2.687376420255279e-01  -8.479257160440999e+01  8.852900266381353e-01  13.5950478084041    
5.000000000000000e+00  8.894361272083413e-01  1.009887954462451e+01  2.247729753801500e-01  -9.013735927587656e+01  2.247729753801500e-01  -9.013735927587656e+01  8.989201650297982e-01  10.5134507528745    
5.500000000000000e+00  8.993256538128497e-01  7.289722627868864e+00  1.856099597233750e-01  -9.570021145956619e+01  1.856099597233750e-01  -9.570021145956619e+01  9.086038020649259e-01  7.73510635246132    
6.000000000000000e+00  9.062414869803477e-01  4.725958146008169e+00  1.505559283308141e-01  -1.018237752510009e+02  1.505559283308141e-01  -1.018237752510009e+02  9.152402932582573e-01  5.20196360307727    
6.500000000000000e+00  9.109918739532300e-01  2.357074086885176e+00  1.191612321880135e-01  -1.091583725479939e+02  1.191612321880135e-01  -1.091583725479939e+02  9.196413996491074e-01  2.86216613652974    
7.000000000000000e+00  9.139807413183002e-01  1.490566200886890e-01  9.138334159835945e-02  -1.187766120746559e+02  9.138334159835945e-02  -1.187766120746559e+02  9.222200316604918e-01  0.682037332434669   
7.500000000000001e+00  9.154938762995084e-01  -1.923046594850271e+00  6.785380257589713e-02  -1.327767083280405e+02  6.785380257589713e-02  -1.327767083280405e+02  9.232658606972941e-01  -1.36304176632871   
8.000000000000000e+00  9.158969157743717e-01  -3.887186267601887e+00  5.071122958695478e-02  -1.550445539315287e+02  5.071122958695478e-02  -1.550445539315287e+02  9.231471838034282e-01  -3.3022949891944    
8.500000000000000e+00  9.153212136044521e-01  -5.758305342609042e+00  4.429367217512675e-02  1.731729383979280e+02  4.429367217512675e-02  1.731729383979280e+02  9.219976068657924e-01  -5.15038284700015   
9.000000000000000e+00  9.139084158659669e-01  -7.550713878551057e+00  5.049807962557999e-02  1.430827957319563e+02  5.049807962557999e-02  1.430827957319563e+02  9.199597926156844e-01  -6.92186131674163   
9.500000000000000e+00  9.117165180822450e-01  -9.272451968142775e+00  6.442899518943690e-02  1.232573346617200e+02  6.442899518943690e-02  1.232573346617200e+02  9.170891344136198e-01  -8.62449952877641   
1.000000000000000e+01  9.089261881360424e-01  -1.094007133979960e+01  8.150883874159323e-02  1.109365832297582e+02  8.150883874159323e-02  1.109365832297582e+02  9.135712612472041e-01  -10.2761838562734   
1.050000000000000e+01  9.056219681212168e-01  -1.258534166835340e+01  9.998603018440537e-02  1.026382062506335e+02  9.998603018440537e-02  1.026382062506335e+02  9.094690004677795e-01  -11.9114565768131   
1.100000000000000e+01  9.017009457964335e-01  -1.416278208171995e+01  1.182021095359037e-01  9.661515722377798e+01  1.182021095359037e-01  9.661515722377798e+01  9.047124440133988e-01  -13.4796874678013   
1.150000000000000e+01  8.972314067220289e-01  -1.569770037988770e+01  1.361448593569383e-01  9.187563120321499e+01  1.361448593569383e-01  9.187563120321499e+01  8.993480469352414e-01  -15.0084835869895   
1.200000000000000e+01  8.923388614265574e-01  -1.720600445966215e+01  1.538693792390940e-01  8.796868475271904e+01  1.538693792390940e-01  8.796868475271904e+01  8.935062923570236e-01  -16.5155705972181   
1.250000000000000e+01  8.869949154421477e-01  -1.868656124027594e+01  1.712351709999103e-01  8.461006124798460e+01  1.712351709999103e-01  8.461006124798460e+01  8.871521772946280e-01  -17.9996848990323   
1.300000000000000e+01  8.834484707149880e-01  -1.962971672356773e+01  1.806705790488376e-01  8.296300981719547e+01  1.806705790488376e-01  8.296300981719547e+01  8.842565691323584e-01  -18.8967482043786   
1.350000000000000e+01  8.789817642654352e-01  -2.070428811429571e+01  1.921917958711147e-01  8.100537356848312e+01  1.921917958711147e-01  8.100537356848312e+01  8.789031987951079e-01  -19.9997786341149   
1.400000000000000e+01  8.732877619877453e-01  -2.197684643445959e+01  2.065511783367221e-01  7.871269227164544e+01  2.065511783367221e-01  7.871269227164544e+01  8.715389220171671e-01  -21.3271174121619   
1.450000000000000e+01  8.656498951304289e-01  -2.352442604546475e+01  2.247181894852053e-01  7.594583703716619e+01  2.247181894852053e-01  7.594583703716619e+01  8.618409990122177e-01  -22.9668828026401   
1.500000000000000e+01  8.571490987342321e-01  -2.507538818950777e+01  2.426910546640569e-01  7.324671002028789e+01  2.426910546640569e-01  7.324671002028789e+01  8.514677198399779e-01  -24.5992355595317   
1.550000000000000e+01  8.482589123807625e-01  -2.669779495545744e+01  2.614502347330524e-01  7.067794790113905e+01  2.614502347330524e-01  7.067794790113905e+01  8.413130132563499e-01  -26.2929084867349   
1.600000000000000e+01  8.399665572701356e-01  -2.805857903088626e+01  2.763239136771064e-01  6.861390515966619e+01  2.763239136771064e-01  6.861390515966619e+01  8.317573256932941e-01  -27.69614317248     
1.650000000000000e+01  8.304720991929954e-01  -2.970126335382907e+01  2.946953434840460e-01  6.636231492191472e+01  2.946953434840460e-01  6.636231492191472e+01  8.219396861064830e-01  -29.3280241782294   
1.700000000000000e+01  8.213472022856861e-01  -3.105396042864906e+01  3.090291638232080e-01  6.446741155287071e+01  3.090291638232080e-01  6.446741155287071e+01  8.114735673909305e-01  -30.7313568385577   