
!*************************************************************************
!! ASITIC Ver 10.20.99.0.0.0
!!  Data generated by the <2Port> command in <slow> mode.
!! Generated on Thu Apr 11 17:21:13 1974
!# Spiral Data:	Name = <SQ_170>, Square Spiral Inductor
!# L1 = 170.00, L2 = 170.00, Origin = <200.00,200.00>
!# Sides =   4, Metal =   2, Exit Metal =   1
!# W = 10.00, S =  3.00, N =  2.00
!# Theta =  0.00, Phase =   1
!# Technolog File Data <BiCMOS.tek> @ <.>
!# Auto-Cell Mode:  <alpha> = 0.050000, <beta> = 0.800000
!# Metal Layers
!# Name=MSUB      Met=0  Lyr=  1  Mz=50.00  T=0.40  RS=0.04  Col=BLUE    
!# Name=M2        Met=1  Lyr=  2  Mz=47.00  T=0.80  RS=0.05  Col=GREEN   
!# Name=M3        Met=2  Lyr=  2  Mz=45.00  T=2.00  RS=0.02  Col=RED     
!# Substrate Layers
!# Lyr=    0  Eps=  12  Rho=1e+05  DZ=8.5e+02  T=8e+02
!# Lyr=    1  Eps=  12  Rho=1e+03  DZ=  52  T=   2
!# Lyr=    2  Eps=   4  Rho=1e+14  DZ=  50  T=  50
!*************************************************************************
# GHZ S MA S11 mag    S11 phase  S12 mag    S12 phase  S21 mag    S21 phase  S22 mag    S22 phase  
1.000000000000000e+00  5.742202579116152e-02  6.342630001005682e+01  9.660688214751264e-01  -5.424185201066684e+00  9.660688214751264e-01  -5.424185201066684e+00  5.985100354221228e-02  63.4431151936998    
1.500000000000000e+00  8.392900307865643e-02  7.125289225712078e+01  9.582091373422114e-01  -7.982963305387552e+00  9.582091373422114e-01  -7.982963305387552e+00  8.716634221919928e-02  70.9556074158946    
2.000000000000000e+00  1.130392426581505e-01  7.430956855429221e+01  9.489705150202747e-01  -1.042004606882627e+01  9.489705150202747e-01  -1.042004606882627e+01  1.169727331937344e-01  73.9004836802982    
2.500000000000000e+00  1.434950392044910e-01  7.508611217043477e+01  9.390885853455457e-01  -1.275110112711090e+01  9.390885853455457e-01  -1.275110112711090e+01  1.480210781870770e-01  74.6571989004399    
3.000000000000000e+00  1.745896034697399e-01  7.462031281081417e+01  9.287511721708206e-01  -1.500991112428061e+01  9.287511721708206e-01  -1.500991112428061e+01  1.796748360108570e-01  74.2191781420741    
3.500000000000000e+00  2.056576103386606e-01  7.350019475258337e+01  9.181774087940922e-01  -1.720801129950924e+01  9.181774087940922e-01  -1.720801129950924e+01  2.112447177236675e-01  73.1474085696278    
4.000000000000000e+00  2.397126983817423e-01  7.184818132619601e+01  9.067222441945089e-01  -1.957292778068431e+01  9.067222441945089e-01  -1.957292778068431e+01  2.458035005197726e-01  71.5605637935911    
4.500000000000000e+00  2.702385438353732e-01  7.011122465848717e+01  8.953537716613601e-01  -2.171810706863279e+01  8.953537716613601e-01  -2.171810706863279e+01  2.767870764107272e-01  69.8837236857385    
5.000000000000000e+00  3.000152349184403e-01  6.824537220610127e+01  8.835265163137362e-01  -2.383116969424960e+01  8.835265163137362e-01  -2.383116969424960e+01  3.070214547744888e-01  68.0788032910011    
5.500000000000000e+00  3.289810260110190e-01  6.633077965389930e+01  8.713529043956074e-01  -2.591426511538622e+01  8.713529043956074e-01  -2.591426511538622e+01  3.364109807842522e-01  66.2232475097302    
6.000000000000000e+00  3.570346934343898e-01  6.438137253099215e+01  8.587080887020841e-01  -2.796679904800532e+01  8.587080887020841e-01  -2.796679904800532e+01  3.648863713504407e-01  64.3316546821602    
6.500000000000000e+00  3.841918569496275e-01  6.243662914345801e+01  8.457212733815216e-01  -2.999061879394078e+01  8.457212733815216e-01  -2.999061879394078e+01  3.924320494672199e-01  62.441991441318     
7.000000000000000e+00  4.104071154788576e-01  6.050145998436858e+01  8.323568093652329e-01  -3.198449837476538e+01  8.323568093652329e-01  -3.198449837476538e+01  4.190165781785398e-01  60.559776882219     
7.500000000000001e+00  4.356117063018706e-01  5.857947820265554e+01  8.185963867986641e-01  -3.394458841880132e+01  8.185963867986641e-01  -3.394458841880132e+01  4.445843001166022e-01  58.6895310706876    
8.000000000000000e+00  4.599072896087958e-01  5.668778768080875e+01  8.045681353140687e-01  -3.587622966035291e+01  8.045681353140687e-01  -3.587622966035291e+01  4.692084824734805e-01  56.8469704892186    
8.500000000000000e+00  4.832469604770243e-01  5.482465798904479e+01  7.902627656871563e-01  -3.777621028727958e+01  7.902627656871563e-01  -3.777621028727958e+01  4.928551383829901e-01  55.031237884526     
9.000000000000000e+00  5.055725144513546e-01  5.298907239695460e+01  7.756814468823476e-01  -3.963993346839789e+01  7.756814468823476e-01  -3.963993346839789e+01  5.154780180656667e-01  53.2423417263787    
9.500000000000000e+00  5.270209529243778e-01  5.119026840612788e+01  7.609394487097777e-01  -4.147500784298613e+01  7.609394487097777e-01  -4.147500784298613e+01  5.371890384446855e-01  51.4879714434399    
1.000000000000000e+01  5.475482462115341e-01  4.942536174152900e+01  7.460368878319084e-01  -4.327762905792444e+01  7.460368878319084e-01  -4.327762905792444e+01  5.579561612131371e-01  49.7661750336253    
1.050000000000000e+01  5.680233905763407e-01  4.763541070958013e+01  7.304566230268392e-01  -4.511642420337672e+01  7.304566230268392e-01  -4.511642420337672e+01  5.786544732980164e-01  48.0186564920303    
1.100000000000000e+01  5.867666145340396e-01  4.593778225264555e+01  7.153053438921175e-01  -4.685597741308101e+01  7.153053438921175e-01  -4.685597741308101e+01  5.975911068470726e-01  46.3617854514207    
1.150000000000000e+01  6.046479017255603e-01  4.427494315099220e+01  7.001010321347714e-01  -4.856330089209284e+01  7.001010321347714e-01  -4.856330089209284e+01  6.156429835938744e-01  44.7386720394725    
1.200000000000000e+01  6.215819308990095e-01  4.264744235426045e+01  6.848770309636232e-01  -5.022999512367038e+01  6.848770309636232e-01  -5.022999512367038e+01  6.327348392655413e-01  43.1508695366028    
1.250000000000000e+01  6.378117388583149e-01  4.105360203035302e+01  6.696618045027157e-01  -5.187352796724865e+01  6.696618045027157e-01  -5.187352796724865e+01  6.490903036040735e-01  41.5949507980758    
1.300000000000000e+01  6.532581707875168e-01  3.949338964773362e+01  6.544804817811777e-01  -5.348620973632605e+01  6.544804817811777e-01  -5.348620973632605e+01  6.646403408440589e-01  40.0718209440811    
1.350000000000000e+01  6.679489611992070e-01  3.796619821784829e+01  6.393570947303145e-01  -5.506866136792235e+01  6.393570947303145e-01  -5.506866136792235e+01  6.794130623612935e-01  38.5809208641142    
1.400000000000000e+01  6.818028185263043e-01  3.647323970638909e+01  6.243292250554126e-01  -5.661188157402558e+01  6.243292250554126e-01  -5.661188157402558e+01  6.933361271784163e-01  37.1244684462471    
1.450000000000000e+01  6.950644154441638e-01  3.501026797286376e+01  6.093877753807327e-01  -5.813550543997817e+01  6.093877753807327e-01  -5.813550543997817e+01  7.066375675888407e-01  35.6963622321369    
1.500000000000000e+01  7.076549210210662e-01  3.357813717413972e+01  5.945624595552285e-01  -5.963110053930847e+01  5.945624595552285e-01  -5.963110053930847e+01  7.192475649645189e-01  34.2984120762031    
1.550000000000000e+01  7.196021152963230e-01  3.217604842926173e+01  5.798683506065285e-01  -6.109948570118485e+01  5.798683506065285e-01  -6.109948570118485e+01  7.311943894113423e-01  32.9298448787932    
1.600000000000000e+01  7.308249582155293e-01  3.080635714076203e+01  5.653523433888700e-01  -6.253071768962055e+01  5.653523433888700e-01  -6.253071768962055e+01  7.424049169815062e-01  31.5940163987833    
1.650000000000000e+01  7.415660268693771e-01  2.946209569522047e+01  5.509614041566788e-01  -6.394683542990978e+01  5.509614041566788e-01  -6.394683542990978e+01  7.531073416197730e-01  30.2820525108974    
1.700000000000000e+01  7.517442596852381e-01  2.814538668141838e+01  5.367358073001753e-01  -6.533835799619274e+01  5.367358073001753e-01  -6.533835799619274e+01  7.632285790128457e-01  28.9970366952583    
1.750000000000000e+01  7.613850625363541e-01  2.685539335784508e+01  5.226837001298003e-01  -6.670619342982307e+01  5.226837001298003e-01  -6.670619342982307e+01  7.727945460173135e-01  27.7381446019555    