
!*************************************************************************
!! ASITIC Ver 10.20.99.0.0.0
!!  Data generated by the <2Port> command in <slow> mode.
!! Generated on Thu Apr 11 17:21:13 1974
!# Spiral Data:	Name = <SQ_120>, Square Spiral Inductor
!# L1 = 120.00, L2 = 120.00, Origin = <50.00,75.00>
!# Sides =   4, Metal =   2, Exit Metal =   1
!# W = 10.00, S =  2.00, N =  1.50
!# Theta =  0.00, Phase =   1
!# Technolog File Data <BiCMOS.tek> @ <.>
!# Auto-Cell Mode:  <alpha> = 0.050000, <beta> = 0.800000
!# Metal Layers
!# Name=MSUB      Met=0  Lyr=  1  Mz=50.00  T=0.40  RS=0.04  Col=BLUE    
!# Name=M2        Met=1  Lyr=  2  Mz=47.00  T=0.80  RS=0.05  Col=GREEN   
!# Name=M3        Met=2  Lyr=  2  Mz=45.00  T=2.00  RS=0.02  Col=RED     
!# Substrate Layers
!# Lyr=    0  Eps=  12  Rho=1e+05  DZ=8.5e+02  T=8e+02
!# Lyr=    1  Eps=  12  Rho=1e+03  DZ=  52  T=   2
!# Lyr=    2  Eps=   4  Rho=1e+14  DZ=  50  T=  50
!*************************************************************************
# GHZ S MA S11 mag    S11 phase  S12 mag    S12 phase  S21 mag    S21 phase  S22 mag    S22 phase  
1.000000000000000e+00  2.398536242830461e-02  5.589414718147164e+01  9.819932945452698e-01  -2.607638719440409e+00  9.819932945452698e-01  -2.607638719440409e+00  2.615724497284000e-02  56.6171193447796    
1.500000000000000e+00  3.328670303805564e-02  6.831706940955480e+01  9.789855071486813e-01  -3.861201249437004e+00  9.789855071486813e-01  -3.861201249437004e+00  3.622220267037805e-02  68.0302351683844    
2.000000000000000e+00  4.419872856308646e-02  7.525553823966047e+01  9.753151658246889e-01  -5.065956439519673e+00  9.753151658246889e-01  -5.065956439519673e+00  4.779055012745356e-02  74.4370013145695    
2.500000000000000e+00  5.622756003106785e-02  7.919492066256912e+01  9.713194982626997e-01  -6.219120347095647e+00  9.713194982626997e-01  -6.219120347095647e+00  6.037116523071577e-02  78.1079271826545    
3.000000000000000e+00  6.914900852511777e-02  8.129881083515640e+01  9.671513105790289e-01  -7.334701955077644e+00  9.671513105790289e-01  -7.334701955077644e+00  7.380012859425680e-02  80.1083261018761    
3.500000000000000e+00  8.260358423166340e-02  8.229678980653750e+01  9.630047204547482e-01  -8.413295783506078e+00  9.630047204547482e-01  -8.413295783506078e+00  8.769507674356936e-02  81.0926548790999    
4.000000000000000e+00  9.836519105468286e-02  8.250159432483221e+01  9.588335784130988e-01  -9.582727271342636e+00  9.588335784130988e-01  -9.582727271342636e+00  1.038892690943813e-01  81.3613959446513    
4.500000000000000e+00  1.126377023252144e-01  8.229126522374879e+01  9.547846675505046e-01  -1.063171180197870e+01  9.547846675505046e-01  -1.063171180197870e+01  1.185515820165999e-01  81.2190144515163    
5.000000000000000e+00  1.270123839982660e-01  8.176686853182848e+01  9.507504750553369e-01  -1.166825820157483e+01  9.507504750553369e-01  -1.166825820157483e+01  1.333213480263064e-01  80.7775607819682    
5.500000000000000e+00  1.413841047982038e-01  8.106117665825674e+01  9.467827762011306e-01  -1.269261517497115e+01  9.467827762011306e-01  -1.269261517497115e+01  1.480635924651012e-01  80.1615750810426    
6.000000000000000e+00  1.557171973232119e-01  8.021467930708960e+01  9.427864591547002e-01  -1.371028956142776e+01  9.427864591547002e-01  -1.371028956142776e+01  1.627783063072523e-01  79.4070818499982    
6.500000000000000e+00  1.699574424860130e-01  7.929551668270796e+01  9.388084104685135e-01  -1.472031272381053e+01  9.388084104685135e-01  -1.472031272381053e+01  1.773820898983542e-01  78.5793155725507    
7.000000000000000e+00  1.840875236683002e-01  7.832149865682763e+01  9.347937421552814e-01  -1.572514646309849e+01  9.347937421552814e-01  -1.572514646309849e+01  1.918735207186549e-01  77.6947250768733    
7.500000000000001e+00  1.980824042762334e-01  7.730379638026631e+01  9.306889133638809e-01  -1.672584322690682e+01  9.306889133638809e-01  -1.672584322690682e+01  2.062425172054516e-01  76.7641044022008    
8.000000000000000e+00  2.119411176937822e-01  7.627352977991696e+01  9.265473007038669e-01  -1.772192009722208e+01  9.265473007038669e-01  -1.772192009722208e+01  2.204594057008354e-01  75.8176508483504    
8.500000000000000e+00  2.256501327073024e-01  7.523128085018459e+01  9.223242885063209e-01  -1.871404463785801e+01  9.223242885063209e-01  -1.871404463785801e+01  2.345244951975303e-01  74.8561225761304    
9.000000000000000e+00  2.391902893756993e-01  7.417621328834151e+01  9.179758740900632e-01  -1.970221737476759e+01  9.179758740900632e-01  -1.970221737476759e+01  2.484319292515869e-01  73.8793346687499    
9.500000000000000e+00  2.525796454711134e-01  7.312737287968253e+01  9.135634984243419e-01  -2.068633375066606e+01  9.135634984243419e-01  -2.068633375066606e+01  2.621725912097526e-01  72.9053901853692    
1.000000000000000e+01  2.658043422140369e-01  7.208060110065526e+01  9.090493387188880e-01  -2.166637726948744e+01  9.090493387188880e-01  -2.166637726948744e+01  2.757453701912709e-01  71.930797841835     
1.050000000000000e+01  2.796127354459065e-01  7.099364378855711e+01  9.042535001962738e-01  -2.269042331802162e+01  9.042535001962738e-01  -2.269042331802162e+01  2.899082589853346e-01  70.9156087932923    
1.100000000000000e+01  2.925301619477663e-01  6.995438284267337e+01  8.995060759496647e-01  -2.366409718448998e+01  8.995060759496647e-01  -2.366409718448998e+01  3.031662183967135e-01  69.9436273471774    
1.150000000000000e+01  3.052745964340466e-01  6.892198903137124e+01  8.946506239065473e-01  -2.463316808520852e+01  8.946506239065473e-01  -2.463316808520852e+01  3.162467122958996e-01  68.9763569810387    
1.200000000000000e+01  3.177888528588355e-01  6.789310658921431e+01  8.896592953729948e-01  -2.559454521762105e+01  8.896592953729948e-01  -2.559454521762105e+01  3.291040545031774e-01  68.0114050739594    
1.250000000000000e+01  3.301787215257885e-01  6.687657506682933e+01  8.845897997550877e-01  -2.655361521033705e+01  8.845897997550877e-01  -2.655361521033705e+01  3.418202275166200e-01  67.0562536018236    
1.300000000000000e+01  3.423911848735399e-01  6.586851913293465e+01  8.794160714057951e-01  -2.750753507770448e+01  8.794160714057951e-01  -2.750753507770448e+01  3.543534636054947e-01  66.107897146531     
1.350000000000000e+01  3.544251895565204e-01  6.486916451340643e+01  8.741405443828169e-01  -2.845613610559850e+01  8.741405443828169e-01  -2.845613610559850e+01  3.667024071849318e-01  65.1666947972624    
1.400000000000000e+01  3.662156452311899e-01  6.387564018612335e+01  8.687415510101193e-01  -2.939565704671008e+01  8.687415510101193e-01  -2.939565704671008e+01  3.788128890992313e-01  64.2308125645204    
1.450000000000000e+01  3.778867740864682e-01  6.289419763834086e+01  8.632716558833088e-01  -3.033290636291653e+01  8.632716558833088e-01  -3.033290636291653e+01  3.907866889166795e-01  63.3048355500449    
1.500000000000000e+01  3.893772567492335e-01  6.192172012746364e+01  8.577096425127297e-01  -3.126438173652290e+01  8.577096425127297e-01  -3.126438173652290e+01  4.025732309113093e-01  62.3866065345317    
1.550000000000000e+01  4.006866868743434e-01  6.095821172982951e+01  8.520592171624337e-01  -3.218995381908340e+01  8.520592171624337e-01  -3.218995381908340e+01  4.141718950587995e-01  61.4762198240949    
1.600000000000000e+01  4.117388672115688e-01  6.000217326093686e+01  8.463084324565811e-01  -3.310494992796819e+01  8.463084324565811e-01  -3.310494992796819e+01  4.255167619821421e-01  60.5732390197258    
1.650000000000000e+01  4.226824760105272e-01  5.905668907808640e+01  8.404937707747212e-01  -3.401813098729438e+01  8.404937707747212e-01  -3.401813098729438e+01  4.367355491376707e-01  59.6789072365367    
1.700000000000000e+01  4.334447647774844e-01  5.812007948026103e+01  8.346027722196609e-01  -3.492508104935207e+01  8.346027722196609e-01  -3.492508104935207e+01  4.477656565580982e-01  58.7925454242544    
1.750000000000000e+01  4.440259478115545e-01  5.719228964889051e+01  8.286395885899307e-01  -3.582571256600021e+01  8.286395885899307e-01  -3.582571256600021e+01  4.586071574343483e-01  57.914159612838     