
!*************************************************************************
!! ASITIC Ver 10.20.99.0.0.0
!!  Data generated by the <2Port> command in <slow> mode.
!! Generated on Thu Apr 11 17:21:13 1974
!# Spiral Data:	Name = <SQ_220>, Square Spiral Inductor
!# L1 = 220.00, L2 = 220.00, Origin = <100.00,100.00>
!# Sides =   4, Metal =   2, Exit Metal =   1
!# W = 12.00, S =  3.00, N =  2.50
!# Theta =  0.00, Phase =   1
!# Technolog File Data <BiCMOS.tek> @ <.>
!# Auto-Cell Mode:  <alpha> = 0.050000, <beta> = 0.800000
!# Metal Layers
!# Name=MSUB      Met=0  Lyr=  1  Mz=50.00  T=0.40  RS=0.04  Col=BLUE    
!# Name=M2        Met=1  Lyr=  2  Mz=47.00  T=0.80  RS=0.05  Col=GREEN   
!# Name=M3        Met=2  Lyr=  2  Mz=45.00  T=2.00  RS=0.02  Col=RED     
!# Substrate Layers
!# Lyr=    0  Eps=  12  Rho=1e+05  DZ=8.5e+02  T=8e+02
!# Lyr=    1  Eps=  12  Rho=1e+03  DZ=  52  T=   2
!# Lyr=    2  Eps=   4  Rho=1e+14  DZ=  50  T=  50
!*************************************************************************
# GHZ S MA S11 mag    S11 phase  S12 mag    S12 phase  S21 mag    S21 phase  S22 mag    S22 phase  
1.000000000000000e+00  1.092171593737023e-01  7.035678171512482e+01  9.454073597579546e-01  -9.977124146040504e+00  9.454073597579546e-01  -9.977124146040504e+00  1.132034787754825e-01  70.2018344612721    
1.500000000000000e+00  1.666704533826460e-01  7.273241183449812e+01  9.254502637683683e-01  -1.444660267359543e+01  9.254502637683683e-01  -1.444660267359543e+01  1.719469734372980e-01  72.4365628565244    
2.000000000000000e+00  2.257309614152591e-01  7.136964350608231e+01  9.034927206700051e-01  -1.864749457760097e+01  9.034927206700051e-01  -1.864749457760097e+01  2.320884183785093e-01  71.0954559999286    
2.500000000000000e+00  2.835098033185671e-01  6.864290531824334e+01  8.802625521817024e-01  -2.266162190914816e+01  8.802625521817024e-01  -2.266162190914816e+01  2.908223933900254e-01  68.4394986415766    
3.000000000000000e+00  3.387773056771334e-01  6.538562143614202e+01  8.556750579346306e-01  -2.654076335726775e+01  8.556750579346306e-01  -2.654076335726775e+01  3.469864674342482e-01  65.2662554748028    
3.500000000000000e+00  3.908763871413380e-01  6.196513776431487e+01  8.298399605975816e-01  -3.029707189432186e+01  8.298399605975816e-01  -3.029707189432186e+01  3.999131218865753e-01  61.9303279856113    
4.000000000000000e+00  4.432658605781271e-01  5.836688120460898e+01  8.017273381845148e-01  -3.420047811133553e+01  8.017273381845148e-01  -3.420047811133553e+01  4.530605596327354e-01  58.4141498070463    
4.500000000000000e+00  4.887124498983461e-01  5.497253466813212e+01  7.735063395810515e-01  -3.774982356280585e+01  7.735063395810515e-01  -3.774982356280585e+01  4.991941280620862e-01  55.0969842637852    
5.000000000000000e+00  5.306562490380653e-01  5.167406151526168e+01  7.445553434013853e-01  -4.117961507439152e+01  7.445553434013853e-01  -4.117961507439152e+01  5.417506796127373e-01  51.8720250253321    
5.500000000000000e+00  5.692518500834022e-01  4.849015590449932e+01  7.151469170466569e-01  -4.449406033098045e+01  7.151469170466569e-01  -4.449406033098045e+01  5.808749548875629e-01  48.7578860035097    
6.000000000000000e+00  6.045572657726267e-01  4.542044972458175e+01  6.854324842536934e-01  -4.768899178700929e+01  6.854324842536934e-01  -4.768899178700929e+01  6.166442199621961e-01  45.7555850746047    
6.500000000000000e+00  6.368398809794258e-01  4.247223284185665e+01  6.556849534019683e-01  -5.077429090130244e+01  6.556849534019683e-01  -5.077429090130244e+01  6.493098472403481e-01  42.871830270698     
7.000000000000000e+00  6.662447316387342e-01  3.964076644486290e+01  6.260453188303876e-01  -5.375102409923588e+01  6.260453188303876e-01  -5.375102409923588e+01  6.790275915100603e-01  40.1026927885165    
7.500000000000001e+00  6.929009762923457e-01  3.692203009269837e+01  5.966486587742840e-01  -5.661811492413875e+01  5.966486587742840e-01  -5.661811492413875e+01  7.059369958030516e-01  37.4450022566994    
8.000000000000000e+00  7.171334919920033e-01  3.431280368734369e+01  5.676401645673872e-01  -5.939245438363257e+01  5.676401645673872e-01  -5.939245438363257e+01  7.303504404527946e-01  34.8946877581916    
8.500000000000000e+00  7.390086865296870e-01  3.180719930236017e+01  5.390949879961587e-01  -6.206829096730829e+01  5.390949879961587e-01  -6.206829096730829e+01  7.523517127841035e-01  32.4471202828895    
9.000000000000000e+00  7.588364801697368e-01  2.939956374694355e+01  5.110916503293714e-01  -6.466441993836763e+01  5.110916503293714e-01  -6.466441993836763e+01  7.722408030085268e-01  30.0957357791092    
9.500000000000000e+00  7.766699252871071e-01  2.708491625813722e+01  4.836796631343425e-01  -6.717460890257618e+01  4.836796631343425e-01  -6.717460890257618e+01  7.900859470395379e-01  27.8367195821841    
1.000000000000000e+01  7.927918128713873e-01  2.485641375694066e+01  4.568863224441000e-01  -6.961900952877329e+01  4.568863224441000e-01  -6.961900952877329e+01  8.061619539301231e-01  25.6622987298049    
1.050000000000000e+01  8.078343741060271e-01  2.266075043181919e+01  4.300966251253884e-01  -7.207697267986383e+01  4.300966251253884e-01  -7.207697267986383e+01  8.210984373877420e-01  23.5185128465471    
1.100000000000000e+01  8.207581611911795e-01  2.059157057560277e+01  4.046099062978817e-01  -7.438946735320302e+01  4.046099062978817e-01  -7.438946735320302e+01  8.338843568490927e-01  21.5019952315913    
1.150000000000000e+01  8.324052456445442e-01  1.859085675347816e+01  3.797484467447673e-01  -7.666147004954686e+01  3.797484467447673e-01  -7.666147004954686e+01  8.453450053234295e-01  19.5525552494775    
1.200000000000000e+01  8.428169843744074e-01  1.665636058379259e+01  3.555354433325991e-01  -7.889052766724689e+01  3.555354433325991e-01  -7.889052766724689e+01  8.555288789040099e-01  17.6685113346611    
1.250000000000000e+01  8.520302540724175e-01  1.478675239554526e+01  3.319995743390136e-01  -8.107230055456853e+01  3.319995743390136e-01  -8.107230055456853e+01  8.644788806210698e-01  15.8491095213015    
1.300000000000000e+01  8.602788348357228e-01  1.297165781019349e+01  3.090501537697469e-01  -8.323957105886619e+01  3.090501537697469e-01  -8.323957105886619e+01  8.724230237939670e-01  14.0829181826759    
1.350000000000000e+01  8.675802354137175e-01  1.121009100687126e+01  2.867065580332450e-01  -8.539052778873716e+01  2.867065580332450e-01  -8.539052778873716e+01  8.793846488739653e-01  12.369495030595     
1.400000000000000e+01  8.739510627221181e-01  9.501770962643812e+00  2.649936530798025e-01  -8.752184769726055e+01  2.649936530798025e-01  -8.752184769726055e+01  8.853849725958449e-01  10.7090894625026    
1.450000000000000e+01  8.795848860749107e-01  7.836580297550858e+00  2.438067007867603e-01  -8.967418447200393e+01  2.438067007867603e-01  -8.967418447200393e+01  8.906131835848780e-01  9.0905522037579     
1.500000000000000e+01  8.844830622771630e-01  6.214556164430693e+00  2.231672539354087e-01  -9.185014223026305e+01  2.231672539354087e-01  -9.185014223026305e+01  8.950751336109120e-01  7.51442861683911    
1.550000000000000e+01  8.886480639762329e-01  4.636521235758917e+00  2.031055032186575e-01  -9.405208815882433e+01  2.031055032186575e-01  -9.405208815882433e+01  8.987768809678103e-01  5.9820352531842     
1.600000000000000e+01  8.922404802899911e-01  3.092205903510035e+00  1.835062914340190e-01  -9.633955940763731e+01  1.835062914340190e-01  -9.633955940763731e+01  9.018755536704276e-01  4.48209878720579    
1.650000000000000e+01  8.952510986118537e-01  1.582694761566421e+00  1.644015896010882e-01  -9.873209549521543e+01  1.644015896010882e-01  -9.873209549521543e+01  9.043654758708479e-01  3.0161819143988     
1.700000000000000e+01  8.977211383656024e-01  1.055794731264251e-01  1.457791369928629e-01  -1.012800964077922e+02  1.457791369928629e-01  -1.012800964077922e+02  9.062889017498265e-01  1.58185914408289    
1.750000000000000e+01  8.996403477639869e-01  -1.337266598380069e+00  1.276833270517946e-01  -1.040311894986464e+02  1.276833270517946e-01  -1.040311894986464e+02  9.076380223727339e-01  0.18146079401176    