
!*************************************************************************
!! ASITIC Ver 10.20.99.0.0.0
!!  Data generated by the <2Port> command in <slow> mode.
!! Generated on Thu Apr 11 17:21:13 1974
!# Spiral Data:	Name = <SQ_150>, Square Spiral Inductor
!# L1 = 150.00, L2 = 150.00, Origin = <200.00,200.00>
!# Sides =   4, Metal =   2, Exit Metal =   1
!# W =  8.00, S =  2.00, N =  2.00
!# Theta =  0.00, Phase =   1
!# Technolog File Data <BiCMOS.tek> @ <.>
!# Auto-Cell Mode:  <alpha> = 0.050000, <beta> = 0.800000
!# Metal Layers
!# Name=MSUB      Met=0  Lyr=  1  Mz=50.00  T=0.40  RS=0.04  Col=BLUE    
!# Name=M2        Met=1  Lyr=  2  Mz=47.00  T=0.80  RS=0.05  Col=GREEN   
!# Name=M3        Met=2  Lyr=  2  Mz=45.00  T=2.00  RS=0.02  Col=RED     
!# Substrate Layers
!# Lyr=    0  Eps=  12  Rho=1e+05  DZ=8.5e+02  T=8e+02
!# Lyr=    1  Eps=  12  Rho=1e+03  DZ=  52  T=   2
!# Lyr=    2  Eps=   4  Rho=1e+14  DZ=  50  T=  50
!*************************************************************************
# GHZ S MA S11 mag    S11 phase  S12 mag    S12 phase  S21 mag    S21 phase  S22 mag    S22 phase  
1.000000000000000e+00  5.892377710495796e-02  5.854888801611232e+01  9.647919423568380e-01  -4.873724971521503e+00  9.647919423568380e-01  -4.873724971521503e+00  6.112805221479403e-02  58.7740276411251    
1.500000000000000e+00  8.349449913037467e-02  6.671058491331458e+01  9.589889809953921e-01  -7.233325446150064e+00  9.589889809953921e-01  -7.233325446150064e+00  8.646611469173983e-02  66.6597191017385    
2.000000000000000e+00  1.100227293746569e-01  7.037301405052946e+01  9.518027212523517e-01  -9.510543412195149e+00  9.518027212523517e-01  -9.510543412195149e+00  1.136694701706716e-01  70.2004588726839    
2.500000000000000e+00  1.378568818044693e-01  7.177732362702012e+01  9.435145782339288e-01  -1.172240353700329e+01  9.435145782339288e-01  -1.172240353700329e+01  1.421455667970846e-01  71.5654171234573    
3.000000000000000e+00  1.662345305354209e-01  7.198698912687006e+01  9.346335654822370e-01  -1.386485238015593e+01  9.346335654822370e-01  -1.386485238015593e+01  1.710903768900500e-01  71.7719374185875    
3.500000000000000e+00  1.949186335548212e-01  7.143065406588389e+01  9.251234842525236e-01  -1.596078610402116e+01  9.251234842525236e-01  -1.596078610402116e+01  2.003273337070683e-01  71.2386937259484    
4.000000000000000e+00  2.270646920037177e-01  7.032994237853536e+01  9.146921332231603e-01  -1.823281761332127e+01  9.146921332231603e-01  -1.823281761332127e+01  2.329837063967672e-01  70.179386385393     
4.500000000000000e+00  2.557094716422704e-01  6.901085619274710e+01  9.041852240189232e-01  -2.027381080049785e+01  9.041852240189232e-01  -2.027381080049785e+01  2.621252544347593e-01  68.9031892761943    
5.000000000000000e+00  2.839157571671528e-01  6.753108159084999e+01  8.933401571067607e-01  -2.228451930457184e+01  8.933401571067607e-01  -2.228451930457184e+01  2.907872947129091e-01  67.4690372073312    
5.500000000000000e+00  3.115566896488625e-01  6.593684253617455e+01  8.820757978169200e-01  -2.426768032262234e+01  8.820757978169200e-01  -2.426768032262234e+01  3.188647846026250e-01  65.9222834388488    
6.000000000000000e+00  3.384996185039837e-01  6.425783557108547e+01  8.703105004228837e-01  -2.622224461640590e+01  8.703105004228837e-01  -2.622224461640590e+01  3.462442955768884e-01  64.2924762369292    
6.500000000000000e+00  3.647841707720131e-01  6.255092630536954e+01  8.582218924697910e-01  -2.815363723469600e+01  8.582218924697910e-01  -2.815363723469600e+01  3.729300702658879e-01  62.6335456384655    
7.000000000000000e+00  3.903302859593897e-01  6.082201836436523e+01  8.457445109725167e-01  -3.006027363133123e+01  8.457445109725167e-01  -3.006027363133123e+01  3.988593320875396e-01  60.9520298928111    
7.500000000000001e+00  4.150235872960513e-01  5.907681222236098e+01  8.328349964459842e-01  -3.193688683982763e+01  8.328349964459842e-01  -3.193688683982763e+01  4.239329432746098e-01  59.2544808235588    
8.000000000000000e+00  4.390110785246005e-01  5.734163455776356e+01  8.196445308939806e-01  -3.379304345313509e+01  8.196445308939806e-01  -3.379304345313509e+01  4.482666882647863e-01  57.5650385194143    
8.500000000000000e+00  4.622058517345042e-01  5.561494302525885e+01  8.061379325640061e-01  -3.562405936376371e+01  8.061379325640061e-01  -3.562405936376371e+01  4.717883582480608e-01  55.8831172431212    
9.000000000000000e+00  4.846032899732683e-01  5.390174351304359e+01  7.923445905097486e-01  -3.742971029391084e+01  7.923445905097486e-01  -3.742971029391084e+01  4.944929235041436e-01  54.2137228644783    
9.500000000000000e+00  5.060971653869490e-01  5.220096876082354e+01  7.782487442117313e-01  -3.920268478120579e+01  7.782487442117313e-01  -3.920268478120579e+01  5.162872482008417e-01  52.5569551422181    
1.000000000000000e+01  5.268949008019004e-01  5.052514145388493e+01  7.639766017638500e-01  -4.095628723198690e+01  7.639766017638500e-01  -4.095628723198690e+01  5.373517544814937e-01  50.9231551733431    
1.050000000000000e+01  5.479969260568646e-01  4.880684892477145e+01  7.489219822579670e-01  -4.276791062950272e+01  7.489219822579670e-01  -4.276791062950272e+01  5.586971294361667e-01  49.2456273349899    
1.100000000000000e+01  5.672444058594239e-01  4.717307248896168e+01  7.342463815321090e-01  -4.447272090228925e+01  7.342463815321090e-01  -4.447272090228925e+01  5.781692139098251e-01  47.6521062057453    
1.150000000000000e+01  5.855533247908012e-01  4.556396795130038e+01  7.194364987128302e-01  -4.613867418050831e+01  7.194364987128302e-01  -4.613867418050831e+01  5.966933951680415e-01  46.0836536166581    
1.200000000000000e+01  6.032718036548214e-01  4.397982059142085e+01  7.045294858693869e-01  -4.779100103945270e+01  7.045294858693869e-01  -4.779100103945270e+01  6.145949037677145e-01  44.5382935271173    
1.250000000000000e+01  6.202530074441333e-01  4.242095297898485e+01  6.895459860626344e-01  -4.941781774340089e+01  6.895459860626344e-01  -4.941781774340089e+01  6.317384180366418e-01  43.0175035682429    
1.300000000000000e+01  6.365143906826861e-01  4.088756460342294e+01  6.745116373042850e-01  -5.101942384874511e+01  6.745116373042850e-01  -5.101942384874511e+01  6.481415553115256e-01  41.521515558199     
1.350000000000000e+01  6.519072715051034e-01  3.938189439759085e+01  6.594692492700136e-01  -5.258214461829881e+01  6.594692492700136e-01  -5.258214461829881e+01  6.636654566231618e-01  40.053785094967     
1.400000000000000e+01  6.667810309322820e-01  3.789989758639912e+01  6.444088162154193e-01  -5.413372546977772e+01  6.444088162154193e-01  -5.413372546977772e+01  6.786405268802345e-01  38.6079656987616    
1.450000000000000e+01  6.809933637336912e-01  3.644315239198654e+01  6.293646274045510e-01  -5.566134754908955e+01  6.293646274045510e-01  -5.566134754908955e+01  6.929343674881162e-01  37.1867974750989    
1.500000000000000e+01  6.945647781293434e-01  3.501139187433198e+01  6.143556113247602e-01  -5.716553185733778e+01  6.143556113247602e-01  -5.716553185733778e+01  7.065678160154771e-01  35.7900332666239    
1.550000000000000e+01  7.075160614072431e-01  3.360428312337238e+01  5.993990594870816e-01  -5.864684219940671e+01  5.993990594870816e-01  -5.864684219940671e+01  7.195620156384189e-01  34.4173572859577    
1.600000000000000e+01  7.197002201129497e-01  3.222608321464254e+01  5.845620724872901e-01  -6.008972582827833e+01  5.845620724872901e-01  -6.008972582827833e+01  7.317783829783986e-01  33.0742440775989    
1.650000000000000e+01  7.314718783399804e-01  3.086741955619497e+01  5.697610647783691e-01  -6.152646086520857e+01  5.697610647783691e-01  -6.152646086520857e+01  7.435557977532677e-01  31.7489664139762    
1.700000000000000e+01  7.426863064038541e-01  2.953212558004187e+01  5.550551616438452e-01  -6.294222283897557e+01  5.550551616438452e-01  -6.294222283897557e+01  7.547580315710211e-01  30.4465318062257    
1.750000000000000e+01  7.533640662064669e-01  2.821971296403106e+01  5.404557238459762e-01  -6.433770722205917e+01  5.404557238459762e-01  -6.433770722205917e+01  7.654060634359412e-01  29.1664604578363    