
!*************************************************************************
!! ASITIC Ver 10.20.99.0.0.0
!!  Data generated by the <2Port> command in <slow> mode.
!! Generated on Thu Apr 11 17:21:13 1974
!# Spiral Data:	Name = <SQ_200>, Square Spiral Inductor
!# L1 = 200.00, L2 = 200.00, Origin = <200.00,200.00>
!# Sides =   4, Metal =   2, Exit Metal =   1
!# W = 10.00, S =  2.00, N =  3.00
!# Theta =  0.00, Phase =   1
!# Technolog File Data <BiCMOS.tek> @ <.>
!# Auto-Cell Mode:  <alpha> = 0.050000, <beta> = 0.800000
!# Metal Layers
!# Name=MSUB      Met=0  Lyr=  1  Mz=50.00  T=0.40  RS=0.04  Col=BLUE    
!# Name=M2        Met=1  Lyr=  2  Mz=47.00  T=0.80  RS=0.05  Col=GREEN   
!# Name=M3        Met=2  Lyr=  2  Mz=45.00  T=2.00  RS=0.02  Col=RED     
!# Substrate Layers
!# Lyr=    0  Eps=  12  Rho=1e+05  DZ=8.5e+02  T=8e+02
!# Lyr=    1  Eps=  12  Rho=1e+03  DZ=  52  T=   2
!# Lyr=    2  Eps=   4  Rho=1e+14  DZ=  50  T=  50
!*************************************************************************
# GHZ S MA S11 mag    S11 phase  S12 mag    S12 phase  S21 mag    S21 phase  S22 mag    S22 phase  
1.000000000000000e+00  1.386250581893962e-01  6.618358059855117e+01  9.354496843746106e-01  -1.127045657334714e+01  9.354496843746106e-01  -1.127045657334714e+01  1.423603979960237e-01  66.2347138895076    
1.500000000000000e+00  2.057190609513493e-01  6.768409687973536e+01  9.126732661616792e-01  -1.644295913648217e+01  9.126732661616792e-01  -1.644295913648217e+01  2.108243462549937e-01  67.6362332861775    
2.000000000000000e+00  2.727942935441726e-01  6.595256205305503e+01  8.860748758688756e-01  -2.130464918683588e+01  8.860748758688756e-01  -2.130464918683588e+01  2.790740798192278e-01  65.9036887116874    
2.500000000000000e+00  3.370939899814625e-01  6.301454126099641e+01  8.571085143923267e-01  -2.590338553005757e+01  8.571085143923267e-01  -2.590338553005757e+01  3.443960876216562e-01  63.0007543657708    
3.000000000000000e+00  3.973755745163998e-01  5.959626969273163e+01  8.262527907965976e-01  -3.028186770086409e+01  8.262527907965976e-01  -3.028186770086409e+01  4.056070338056991e-01  59.6323539957886    
3.500000000000000e+00  4.530070339333313e-01  5.605865012475707e+01  7.941941062888693e-01  -3.445432458360617e+01  7.941941062888693e-01  -3.445432458360617e+01  4.620537354863364e-01  56.1479858429199    
4.000000000000000e+00  5.079476566417461e-01  5.234416561484972e+01  7.595799863740071e-01  -3.874182311643344e+01  7.595799863740071e-01  -3.874182311643344e+01  5.177484783390749e-01  52.4876866219819    
4.500000000000000e+00  5.542988660456348e-01  4.889352100988253e+01  7.258192219251429e-01  -4.256727915573769e+01  7.258192219251429e-01  -4.256727915573769e+01  5.647252771863347e-01  49.0894455665138    
5.000000000000000e+00  5.959969990535334e-01  4.556565341002324e+01  6.918640421867236e-01  -4.620570867660810e+01  6.918640421867236e-01  -4.620570867660810e+01  6.069687778688554e-01  45.813506080892     
5.500000000000000e+00  6.334839114313571e-01  4.238778079774103e+01  6.581549379639090e-01  -4.967638138258597e+01  6.581549379639090e-01  -4.967638138258597e+01  6.449028788402974e-01  42.6853836710736    
6.000000000000000e+00  6.669310777311802e-01  3.935536213142753e+01  6.248448738177759e-01  -5.297616456573944e+01  6.248448738177759e-01  -5.297616456573944e+01  6.787233930131912e-01  39.702079783904     
6.500000000000000e+00  6.968460761846342e-01  3.647341357238160e+01  5.922175650382292e-01  -5.612900425509179e+01  5.922175650382292e-01  -5.612900425509179e+01  7.089245094937203e-01  36.8671931548058    
7.000000000000000e+00  7.234884843984515e-01  3.373324107642527e+01  5.603760350708722e-01  -5.913944079428239e+01  5.603760350708722e-01  -5.913944079428239e+01  7.357799461540482e-01  34.1728347113116    
7.500000000000001e+00  7.470824326660369e-01  3.112773707365906e+01  5.294153296756183e-01  -6.200830968752690e+01  5.294153296756183e-01  -6.200830968752690e+01  7.595261251966523e-01  31.6127618690821    
8.000000000000000e+00  7.681206609675723e-01  2.864963171908919e+01  4.994216498007243e-01  -6.476607136413918e+01  4.994216498007243e-01  -6.476607136413918e+01  7.806459375360573e-01  29.1782723516836    
8.500000000000000e+00  7.867871178906980e-01  2.629004629442395e+01  4.704183191861953e-01  -6.741469711076121e+01  4.704183191861953e-01  -6.741469711076121e+01  7.993352585046888e-01  26.8612770302407    
9.000000000000000e+00  8.032417180684428e-01  2.404183747239390e+01  4.424274409972448e-01  -6.995342971268860e+01  4.424274409972448e-01  -6.995342971268860e+01  8.157638111891988e-01  24.6554531547028    
9.500000000000000e+00  8.178907504459638e-01  2.189514507982021e+01  4.154326428918085e-01  -7.241507986507007e+01  4.154326428918085e-01  -7.241507986507007e+01  8.303304199536222e-01  22.5494764346283    
1.000000000000000e+01  8.308476849560150e-01  1.984310121194375e+01  3.894213351100661e-01  -7.479958876525164e+01  3.894213351100661e-01  -7.479958876525164e+01  8.431578586726606e-01  20.5372367023923    
1.050000000000000e+01  8.427084897156231e-01  1.783521252039671e+01  3.637675302623766e-01  -7.719190017104650e+01  3.637675302623766e-01  -7.719190017104650e+01  8.548398901745311e-01  18.5672264407972    
1.100000000000000e+01  8.527740197305879e-01  1.595157614138794e+01  3.396354988409335e-01  -7.945523776816322e+01  3.396354988409335e-01  -7.945523776816322e+01  8.646898109279940e-01  16.7215221779149    
1.150000000000000e+01  8.616286346708276e-01  1.414270549204111e+01  3.163970975883090e-01  -8.167313767240920e+01  3.163970975883090e-01  -8.167313767240920e+01  8.732904885576267e-01  14.9496996899139    
1.200000000000000e+01  8.693078072895638e-01  1.240678746846065e+01  2.940628356314363e-01  -8.383828373743012e+01  2.940628356314363e-01  -8.383828373743012e+01  8.806829169710803e-01  13.2507283026755    
1.250000000000000e+01  8.761017310109973e-01  1.073107831629038e+01  2.725019628124491e-01  -8.599806225531019e+01  2.725019628124491e-01  -8.599806225531019e+01  8.871528790411307e-01  11.6103178015443    
1.300000000000000e+01  8.820179083374209e-01  9.114437979586670e+00  2.517216675483825e-01  -8.814852447496924e+01  2.517216675483825e-01  -8.814852447496924e+01  8.927131769549513e-01  10.0280695133406    
1.350000000000000e+01  8.871425562496154e-01  7.552486138830980e+00  2.316855646204682e-01  -9.030462048191292e+01  2.316855646204682e-01  -9.030462048191292e+01  8.974517690919707e-01  8.49958643774727    
1.400000000000000e+01  8.914759705489450e-01  6.045398160663669e+00  2.124107039485758e-01  -9.246097928789150e+01  2.124107039485758e-01  -9.246097928789150e+01  9.013722874683321e-01  7.02580738093896    
1.450000000000000e+01  8.952384514016520e-01  4.581318908833466e+00  1.937634804439503e-01  -9.468256260310916e+01  1.937634804439503e-01  -9.468256260310916e+01  9.046926883366313e-01  5.59331008711723    
1.500000000000000e+01  8.984130149899393e-01  3.160899092193121e+00  1.757644167480418e-01  -9.697532323396621e+01  1.757644167480418e-01  -9.697532323396621e+01  9.073992976083334e-01  4.20347585532326    
1.550000000000000e+01  9.010527313033068e-01  1.781069424297289e+00  1.583881344467125e-01  -9.937437044536566e+01  1.583881344467125e-01  -9.937437044536566e+01  9.095463758727154e-01  2.85320425095873    
1.600000000000000e+01  9.031404483830922e-01  4.436299101051865e-01  1.416687187276756e-01  -1.018951073000651e+02  1.416687187276756e-01  -1.018951073000651e+02  9.111185761797913e-01  1.54504350429902    
1.650000000000000e+01  9.048477235188576e-01  -8.630716414102777e-01  1.254829668535863e-01  -1.046638618124988e+02  1.254829668535863e-01  -1.046638618124988e+02  9.122867683396507e-01  0.26576100344216    
1.700000000000000e+01  9.061466538686072e-01  -2.136933903642752e+00  1.098800374116342e-01  -1.077495033790830e+02  1.098800374116342e-01  -1.077495033790830e+02  9.130249356293998e-01  -0.981822280164091  
1.750000000000000e+01  9.070706002799945e-01  -3.380128197220733e+00  9.486946754703705e-02  -1.113006565591432e+02  9.486946754703705e-02  -1.113006565591432e+02  9.133672893283141e-01  -2.19992131848523   