
!*************************************************************************
!! ASITIC Ver 10.20.99.0.0.0
!!  Data generated by the <2Port> command in <slow> mode.
!! Generated on Thu Apr 11 17:21:13 1974
!# Spiral Data:	Name = <SQ_300>, Square Spiral Inductor
!# L1 = 300.00, L2 = 300.00, Origin = <50.00,50.00>
!# Sides =   4, Metal =   2, Exit Metal =   1
!# W = 12.00, S =  3.00, N =  3.00
!# Theta =  0.00, Phase =   1
!# Technolog File Data <BiCMOS.tek> @ <.>
!# Auto-Cell Mode:  <alpha> = 0.050000, <beta> = 0.800000
!# Metal Layers
!# Name=MSUB      Met=0  Lyr=  1  Mz=50.00  T=0.40  RS=0.04  Col=BLUE    
!# Name=M2        Met=1  Lyr=  2  Mz=47.00  T=0.80  RS=0.05  Col=GREEN   
!# Name=M3        Met=2  Lyr=  2  Mz=45.00  T=2.00  RS=0.02  Col=RED     
!# Substrate Layers
!# Lyr=    0  Eps=  12  Rho=1e+05  DZ=8.5e+02  T=8e+02
!# Lyr=    1  Eps=  12  Rho=1e+03  DZ=  52  T=   2
!# Lyr=    2  Eps=   4  Rho=1e+14  DZ=  50  T=  50
!*************************************************************************
# GHZ S MA S11 mag    S11 phase  S12 mag    S12 phase  S21 mag    S21 phase  S22 mag    S22 phase  
1.000000000000000e+00  2.298646812771776e-01  6.581851456856216e+01  8.910393932491316e-01  -1.854364537333732e+01  8.910393932491316e-01  -1.854364537333732e+01  2.352605032401679e-01  65.7793975620261    
1.500000000000000e+00  3.410572325896569e-01  6.215509807325407e+01  8.419905554100698e-01  -2.651899166446623e+01  8.419905554100698e-01  -2.651899166446623e+01  3.481681190531047e-01  62.1404807598853    
2.000000000000000e+00  4.411110299391672e-01  5.654673908693587e+01  7.876357646043142e-01  -3.385074059496914e+01  7.876357646043142e-01  -3.385074059496914e+01  4.496674542246035e-01  56.6109385460713    
2.500000000000000e+00  5.272747256209788e-01  5.072598982870691e+01  7.304072215454367e-01  -4.061434429749015e+01  7.304072215454367e-01  -4.061434429749015e+01  5.370330022787043e-01  50.875198235331     
3.000000000000000e+00  5.998883987091354e-01  4.514594861567880e+01  6.720573893703199e-01  -4.685554394811763e+01  6.720573893703199e-01  -4.685554394811763e+01  6.106412323008817e-01  45.3782313824798    
3.500000000000000e+00  6.602376747624319e-01  3.995444961753038e+01  6.142770183561743e-01  -5.261259476337504e+01  6.142770183561743e-01  -5.261259476337504e+01  6.717766803726433e-01  40.2659086636679    
4.000000000000000e+00  7.130073780412560e-01  3.497543923632855e+01  5.558810306058722e-01  -5.825886133311592e+01  5.558810306058722e-01  -5.825886133311592e+01  7.251349666630421e-01  35.3608524444164    
4.500000000000000e+00  7.535603137144301e-01  3.057389569988127e+01  5.019076192733327e-01  -6.322047658590757e+01  5.019076192733327e-01  -6.322047658590757e+01  7.661084635553295e-01  31.0315199320131    
5.000000000000000e+00  7.865647934257037e-01  2.652877156464978e+01  4.506913673980990e-01  -6.785703091057589e+01  4.506913673980990e-01  -6.785703091057589e+01  7.993847306670994e-01  27.0560570050544    
5.500000000000000e+00  8.133693597369652e-01  2.280117832507189e+01  4.023586840266896e-01  -7.223405862930849e+01  4.023586840266896e-01  -7.223405862930849e+01  8.263260601768385e-01  23.3955030614257    
6.000000000000000e+00  8.349438585997278e-01  1.935337608923395e+01  3.568698896068466e-01  -7.639512298281846e+01  3.568698896068466e-01  -7.639512298281846e+01  8.479308871406191e-01  20.0131963974561    
6.500000000000000e+00  8.522961995392615e-01  1.615048326934993e+01  3.141166460526031e-01  -8.041860380277845e+01  3.141166460526031e-01  -8.041860380277845e+01  8.652105177854508e-01  16.8736083024792    
7.000000000000000e+00  8.661003873151655e-01  1.316234564771435e+01  2.739417533291938e-01  -8.436511599631302e+01  2.739417533291938e-01  -8.436511599631302e+01  8.788560243873763e-01  13.9471000594214    
7.500000000000001e+00  8.768956085832968e-01  1.036438536914400e+01  2.361961221925028e-01  -8.830329200020535e+01  2.361961221925028e-01  -8.830329200020535e+01  8.894197202494839e-01  11.2095857646159    
8.000000000000000e+00  8.852702523551116e-01  7.730054225261289e+00  2.006763309396196e-01  -9.236814306010915e+01  2.006763309396196e-01  -9.236814306010915e+01  8.974907780340101e-01  8.63375222958465    
8.500000000000000e+00  8.915162424755336e-01  5.243285963457572e+00  1.672768069599030e-01  -9.669389440621451e+01  1.672768069599030e-01  -9.669389440621451e+01  9.033738223754013e-01  6.20432161322894    
9.000000000000000e+00  8.960432021456078e-01  2.882972845476562e+00  1.358504605445268e-01  -1.015834914545276e+02  1.358504605445268e-01  -1.015834914545276e+02  9.074792803941044e-01  3.8994536818177     
9.500000000000000e+00  8.990264168578619e-01  6.385143185673479e-01  1.064131326303951e-01  -1.075081842989126e+02  1.064131326303951e-01  -1.075081842989126e+02  9.099909288337318e-01  1.7092195832991     
1.000000000000000e+01  9.007570289115676e-01  -1.507067050025521e+00  7.908057343741438e-02  -1.156142334555511e+02  7.908057343741438e-02  -1.156142334555511e+02  9.112011973389967e-01  -0.384037157918352  
1.050000000000000e+01  9.015101550972544e-01  -3.594658621327930e+00  5.424401172624727e-02  -1.291203815599811e+02  5.424401172624727e-02  -1.291203815599811e+02  9.113771718159217e-01  -2.42237882502639   
1.100000000000000e+01  9.010978014959734e-01  -5.567010539952807e+00  3.537452376577315e-02  -1.551566930096228e+02  3.537452376577315e-02  -1.551566930096228e+02  9.103593231444780e-01  -4.34551110291543   
1.150000000000000e+01  8.998741015700576e-01  -7.470613952353849e+00  3.035364708571839e-02  1.587668636924127e+02  3.035364708571839e-02  1.587668636924127e+02  9.084913041266697e-01  -6.20194599910883   
1.200000000000000e+01  8.979006300012277e-01  -9.309488707124340e+00  4.225838562337840e-02  1.229386194935058e+02  4.225838562337840e-02  1.229386194935058e+02  9.058376628630876e-01  -7.99547054898354   
1.250000000000000e+01  8.952293692959278e-01  -1.108640062720447e+01  6.076715216844972e-02  1.055735290042479e+02  6.076715216844972e-02  1.055735290042479e+02  9.024517661265979e-01  -9.72868442963664   
1.300000000000000e+01  8.936276950150951e-01  -1.264020334121592e+01  7.878781829146549e-02  9.810681568153977e+01  7.878781829146549e-02  9.810681568153977e+01  9.011129770029702e-01  -11.2547870303882   
1.350000000000000e+01  8.918194176539007e-01  -1.363018472062177e+01  8.916160852769393e-02  9.462904828089381e+01  8.916160852769393e-02  9.462904828089381e+01  8.986773066161673e-01  -12.2514311612149   
1.400000000000000e+01  8.891614146591246e-01  -1.491735507555459e+01  1.039202401325478e-01  9.058805503747573e+01  1.039202401325478e-01  9.058805503747573e+01  8.944979544437363e-01  -13.6041143772695   
1.450000000000000e+01  8.849535792891088e-01  -1.649559583111622e+01  1.226109748139387e-01  8.606451879269896e+01  1.226109748139387e-01  8.606451879269896e+01  8.896970233859883e-01  -15.1427532021265   
1.500000000000000e+01  8.803773625683253e-01  -1.800635984287775e+01  1.406804890625589e-01  8.248556725428345e+01  1.406804890625589e-01  8.248556725428345e+01  8.832806972948959e-01  -16.7055253874259   
1.550000000000000e+01  8.736080005190094e-01  -2.002736657064078e+01  1.661174436828404e-01  7.833182414762869e+01  1.661174436828404e-01  7.833182414762869e+01  8.748363467622580e-01  -18.8029994213111   
1.600000000000000e+01  8.679667068376131e-01  -2.152774756456763e+01  1.837455186548493e-01  7.563506227159728e+01  1.837455186548493e-01  7.563506227159728e+01  8.685164038644343e-01  -20.2797733084352   