
!*************************************************************************
!! ASITIC Ver 10.20.99.0.0.0
!!  Data generated by the <2Port> command in <slow> mode.
!! Generated on Thu Apr 11 17:21:13 1974
!# Spiral Data:	Name = <SQ_120>, Square Spiral Inductor
!# L1 = 120.00, L2 = 120.00, Origin = <50.00,75.00>
!# Sides =   4, Metal =   4, Exit Metal =   3
!# W = 10.00, S =  2.00, N =  1.50
!# Theta =  0.00, Phase =   1
!# Technolog File Data <CMOS.tek> @ <.>
!# Auto-Cell Mode:  <alpha> = 0.050000, <beta> = 0.800000
!# Metal Layers
!# Name=M1        Met=0  Lyr=  1  Mz=48.70  T=0.50  RS=0.07  Col=YELLOW  
!# Name=M2        Met=1  Lyr=  1  Mz=47.60  T=0.50  RS=0.06  Col=LIGHTSKYBLUE1
!# Name=M3        Met=2  Lyr=  1  Mz=46.50  T=0.50  RS=0.06  Col=MEDIUM PURPLE
!# Name=M4        Met=3  Lyr=  1  Mz=45.50  T=0.50  RS=0.06  Col=LIGHT GREEN
!# Name=M5        Met=4  Lyr=  1  Mz=44.00  T=1.00  RS=0.03  Col=GREY    
!# Substrate Layers
!# Lyr=    0  Eps=  12  Rho=  10  DZ=7.5e+02  T=7e+02
!# Lyr=    1  Eps= 3.9  Rho=1e+14  DZ=  50  T=  50
!*************************************************************************
# GHZ S MA S11 mag    S11 phase  S12 mag    S12 phase  S21 mag    S21 phase  S22 mag    S22 phase  
1.000000000000000e+00  3.071766571982772e-02  4.403930762839667e+01  9.782076800383738e-01  -2.576740581131957e+00  9.782076800383738e-01  -2.576740581131957e+00  3.243982451414668e-02  46.2085046051037    
1.500000000000000e+00  3.978147546068471e-02  5.375409727586602e+01  9.775839049747701e-01  -3.862095966541820e+00  9.775839049747701e-01  -3.862095966541820e+00  4.238796747762263e-02  55.6984141257658    
2.000000000000000e+00  4.964438171909683e-02  5.907442831622011e+01  9.767775431832216e-01  -5.138888881080844e+00  9.767775431832216e-01  -5.138888881080844e+00  5.310459910521175e-02  60.9097402544741    
2.500000000000000e+00  5.990609034589143e-02  6.208650504681857e+01  9.757843109300079e-01  -6.413846775960723e+00  9.757843109300079e-01  -6.413846775960723e+00  6.422627668246557e-02  63.9127144860753    
3.000000000000000e+00  7.028641852055230e-02  6.379522218841951e+01  9.746492510207568e-01  -7.682478970312584e+00  9.746492510207568e-01  -7.682478970312584e+00  7.546786435576991e-02  65.6617266552711    
3.500000000000000e+00  8.064848005902862e-02  6.472689593509841e+01  9.734098566650490e-01  -8.941941401279657e+00  9.734098566650490e-01  -8.941941401279657e+00  8.667776423211446e-02  66.6557829127302    
4.000000000000000e+00  9.105364510847624e-02  6.514554769554489e+01  9.720321702455946e-01  -1.019998198022441e+01  9.720321702455946e-01  -1.019998198022441e+01  9.793949663389517e-02  67.1632482857627    
4.500000000000000e+00  1.014202243628137e-01  6.522259526107386e+01  9.705474991084504e-01  -1.145287651756897e+01  9.705474991084504e-01  -1.145287651756897e+01  1.091561739590962e-01  67.3410419229039    
5.000000000000000e+00  1.116808169248340e-01  6.506471771134721e+01  9.689821498546948e-01  -1.269705915146529e+01  9.689821498546948e-01  -1.269705915146529e+01  1.202469793822584e-01  67.2879918820399    
5.500000000000000e+00  1.219301923967589e-01  6.472327374055718e+01  9.672968133030961e-01  -1.393993136251184e+01  9.672968133030961e-01  -1.393993136251184e+01  1.313283423052424e-01  67.0628791887268    
6.000000000000000e+00  1.320613536098849e-01  6.425557187708139e+01  9.655376166903389e-01  -1.517436327820141e+01  9.655376166903389e-01  -1.517436327820141e+01  1.422681396927585e-01  66.7122685558849    
6.500000000000000e+00  1.421715962393851e-01  6.367917525944451e+01  9.636635807396008e-01  -1.640761429961903e+01  9.636635807396008e-01  -1.640761429961903e+01  1.531852725931498e-01  66.261151308888     
7.000000000000000e+00  1.521529791085217e-01  6.302894344573913e+01  9.617217519258742e-01  -1.763226550025566e+01  9.617217519258742e-01  -1.763226550025566e+01  1.639479169937480e-01  65.7355998542475    
7.500000000000001e+00  1.620524491291178e-01  6.231514300498796e+01  9.596936320409234e-01  -1.885183065101115e+01  9.596936320409234e-01  -1.885183065101115e+01  1.746128726758162e-01  65.1491840670249    
8.000000000000000e+00  1.719236583570181e-01  6.154339116695991e+01  9.575556797446029e-01  -2.007027691125923e+01  9.575556797446029e-01  -2.007027691125923e+01  1.852439774805868e-01  64.5109089981441    
8.500000000000000e+00  1.816522849559592e-01  6.073632005892141e+01  9.553606165573362e-01  -2.127959498161207e+01  9.553606165573362e-01  -2.127959498161207e+01  1.957038568790544e-01  63.8355225460272    
9.000000000000000e+00  1.913199068856698e-01  5.989042616546512e+01  9.530702836869062e-01  -2.248602676932842e+01  9.530702836869062e-01  -2.248602676932842e+01  2.060944438560552e-01  63.1266610171603    
9.500000000000000e+00  2.008649329246113e-01  5.902094262378489e+01  9.507202264051237e-01  -2.368458045110109e+01  9.507202264051237e-01  -2.368458045110109e+01  2.163326934261126e-01  62.3919773409731    
1.000000000000000e+01  2.103138098683313e-01  5.812827037972458e+01  9.482977963598039e-01  -2.487752723038704e+01  9.482977963598039e-01  -2.487752723038704e+01  2.264544042379608e-01  61.6352679754338    
1.050000000000000e+01  2.197159154598252e-01  5.721052913216170e+01  9.457800936952714e-01  -2.606852744371176e+01  9.457800936952714e-01  -2.606852744371176e+01  2.365176182108748e-01  60.8579649316354    
1.100000000000000e+01  2.293035818407374e-01  5.633057283286674e+01  9.433598148027010e-01  -2.727159169643465e+01  9.433598148027010e-01  -2.727159169643465e+01  2.467480283029657e-01  60.1053138721519    
1.150000000000000e+01  2.384744718367835e-01  5.538922836896126e+01  9.407424790288402e-01  -2.844856072134471e+01  9.407424790288402e-01  -2.844856072134471e+01  2.565272240855254e-01  59.3023283275053    
1.200000000000000e+01  2.475182743888569e-01  5.443135814766773e+01  9.380471741145453e-01  -2.961880997928981e+01  9.380471741145453e-01  -2.961880997928981e+01  2.661651311326018e-01  58.4878769801097    
1.250000000000000e+01  2.564770028338850e-01  5.347036641107577e+01  9.353126472027052e-01  -3.078350464002580e+01  9.353126472027052e-01  -3.078350464002580e+01  2.756854494653588e-01  57.6665617407954    
1.300000000000000e+01  2.653281862004857e-01  5.250228701028500e+01  9.325249211259869e-01  -3.194194890308550e+01  9.325249211259869e-01  -3.194194890308550e+01  2.850739844051003e-01  56.8386128941176    
1.350000000000000e+01  2.740454097223835e-01  5.152339419460687e+01  9.296693051370921e-01  -3.309321719108918e+01  9.296693051370921e-01  -3.309321719108918e+01  2.943115395807785e-01  56.0045776160744    
1.400000000000000e+01  2.826759808039787e-01  5.054542220821329e+01  9.267849798227827e-01  -3.423880738618221e+01  9.267849798227827e-01  -3.423880738618221e+01  3.034295067638990e-01  55.16756143668      
1.450000000000000e+01  2.911955368762612e-01  4.956426789512017e+01  9.238577146104985e-01  -3.537788667725260e+01  9.238577146104985e-01  -3.537788667725260e+01  3.124108106103470e-01  54.3276163108667    
1.500000000000000e+01  2.995751250306870e-01  4.857644104707560e+01  9.208744108329933e-01  -3.650933685358071e+01  9.208744108329933e-01  -3.650933685358071e+01  3.212325861371137e-01  53.485381460861     
1.550000000000000e+01  3.078687993915810e-01  4.759179115938085e+01  9.178711474487934e-01  -3.763510499238171e+01  9.178711474487934e-01  -3.763510499238171e+01  3.299354748034083e-01  52.6424062267959    
1.600000000000000e+01  3.160495172943134e-01  4.660657492135127e+01  9.148350586340358e-01  -3.875416475160403e+01  9.148350586340358e-01  -3.875416475160403e+01  3.384986579828315e-01  51.798968938401     
1.650000000000000e+01  3.241169520614424e-01  4.562146597167008e+01  9.117694286826222e-01  -3.986646504239299e+01  9.117694286826222e-01  -3.986646504239299e+01  3.469215130649915e-01  50.9557016846798    
1.700000000000000e+01  3.320384591935710e-01  4.463329661731790e+01  9.086625273807759e-01  -4.097064544845439e+01  9.086625273807759e-01  -4.097064544845439e+01  3.551767397272034e-01  50.1135807044283    
1.750000000000000e+01  3.398774902320326e-01  4.365017731055935e+01  9.055473609269857e-01  -4.206922443558668e+01  9.055473609269857e-01  -4.206922443558668e+01  3.633161731451723e-01  49.2724203130805    