
!*************************************************************************
!! ASITIC Ver 10.20.99.0.0.0
!!  Data generated by the <2Port> command in <slow> mode.
!! Generated on Thu Apr 11 17:21:13 1974
!# Spiral Data:	Name = <SQ_200>, Square Spiral Inductor
!# L1 = 200.00, L2 = 200.00, Origin = <200.00,200.00>
!# Sides =   4, Metal =   4, Exit Metal =   3
!# W = 10.00, S =  2.00, N =  3.00
!# Theta =  0.00, Phase =   1
!# Technolog File Data <CMOS.tek> @ <.>
!# Auto-Cell Mode:  <alpha> = 0.050000, <beta> = 0.800000
!# Metal Layers
!# Name=M1        Met=0  Lyr=  1  Mz=48.70  T=0.50  RS=0.07  Col=YELLOW  
!# Name=M2        Met=1  Lyr=  1  Mz=47.60  T=0.50  RS=0.06  Col=LIGHTSKYBLUE1
!# Name=M3        Met=2  Lyr=  1  Mz=46.50  T=0.50  RS=0.06  Col=MEDIUM PURPLE
!# Name=M4        Met=3  Lyr=  1  Mz=45.50  T=0.50  RS=0.06  Col=LIGHT GREEN
!# Name=M5        Met=4  Lyr=  1  Mz=44.00  T=1.00  RS=0.03  Col=GREY    
!# Substrate Layers
!# Lyr=    0  Eps=  12  Rho=  10  DZ=7.5e+02  T=7e+02
!# Lyr=    1  Eps= 3.9  Rho=1e+14  DZ=  50  T=  50
!*************************************************************************
# GHZ S MA S11 mag    S11 phase  S12 mag    S12 phase  S21 mag    S21 phase  S22 mag    S22 phase  
1.000000000000000e+00  1.485134941925306e-01  5.483208283616666e+01  9.297007109060914e-01  -1.120866709010621e+01  9.297007109060914e-01  -1.120866709010621e+01  1.516731380146192e-01  55.7387899410412    
1.500000000000000e+00  2.092792095133953e-01  5.649209655939744e+01  9.178178726039852e-01  -1.666292737447778e+01  9.178178726039852e-01  -1.666292737447778e+01  2.139419959933988e-01  57.5341843012981    
2.000000000000000e+00  2.682179489304497e-01  5.493626999098007e+01  9.024609970117067e-01  -2.195092853372817e+01  9.024609970117067e-01  -2.195092853372817e+01  2.742239046346898e-01  56.1629200413337    
2.500000000000000e+00  3.238786459263769e-01  5.210732151353379e+01  8.843651048096317e-01  -2.705681460861764e+01  8.843651048096317e-01  -2.705681460861764e+01  3.310594910499559e-01  53.5456475243539    
3.000000000000000e+00  3.755619414457911e-01  4.874593313127873e+01  8.643953286308566e-01  -3.196307564911587e+01  8.643953286308566e-01  -3.196307564911587e+01  3.837250416360197e-01  50.4078573094416    
3.500000000000000e+00  4.230248683462804e-01  4.518137746763134e+01  8.433165300683509e-01  -3.666197682751698e+01  8.433165300683509e-01  -3.666197682751698e+01  4.319627153949160e-01  47.0709878530621    
4.000000000000000e+00  4.664078310104113e-01  4.155071271994554e+01  8.215570510606254e-01  -4.116213951365273e+01  8.215570510606254e-01  -4.116213951365273e+01  4.759172469113943e-01  43.6740243799105    
4.500000000000000e+00  5.058035376117728e-01  3.794700514772533e+01  7.996697778422807e-01  -4.546445563250943e+01  7.996697778422807e-01  -4.546445563250943e+01  5.156761747281831e-01  40.3057743247676    
5.000000000000000e+00  5.414105356500626e-01  3.442025512678434e+01  7.780899191615470e-01  -4.957397920317546e+01  7.780899191615470e-01  -4.957397920317546e+01  5.514401652660262e-01  37.013092244378     
5.500000000000000e+00  5.735725044695450e-01  3.097989170738741e+01  7.569801252159454e-01  -5.350575061998944e+01  7.569801252159454e-01  -5.350575061998944e+01  5.835606855516514e-01  33.808707385858     
6.000000000000000e+00  6.025232861164113e-01  2.764902423869849e+01  7.366752622930151e-01  -5.726592278748269e+01  7.366752622930151e-01  -5.726592278748269e+01  6.122781769359328e-01  30.7110978904144    
6.500000000000000e+00  6.286039273666578e-01  2.442003842901656e+01  7.172156996948703e-01  -6.087025033625373e+01  7.172156996948703e-01  -6.087025033625373e+01  6.379389816165417e-01  27.7160366575167    
7.000000000000000e+00  6.520529223255422e-01  2.130251572941238e+01  6.988161611537606e-01  -6.432632210927093e+01  6.988161611537606e-01  -6.432632210927093e+01  6.607940253500697e-01  24.8289094238379    
7.500000000000001e+00  6.731596587382164e-01  1.828772271948866e+01  6.814865867411812e-01  -6.764782222064976e+01  6.814865867411812e-01  -6.764782222064976e+01  6.811389576097042e-01  22.0424407961905    
8.000000000000000e+00  6.921796754284129e-01  1.536624891955018e+01  6.652111469920294e-01  -7.084747398147640e+01  6.652111469920294e-01  -7.084747398147640e+01  6.992301576006602e-01  19.3487879614596    
8.500000000000000e+00  7.093111218871339e-01  1.254083321581938e+01  6.500993000872017e-01  -7.393279320250596e+01  6.500993000872017e-01  -7.393279320250596e+01  7.152848640450513e-01  16.7466563162279    
9.000000000000000e+00  7.247540955849930e-01  9.798987976143898e+00  6.360750266183188e-01  -7.691501705883493e+01  6.360750266183188e-01  -7.691501705883493e+01  7.294971299527151e-01  14.2269286012985    
9.500000000000000e+00  7.387146991138949e-01  7.137755876660035e+00  6.231578515343852e-01  -7.980473516246053e+01  6.231578515343852e-01  -7.980473516246053e+01  7.420930668783373e-01  11.7827083493266    
1.000000000000000e+01  7.513385102373487e-01  4.548962238858286e+00  6.113001293406726e-01  -8.261032584274996e+01  6.113001293406726e-01  -8.261032584274996e+01  7.532179329500147e-01  9.4073156560679     
1.050000000000000e+01  7.627609745456989e-01  2.023827791353514e+00  6.004378719056280e-01  -8.534077425141372e+01  6.004378719056280e-01  -8.534077425141372e+01  7.630014670033305e-01  7.09336669718973    
1.100000000000000e+01  7.735043542962089e-01  -4.439951874549787e-01  5.906372657747265e-01  -8.803722414821235e+01  5.906372657747265e-01  -8.803722414821235e+01  7.720557364724108e-01  4.82701622855107    
1.150000000000000e+01  7.828890608037352e-01  -2.852626476758148e+00  5.817565501565507e-01  -9.063775645034738e+01  5.817565501565507e-01  -9.063775645034738e+01  7.795736193036661e-01  2.61901859757445    
1.200000000000000e+01  7.913377635724894e-01  -5.210214735798126e+00  5.737966418264925e-01  -9.317859847282406e+01  5.737966418264925e-01  -9.317859847282406e+01  7.860256522952533e-01  0.459424976220802   
1.250000000000000e+01  7.990455782531128e-01  -7.524314156504696e+00  5.667104538964894e-01  -9.567499084288559e+01  5.667104538964894e-01  -9.567499084288559e+01  7.916406019919145e-01  -1.6638532495812    
1.300000000000000e+01  8.060239756131400e-01  -9.798226173511869e+00  5.604670326868105e-01  -9.812779472855516e+01  5.604670326868105e-01  -9.812779472855516e+01  7.964201335559717e-01  -3.75234556806523   
1.350000000000000e+01  8.122766062968083e-01  -1.203437419861399e+01  5.550345496602425e-01  -1.005378851303409e+02  5.550345496602425e-01  -1.005378851303409e+02  8.003543446389670e-01  -5.80686089134416   
1.400000000000000e+01  8.179623881821743e-01  -1.424010569835781e+01  5.503744301609979e-01  -1.029182583116618e+02  5.503744301609979e-01  -1.029182583116618e+02  8.036400136745032e-01  -7.83890837065577   
1.450000000000000e+01  8.230693783357583e-01  -1.641748508454658e+01  5.464597673065924e-01  -1.052690681255156e+02  5.464597673065924e-01  -1.052690681255156e+02  8.062529562810731e-01  -9.8490060021957    
1.500000000000000e+01  8.275801783943062e-01  -1.856758906848696e+01  5.432601390999147e-01  -1.075904697455340e+02  5.432601390999147e-01  -1.075904697455340e+02  8.081606359068362e-01  -11.8367073945204   
1.550000000000000e+01  8.316271238144506e-01  -2.069804623128900e+01  5.407514478557546e-01  -1.098938690663071e+02  5.407514478557546e-01  -1.098938690663071e+02  8.095368599888693e-01  -13.8137590046482   
1.600000000000000e+01  8.351818837965254e-01  -2.280971777629275e+01  5.389090299982228e-01  -1.121788687531705e+02  5.389090299982228e-01  -1.121788687531705e+02  8.103396313523138e-01  -15.7795626801659   
1.650000000000000e+01  8.382622764839918e-01  -2.490538439669587e+01  5.377104234084704e-01  -1.144486910149777e+02  5.377104234084704e-01  -1.144486910149777e+02  8.105913528059634e-01  -17.73731564495     
1.700000000000000e+01  8.408292927366767e-01  -2.698450019307896e+01  5.371240408381837e-01  -1.167029824475447e+02  5.371240408381837e-01  -1.167029824475447e+02  8.102366753358644e-01  -19.6851674590085   
1.750000000000000e+01  8.429945521595132e-01  -2.905549278333055e+01  5.371491498779147e-01  -1.189513514639043e+02  5.371491498779147e-01  -1.189513514639043e+02  8.094338716530490e-01  -21.6354927327595   