
!*************************************************************************
!! ASITIC Ver 10.20.99.0.0.0
!!  Data generated by the <2Port> command in <slow> mode.
!! Generated on Thu Apr 11 17:21:13 1974
!# Spiral Data:	Name = <SQ_170>, Square Spiral Inductor
!# L1 = 170.00, L2 = 170.00, Origin = <200.00,200.00>
!# Sides =   4, Metal =   4, Exit Metal =   3
!# W = 10.00, S =  3.00, N =  2.00
!# Theta =  0.00, Phase =   1
!# Technolog File Data <CMOS.tek> @ <.>
!# Auto-Cell Mode:  <alpha> = 0.050000, <beta> = 0.800000
!# Metal Layers
!# Name=M1        Met=0  Lyr=  1  Mz=48.70  T=0.50  RS=0.07  Col=YELLOW  
!# Name=M2        Met=1  Lyr=  1  Mz=47.60  T=0.50  RS=0.06  Col=LIGHTSKYBLUE1
!# Name=M3        Met=2  Lyr=  1  Mz=46.50  T=0.50  RS=0.06  Col=MEDIUM PURPLE
!# Name=M4        Met=3  Lyr=  1  Mz=45.50  T=0.50  RS=0.06  Col=LIGHT GREEN
!# Name=M5        Met=4  Lyr=  1  Mz=44.00  T=1.00  RS=0.03  Col=GREY    
!# Substrate Layers
!# Lyr=    0  Eps=  12  Rho=  10  DZ=7.5e+02  T=7e+02
!# Lyr=    1  Eps= 3.9  Rho=1e+14  DZ=  50  T=  50
!*************************************************************************
# GHZ S MA S11 mag    S11 phase  S12 mag    S12 phase  S21 mag    S21 phase  S22 mag    S22 phase  
1.000000000000000e+00  6.718303787495379e-02  5.061743479889961e+01  9.603865995402657e-01  -5.382183791122589e+00  9.603865995402657e-01  -5.382183791122589e+00  6.926110978602272e-02  51.73817011292      
1.500000000000000e+00  9.155262831695093e-02  5.745349318167729e+01  9.579073822358822e-01  -8.056276096626185e+00  9.579073822358822e-01  -8.056276096626185e+00  9.466020802520056e-02  58.5478437694671    
2.000000000000000e+00  1.168820701243988e-01  6.011692344940351e+01  9.546240075721318e-01  -1.070374939684237e+01  9.546240075721318e-01  -1.070374939684237e+01  1.209814680155377e-01  61.2625361724997    
2.500000000000000e+00  1.424057360150933e-01  6.081981159842739e+01  9.505694628213455e-01  -1.333007554376946e+01  9.505694628213455e-01  -1.333007554376946e+01  1.474838087964566e-01  62.0665030428665    
3.000000000000000e+00  1.677035181241522e-01  6.049708725521409e+01  9.458620344303489e-01  -1.592993043205014e+01  9.458620344303489e-01  -1.592993043205014e+01  1.737325897408114e-01  61.8669457170821    
3.500000000000000e+00  1.925314608175482e-01  5.959544343274951e+01  9.406212949033061e-01  -1.849748877164440e+01  9.406212949033061e-01  -1.849748877164440e+01  1.994644979800537e-01  61.0964850331812    
4.000000000000000e+00  2.169289330854813e-01  5.831902395615929e+01  9.348131720505843e-01  -2.104091720702086e+01  9.348131720505843e-01  -2.104091720702086e+01  2.247364289072715e-01  59.963909030201     
4.500000000000000e+00  2.407566686227401e-01  5.680960357481455e+01  9.285422110477367e-01  -2.355431175205455e+01  9.285422110477367e-01  -2.355431175205455e+01  2.493916284037035e-01  58.6031795235147    
5.000000000000000e+00  2.639096353851166e-01  5.515419193717092e+01  9.219056537663040e-01  -2.603253825128553e+01  9.219056537663040e-01  -2.603253825128553e+01  2.733102873452110e-01  57.0964938599581    
5.500000000000000e+00  2.864758368780341e-01  5.338522762220209e+01  9.148590485680713e-01  -2.848311477580889e+01  9.148590485680713e-01  -2.848311477580889e+01  2.965964252766890e-01  55.4822970981472    
6.000000000000000e+00  3.083182838582482e-01  5.155413416867611e+01  9.075440302877930e-01  -3.089732667668262e+01  9.075440302877930e-01  -3.089732667668262e+01  3.190904649476518e-01  53.8044467903334    
6.500000000000000e+00  3.295296013006789e-01  4.966813838480437e+01  8.999117619890142e-01  -3.328241749622271e+01  8.999117619890142e-01  -3.328241749622271e+01  3.408997222685076e-01  52.0762089775851    
7.000000000000000e+00  3.499886187738541e-01  4.776036107154412e+01  8.921047750003298e-01  -3.562999871351381e+01  8.921047750003298e-01  -3.562999871351381e+01  3.618843240373819e-01  50.3239906727245    
7.500000000000001e+00  3.697428952781747e-01  4.583562663193516e+01  8.841203097013711e-01  -3.794360013429066e+01  8.841203097013711e-01  -3.794360013429066e+01  3.820981161768755e-01  48.5553797352595    
8.000000000000000e+00  3.888415626851192e-01  4.389568911868855e+01  8.759458796411526e-01  -4.022692110972298e+01  8.759458796411526e-01  -4.022692110972298e+01  4.015946613926963e-01  46.7750942417027    
8.500000000000000e+00  4.071826641284487e-01  4.196292403634540e+01  8.677269548676022e-01  -4.247208836001714e+01  8.677269548676022e-01  -4.247208836001714e+01  4.202585463553516e-01  44.9990643989475    
9.000000000000000e+00  4.248360538605108e-01  4.003081768750076e+01  8.594188661750041e-01  -4.468454109262125e+01  8.594188661750041e-01  -4.468454109262125e+01  4.381699204223204e-01  43.2267709912417    
9.500000000000000e+00  4.417841940803576e-01  3.811259466414759e+01  8.511181955960185e-01  -4.686148061880542e+01  8.511181955960185e-01  -4.686148061880542e+01  4.553007548480031e-01  41.4651929164985    
1.000000000000000e+01  4.580520738259650e-01  3.620703454834931e+01  8.428279542337435e-01  -4.900476359956492e+01  8.428279542337435e-01  -4.900476359956492e+01  4.716810761074373e-01  39.7159558024505    
1.050000000000000e+01  4.736886048689221e-01  3.431073097836685e+01  8.345307654600611e-01  -5.111787811545999e+01  8.345307654600611e-01  -5.111787811545999e+01  4.873615291125050e-01  37.9785095625827    
1.100000000000000e+01  4.891247308009491e-01  3.244891715231078e+01  8.264173701078877e-01  -5.322958557242493e+01  8.264173701078877e-01  -5.322958557242493e+01  5.027879341990796e-01  36.2669246514986    
1.150000000000000e+01  5.034587464056853e-01  3.059255736802725e+01  8.183253139440101e-01  -5.527660712660567e+01  8.183253139440101e-01  -5.527660712660567e+01  5.170250613243900e-01  34.5651701708439    
1.200000000000000e+01  5.171168154038287e-01  2.875370824194994e+01  8.103404396566063e-01  -5.728887487417923e+01  8.103404396566063e-01  -5.728887487417923e+01  5.305176471762486e-01  32.883840282543     
1.250000000000000e+01  5.302331912739892e-01  2.693675760515938e+01  8.025028352785923e-01  -5.927375307204564e+01  8.025028352785923e-01  -5.927375307204564e+01  5.433989823534467e-01  31.2200736520079    
1.300000000000000e+01  5.427712600317512e-01  2.514015344711408e+01  7.948207640121390e-01  -6.122887341121794e+01  7.948207640121390e-01  -6.122887341121794e+01  5.556344180452719e-01  29.5757490928739    
1.350000000000000e+01  5.546933861225878e-01  2.336278490457768e+01  7.873033759646578e-01  -6.315164127723855e+01  7.873033759646578e-01  -6.315164127723855e+01  5.671848286964640e-01  27.9529960545646    
1.400000000000000e+01  5.661332776217269e-01  2.160734569695137e+01  7.799797478269743e-01  -6.504976552929064e+01  7.799797478269743e-01  -6.504976552929064e+01  5.781887870130950e-01  26.347899297632     
1.450000000000000e+01  5.770553023722095e-01  1.987226166666844e+01  7.728544424113954e-01  -6.692086863572983e+01  7.728544424113954e-01  -6.692086863572983e+01  5.886100757587938e-01  24.7620204410977    
1.500000000000000e+01  5.874203724703924e-01  1.815665348993845e+01  7.659353315815055e-01  -6.876221213858275e+01  7.659353315815055e-01  -6.876221213858275e+01  5.984067392426180e-01  23.1978345742129    
1.550000000000000e+01  5.973647137134263e-01  1.646149693185229e+01  7.592377823881238e-01  -7.058204577734897e+01  7.592377823881238e-01  -7.058204577734897e+01  6.077230373214345e-01  21.6494864199303    
1.600000000000000e+01  6.068498106694962e-01  1.478560614741836e+01  7.527659859196075e-01  -7.237777996242134e+01  7.527659859196075e-01  -7.237777996242134e+01  6.165184565459843e-01  20.1190470764566    
1.650000000000000e+01  6.158941904890546e-01  1.312847054702101e+01  7.465263333767842e-01  -7.415039885187109e+01  7.465263333767842e-01  -7.415039885187109e+01  6.248126297007149e-01  18.605934302731     
1.700000000000000e+01  6.244580258022553e-01  1.148954208385752e+01  7.405247637259038e-01  -7.589708617886610e+01  7.405247637259038e-01  -7.589708617886610e+01  6.325598952578774e-01  17.1128848151943    
1.750000000000000e+01  6.326731598436346e-01  9.868320237276977e+00  7.347645986741540e-01  -7.762631943785846e+01  7.347645986741540e-01  -7.762631943785846e+01  6.399062140125729e-01  15.6326961222564    