
!*************************************************************************
!! ASITIC Ver 10.20.99.0.0.0
!!  Data generated by the <2Port> command in <slow> mode.
!! Generated on Thu Apr 11 17:21:13 1974
!# Spiral Data:	Name = <SQ_150>, Square Spiral Inductor
!# L1 = 150.00, L2 = 150.00, Origin = <200.00,200.00>
!# Sides =   4, Metal =   4, Exit Metal =   3
!# W =  8.00, S =  2.00, N =  2.00
!# Theta =  0.00, Phase =   1
!# Technolog File Data <CMOS.tek> @ <.>
!# Auto-Cell Mode:  <alpha> = 0.050000, <beta> = 0.800000
!# Metal Layers
!# Name=M1        Met=0  Lyr=  1  Mz=48.70  T=0.50  RS=0.07  Col=YELLOW  
!# Name=M2        Met=1  Lyr=  1  Mz=47.60  T=0.50  RS=0.06  Col=LIGHTSKYBLUE1
!# Name=M3        Met=2  Lyr=  1  Mz=46.50  T=0.50  RS=0.06  Col=MEDIUM PURPLE
!# Name=M4        Met=3  Lyr=  1  Mz=45.50  T=0.50  RS=0.06  Col=LIGHT GREEN
!# Name=M5        Met=4  Lyr=  1  Mz=44.00  T=1.00  RS=0.03  Col=GREY    
!# Substrate Layers
!# Lyr=    0  Eps=  12  Rho=  10  DZ=7.5e+02  T=7e+02
!# Lyr=    1  Eps= 3.9  Rho=1e+14  DZ=  50  T=  50
!*************************************************************************
# GHZ S MA S11 mag    S11 phase  S12 mag    S12 phase  S21 mag    S21 phase  S22 mag    S22 phase  
1.000000000000000e+00  6.916558448333908e-02  4.788668642754988e+01  9.561548301847278e-01  -4.833957630320739e+00  9.561548301847278e-01  -4.833957630320739e+00  7.092006974460685e-02  48.8901810721565    
1.500000000000000e+00  9.252477233420972e-02  5.568290211915483e+01  9.538745011592616e-01  -7.235936653026924e+00  9.538745011592616e-01  -7.235936653026924e+00  9.516092569565843e-02  56.6321445414291    
2.000000000000000e+00  1.174286363247801e-01  5.914978317001021e+01  9.507061779267363e-01  -9.628431269129150e+00  9.507061779267363e-01  -9.628431269129150e+00  1.209208432341356e-01  60.1267416827471    
2.500000000000000e+00  1.427416183458357e-01  6.049042365859284e+01  9.467648476474677e-01  -1.200210248197091e+01  9.467648476474677e-01  -1.200210248197091e+01  1.470699549534090e-01  61.5337977749437    
3.000000000000000e+00  1.679311133419872e-01  6.069599649050676e+01  9.421816812566851e-01  -1.434924574122465e+01  9.421816812566851e-01  -1.434924574122465e+01  1.730635795357834e-01  61.8229625976938    
3.500000000000000e+00  1.929634925319585e-01  6.021272015116509e+01  9.369009736699788e-01  -1.667973038387177e+01  9.369009736699788e-01  -1.667973038387177e+01  1.988859398344704e-01  61.4417548286071    
4.000000000000000e+00  2.175335430950264e-01  5.932384759308952e+01  9.311079062416774e-01  -1.898122049941673e+01  9.311079062416774e-01  -1.898122049941673e+01  2.242052102511818e-01  60.6586913563431    
4.500000000000000e+00  2.417453492721864e-01  5.814620912181636e+01  9.247203892439799e-01  -2.126418241754285e+01  9.247203892439799e-01  -2.126418241754285e+01  2.491436911581485e-01  59.5963515115452    
5.000000000000000e+00  2.653745452746545e-01  5.679576339036323e+01  9.179177226233282e-01  -2.351686900326605e+01  9.179177226233282e-01  -2.351686900326605e+01  2.734523194827717e-01  58.3611464762248    
5.500000000000000e+00  2.885422063781339e-01  5.530477445442185e+01  9.106120014116943e-01  -2.574885709224783e+01  9.106120014116943e-01  -2.574885709224783e+01  2.972693421953965e-01  56.9914579646819    
6.000000000000000e+00  3.110784923693564e-01  5.373519491085314e+01  9.029744219959588e-01  -2.795013143801200e+01  9.029744219959588e-01  -2.795013143801200e+01  3.204027504872659e-01  55.5416936138336    
6.500000000000000e+00  3.330341605577234e-01  5.210252987878333e+01  8.949839270422190e-01  -3.012484782202557e+01  8.949839270422190e-01  -3.012484782202557e+01  3.429104929540757e-01  54.0301140234391    
7.000000000000000e+00  3.544611063948594e-01  5.041511926019636e+01  8.866063982215749e-01  -3.227720357266106e+01  8.866063982215749e-01  -3.227720357266106e+01  3.648506127410243e-01  52.4678684960717    
7.500000000000001e+00  3.752135346021603e-01  4.870870434765899e+01  8.780209827105244e-01  -3.439755561089186e+01  8.780209827105244e-01  -3.439755561089186e+01  3.860591595783192e-01  50.8841560628188    
8.000000000000000e+00  3.953524910854772e-01  4.698346427385608e+01  8.691972092635177e-01  -3.649024532617673e+01  8.691972092635177e-01  -3.649024532617673e+01  4.066039708897594e-01  49.281962616544     
8.500000000000000e+00  4.149006650408040e-01  4.524017364777070e+01  8.601175327059424e-01  -3.855729309474185e+01  8.601175327059424e-01  -3.855729309474185e+01  4.265129119492690e-01  47.6649132886751    
9.000000000000000e+00  4.338037227668959e-01  4.349988749214269e+01  8.509204963385713e-01  -4.059409359620151e+01  8.509204963385713e-01  -4.059409359620151e+01  4.457176529518854e-01  46.0479624556546    
9.500000000000000e+00  4.520923843137226e-01  4.176027675830000e+01  8.415884138692129e-01  -4.260293408239523e+01  8.415884138692129e-01  -4.260293408239523e+01  4.642549001296648e-01  44.4315515031377    
1.000000000000000e+01  4.697718267169224e-01  4.002523742232038e+01  8.321525244739573e-01  -4.458389866267080e+01  8.321525244739573e-01  -4.458389866267080e+01  4.821293602862626e-01  42.8194602653766    
1.050000000000000e+01  4.868913098865432e-01  3.828985169364834e+01  8.225739095457226e-01  -4.654050548767763e+01  8.225739095457226e-01  -4.654050548767763e+01  4.993928457933999e-01  41.2095776419949    
1.100000000000000e+01  5.039459885299807e-01  3.658319151456045e+01  8.130557011162498e-01  -4.850685731968877e+01  8.130557011162498e-01  -4.850685731968877e+01  5.165505494011968e-01  39.6206591740885    
1.150000000000000e+01  5.198717174697403e-01  3.487650487406528e+01  8.034694320752900e-01  -5.040754846793915e+01  8.034694320752900e-01  -5.040754846793915e+01  5.325098449341233e-01  38.035497933231     
1.200000000000000e+01  5.351349992421414e-01  3.318135186072823e+01  7.938791683020849e-01  -5.227559474367635e+01  7.938791683020849e-01  -5.227559474367635e+01  5.477548639846465e-01  36.4646621441508    
1.250000000000000e+01  5.499287103012170e-01  3.150291584772740e+01  7.843230698750298e-01  -5.412272106598775e+01  7.843230698750298e-01  -5.412272106598775e+01  5.624741307640057e-01  34.9065759922816    
1.300000000000000e+01  5.641796519252880e-01  2.983992197133673e+01  7.748130633663092e-01  -5.594392674036503e+01  7.748130633663092e-01  -5.594392674036503e+01  5.765974499720294e-01  33.3631792366618    
1.350000000000000e+01  5.779029502018815e-01  2.819299428628294e+01  7.653679769412919e-01  -5.773973782036782e+01  7.653679769412919e-01  -5.773973782036782e+01  5.901404396894946e-01  31.8350300380182    
1.400000000000000e+01  5.910251513299993e-01  2.656158100526081e+01  7.560032468567655e-01  -5.950472486816307e+01  7.560032468567655e-01  -5.950472486816307e+01  6.030283485312897e-01  30.3246920979675    
1.450000000000000e+01  6.037377480923052e-01  2.494811747323240e+01  7.467395079230630e-01  -6.125120556002563e+01  7.467395079230630e-01  -6.125120556002563e+01  6.154562687569328e-01  28.8282761756299    
1.500000000000000e+01  6.159708482485037e-01  2.335154505317996e+01  7.375874759332961e-01  -6.297408274297323e+01  7.375874759332961e-01  -6.297408274297323e+01  6.273538659170950e-01  27.347748014242     
1.550000000000000e+01  6.277408251735965e-01  2.177187872217813e+01  7.285597437677712e-01  -6.467400401030135e+01  7.285597437677712e-01  -6.467400401030135e+01  6.387382548575005e-01  25.8830645179274    
1.600000000000000e+01  6.389743246798172e-01  2.020912882943889e+01  7.196746003722857e-01  -6.634531127393629e+01  7.196746003722857e-01  -6.634531127393629e+01  6.495328493080258e-01  24.4373257984265    
1.650000000000000e+01  6.498649878174448e-01  1.866314137692773e+01  7.109295357494497e-01  -6.800110855967071e+01  7.109295357494497e-01  -6.800110855967071e+01  6.599393397873597e-01  23.0041067567005    
1.700000000000000e+01  6.603412252222828e-01  1.713359470615878e+01  7.023388506455077e-01  -6.963598610896297e+01  7.023388506455077e-01  -6.963598610896297e+01  6.698837205866069e-01  21.5860971583136    
1.750000000000000e+01  6.704187594697140e-01  1.562020808219378e+01  6.939102991012642e-01  -7.125063849919803e+01  6.939102991012642e-01  -7.125063849919803e+01  6.793825736780497e-01  20.1829611622832    