
!*************************************************************************
!! ASITIC Ver 10.20.99.0.0.0
!!  Data generated by the <2Port> command in <slow> mode.
!! Generated on Thu Apr 11 17:21:13 1974
!# Spiral Data:	Name = <SQ_220>, Square Spiral Inductor
!# L1 = 220.00, L2 = 220.00, Origin = <100.00,100.00>
!# Sides =   4, Metal =   4, Exit Metal =   3
!# W = 12.00, S =  3.00, N =  2.50
!# Theta =  0.00, Phase =   1
!# Technolog File Data <CMOS.tek> @ <.>
!# Auto-Cell Mode:  <alpha> = 0.050000, <beta> = 0.800000
!# Metal Layers
!# Name=M1        Met=0  Lyr=  1  Mz=48.70  T=0.50  RS=0.07  Col=YELLOW  
!# Name=M2        Met=1  Lyr=  1  Mz=47.60  T=0.50  RS=0.06  Col=LIGHTSKYBLUE1
!# Name=M3        Met=2  Lyr=  1  Mz=46.50  T=0.50  RS=0.06  Col=MEDIUM PURPLE
!# Name=M4        Met=3  Lyr=  1  Mz=45.50  T=0.50  RS=0.06  Col=LIGHT GREEN
!# Name=M5        Met=4  Lyr=  1  Mz=44.00  T=1.00  RS=0.03  Col=GREY    
!# Substrate Layers
!# Lyr=    0  Eps=  12  Rho=  10  DZ=7.5e+02  T=7e+02
!# Lyr=    1  Eps= 3.9  Rho=1e+14  DZ=  50  T=  50
!*************************************************************************
# GHZ S MA S11 mag    S11 phase  S12 mag    S12 phase  S21 mag    S21 phase  S22 mag    S22 phase  
1.000000000000000e+00  1.171958808354373e-01  5.600706073415503e+01  9.459375070454400e-01  -1.002129378076464e+01  9.459375070454400e-01  -1.002129378076464e+01  1.207691526003338e-01  57.2115279127668    
1.500000000000000e+00  1.658766775833447e-01  5.814046031818487e+01  9.378693420858277e-01  -1.493756044827452e+01  9.378693420858277e-01  -1.493756044827452e+01  1.712138528195155e-01  59.4958774877642    
2.000000000000000e+00  2.137245367645689e-01  5.703426436638366e+01  9.274196232888345e-01  -1.974604300970896e+01  9.274196232888345e-01  -1.974604300970896e+01  2.206796879928738e-01  58.6062904527474    
2.500000000000000e+00  2.596924716181814e-01  5.462264585357194e+01  9.150521194033054e-01  -2.443770066490998e+01  9.150521194033054e-01  -2.443770066490998e+01  2.681039142373444e-01  56.4439654479558    
3.000000000000000e+00  3.032890069535891e-01  5.162202348000514e+01  9.012387204617843e-01  -2.900148220605870e+01  9.012387204617843e-01  -2.900148220605870e+01  3.129662795015571e-01  53.7063515367529    
3.500000000000000e+00  3.444201767054288e-01  4.832948914232782e+01  8.862643234726201e-01  -3.343971819402421e+01  8.862643234726201e-01  -3.343971819402421e+01  3.551699292369553e-01  50.6885896651386    
4.000000000000000e+00  3.829394285800314e-01  4.491071520582909e+01  8.705118536482171e-01  -3.774512254178347e+01  8.705118536482171e-01  -3.774512254178347e+01  3.945472192321098e-01  47.5495298088697    
4.500000000000000e+00  4.188558529242533e-01  4.145184403707812e+01  8.542741718759433e-01  -4.191740767288093e+01  8.542741718759433e-01  -4.191740767288093e+01  4.310978764283949e-01  44.3726728753351    
5.000000000000000e+00  4.521786726731434e-01  3.800848460271469e+01  8.378548101057479e-01  -4.595420998644578e+01  8.378548101057479e-01  -4.595420998644578e+01  4.648247417159775e-01  41.210312243334     
5.500000000000000e+00  4.830712646659574e-01  3.460007944035480e+01  8.213890148296876e-01  -4.986339907213561e+01  8.213890148296876e-01  -4.986339907213561e+01  4.958969713641487e-01  38.085165779507     
6.000000000000000e+00  5.115872805876432e-01  3.125515623231506e+01  8.051488367583890e-01  -5.364329067063501e+01  8.051488367583890e-01  -5.364329067063501e+01  5.243646362942539e-01  35.0205606106036    
6.500000000000000e+00  5.379226839209081e-01  2.797474016236485e+01  7.892014566481810e-01  -5.730342866037405e+01  7.892014566481810e-01  -5.730342866037405e+01  5.504303336267681e-01  32.0211983453711    
7.000000000000000e+00  5.621684676049495e-01  2.477381442872984e+01  7.737530002472688e-01  -6.084422543857892e+01  7.737530002472688e-01  -6.084422543857892e+01  5.741893361689325e-01  29.0972702684419    
7.500000000000001e+00  5.845269446231057e-01  2.164597015041121e+01  7.588131483092523e-01  -6.427616476048598e+01  7.588131483092523e-01  -6.427616476048598e+01  5.958485857165299e-01  26.2460527771707    
8.000000000000000e+00  6.051014975475469e-01  1.859962435979807e+01  7.445317432509888e-01  -6.760087070235900e+01  7.445317432509888e-01  -6.760087070235900e+01  6.155217219960649e-01  23.4714621552233    
8.500000000000000e+00  6.240716157892052e-01  1.562620990219303e+01  7.308861080015530e-01  -7.082818463976766e+01  7.308861080015530e-01  -7.082818463976766e+01  6.333895637690442e-01  20.7686061955966    
9.000000000000000e+00  6.415569755385938e-01  1.272919067139412e+01  7.179653596857777e-01  -7.396169817884282e+01  7.179653596857777e-01  -7.396169817884282e+01  6.495865077869942e-01  18.1365164121635    
9.500000000000000e+00  6.576968755403597e-01  9.900558673848549e+00  7.057368677970293e-01  -7.700940512422716e+01  7.057368677970293e-01  -7.700940512422716e+01  6.642507231180036e-01  15.5707556040647    
1.000000000000000e+01  6.726164604419373e-01  7.140621368118603e+00  6.942432835768299e-01  -7.997633193448742e+01  6.942432835768299e-01  -7.997633193448742e+01  6.775229753981254e-01  13.0675002082502    
1.050000000000000e+01  6.864333474897554e-01  4.441109148112186e+00  6.834344929968990e-01  -8.287011102527583e+01  6.834344929968990e-01  -8.287011102527583e+01  6.895162887640167e-01  10.6217927305302    
1.100000000000000e+01  6.996232020831511e-01  1.799482645024812e+00  6.734050990827971e-01  -8.572515906777379e+01  6.734050990827971e-01  -8.572515906777379e+01  7.007718888008498e-01  8.22289603800533    
1.150000000000000e+01  7.115189638967598e-01  -7.843458979789892e-01  6.640129644662309e-01  -8.848556748066207e+01  6.640129644662309e-01  -8.848556748066207e+01  7.105348563639462e-01  5.8806811734346     
1.200000000000000e+01  7.225391002009405e-01  -3.315783151158672e+00  6.552892918884518e-01  -9.118373313913365e+01  6.552892918884518e-01  -9.118373313913365e+01  7.192624897989852e-01  3.58745155424222    
1.250000000000000e+01  7.328493956764633e-01  -5.799922118390238e+00  6.472063977667475e-01  -9.383077484865017e+01  6.472063977667475e-01  -9.383077484865017e+01  7.271442328240715e-01  1.33345364717673    
1.300000000000000e+01  7.424293416469143e-01  -8.238435900072339e+00  6.397467340337492e-01  -9.642462620285995e+01  6.397467340337492e-01  -9.642462620285995e+01  7.341461411580329e-01  -0.879111198476629  
1.350000000000000e+01  7.514271726858512e-01  -1.063682279567020e+01  6.328773075818312e-01  -9.897573107130786e+01  6.328773075818312e-01  -9.897573107130786e+01  7.404419170515673e-01  -3.06009872010172   
1.400000000000000e+01  7.598539181618129e-01  -1.299724160589840e+01  6.265767982593394e-01  -1.014847517036138e+02  6.265767982593394e-01  -1.014847517036138e+02  7.460382049404803e-01  -5.20998038244446   
1.450000000000000e+01  7.677168680681175e-01  -1.532128992221918e+01  6.208207397250995e-01  -1.039522054512932e+02  6.208207397250995e-01  -1.039522054512932e+02  7.509353909000914e-01  -7.32868980949599   
1.500000000000000e+01  7.751400534553569e-01  -1.761445418305203e+01  6.155819915295264e-01  -1.063874628448441e+02  6.155819915295264e-01  -1.063874628448441e+02  7.552858704058221e-01  -9.42598301854339   
1.550000000000000e+01  7.821211421278748e-01  -1.987816781026702e+01  6.108374456327759e-01  -1.087906507877357e+02  6.108374456327759e-01  -1.087906507877357e+02  7.590810643821929e-01  -11.5016573400778   
1.600000000000000e+01  7.886520610247967e-01  -2.211310666768900e+01  6.065639813265244e-01  -1.111617232546723e+02  6.065639813265244e-01  -1.111617232546723e+02  7.623052656132596e-01  -13.5549236759404   
1.650000000000000e+01  7.948441388073691e-01  -2.432519823276134e+01  6.027368427688450e-01  -1.135093031935482e+02  6.027368427688450e-01  -1.135093031935482e+02  7.650996939115954e-01  -15.5956411943815   
1.700000000000000e+01  8.006824622838327e-01  -2.651500353652093e+01  5.993354082948414e-01  -1.158330316174609e+02  5.993354082948414e-01  -1.158330316174609e+02  7.674424155239054e-01  -17.6229226063017   
1.750000000000000e+01  8.061482996145001e-01  -2.868245964426140e+01  5.963360895804513e-01  -1.181324286209015e+02  5.963360895804513e-01  -1.181324286209015e+02  7.693076404947888e-01  -19.635454974759    