
!*************************************************************************
!! ASITIC Ver 10.20.99.0.0.0
!!  Data generated by the <2Port> command in <slow> mode.
!! Generated on Thu Apr 11 17:21:13 1974
!# Spiral Data:	Name = <SQ_300>, Square Spiral Inductor
!# L1 = 300.00, L2 = 300.00, Origin = <100.00,100.00>
!# Sides =   4, Metal =   4, Exit Metal =   3
!# W =  8.00, S =  2.00, N =  4.00
!# Theta =  0.00, Phase =   1
!# Technolog File Data <CMOS.tek> @ <.>
!# Auto-Cell Mode:  <alpha> = 0.050000, <beta> = 0.800000
!# Metal Layers
!# Name=M1        Met=0  Lyr=  1  Mz=48.70  T=0.50  RS=0.07  Col=YELLOW  
!# Name=M2        Met=1  Lyr=  1  Mz=47.60  T=0.50  RS=0.06  Col=LIGHTSKYBLUE1
!# Name=M3        Met=2  Lyr=  1  Mz=46.50  T=0.50  RS=0.06  Col=MEDIUM PURPLE
!# Name=M4        Met=3  Lyr=  1  Mz=45.50  T=0.50  RS=0.06  Col=LIGHT GREEN
!# Name=M5        Met=4  Lyr=  1  Mz=44.00  T=1.00  RS=0.03  Col=GREY    
!# Substrate Layers
!# Lyr=    0  Eps=  12  Rho=  10  DZ=7.5e+02  T=7e+02
!# Lyr=    1  Eps= 3.9  Rho=1e+14  DZ=  50  T=  50
!*************************************************************************
# GHZ S MA S11 mag    S11 phase  S12 mag    S12 phase  S21 mag    S21 phase  S22 mag    S22 phase  
1.000000000000000e+00  4.180710615700947e-01  4.305505297213593e+01  7.885232017799916e-01  -2.927083482465907e+01  7.885232017799916e-01  -2.927083482465907e+01  4.213076417705954e-01  43.734157690194     
1.500000000000000e+00  5.526039890151867e-01  3.658761685116297e+01  7.231605880664304e-01  -4.142520729404408e+01  7.231605880664304e-01  -4.142520729404408e+01  5.567539019874572e-01  37.5043382436967    
2.000000000000000e+00  6.516567746342320e-01  2.928401146142760e+01  6.579882890443816e-01  -5.168719616875518e+01  6.579882890443816e-01  -5.168719616875518e+01  6.561281833783361e-01  30.4578916511162    
2.500000000000000e+00  7.221785942927491e-01  2.246592508743630e+01  6.002859319523558e-01  -6.034037324658733e+01  6.002859319523558e-01  -6.034037324658733e+01  7.264633023569499e-01  23.9028936142208    
3.000000000000000e+00  7.722379207974281e-01  1.635063460208132e+01  5.522135273668762e-01  -6.773945317796820e+01  5.522135273668762e-01  -6.773945317796820e+01  7.759196000932936e-01  18.0509957222028    
3.500000000000000e+00  8.081133303978432e-01  1.086242881016408e+01  5.132901221381314e-01  -7.419570416925794e+01  5.132901221381314e-01  -7.419570416925794e+01  8.108371547218085e-01  12.8274860615618    
4.000000000000000e+00  8.341696236236883e-01  5.894434684527162e+00  4.825283898768060e-01  -7.995390023631815e+01  4.825283898768060e-01  -7.995390023631815e+01  8.356363459701511e-01  8.1202701748674     
4.500000000000000e+00  8.532720516204161e-01  1.325856239804633e+00  4.585832559271749e-01  -8.519559799859098e+01  4.585832559271749e-01  -8.519559799859098e+01  8.532018712732630e-01  3.81034425766574    
5.000000000000000e+00  8.673592610966482e-01  -2.930294536956866e+00  4.404448360110470e-01  -9.005776745731352e+01  4.404448360110470e-01  -9.005776745731352e+01  8.655074736499612e-01  -0.193476360481442  
5.500000000000000e+00  8.776512812265547e-01  -6.954033907407061e+00  4.271503768001643e-01  -9.464202257042652e+01  4.271503768001643e-01  -9.464202257042652e+01  8.737705904582188e-01  -3.96981186481595   
6.000000000000000e+00  8.850230936442969e-01  -1.080069968032993e+01  4.180417986820579e-01  -9.902683690292864e+01  4.180417986820579e-01  -9.902683690292864e+01  8.788933675057260e-01  -7.5777327043964    
6.500000000000000e+00  8.899987111171566e-01  -1.451965656402064e+01  4.125500908454879e-01  -1.032727094880228e+02  4.125500908454879e-01  -1.032727094880228e+02  8.813986118528989e-01  -11.0667683448178   
7.000000000000000e+00  8.928855298667456e-01  -1.815055163306343e+01  4.102485840730385e-01  -1.074299589240452e+02  4.102485840730385e-01  -1.074299589240452e+02  8.815865803845010e-01  -14.4772492667747   
7.500000000000001e+00  8.939521118054082e-01  -2.172214629575231e+01  4.108504245111635e-01  -1.115358001837882e+02  4.108504245111635e-01  -1.115358001837882e+02  8.797550250576075e-01  -17.8413799766107   
8.000000000000000e+00  8.932640308007432e-01  -2.526243484699778e+01  4.141078011648692e-01  -1.156250288918159e+02  4.141078011648692e-01  -1.156250288918159e+02  8.759647644865128e-01  -21.1882048748403   
8.500000000000000e+00  8.907777798050306e-01  -2.879371784113758e+01  4.198374474284383e-01  -1.197292750091335e+02  4.198374474284383e-01  -1.197292750091335e+02  8.701674986951173e-01  -24.5419435058427   
9.000000000000000e+00  8.865262143981287e-01  -3.233585168592117e+01  4.279256050763556e-01  -1.238706478288302e+02  4.279256050763556e-01  -1.238706478288302e+02  8.624316493572418e-01  -27.9260260953939   
9.500000000000000e+00  8.803388773003813e-01  -3.590566596725956e+01  4.382675880691873e-01  -1.280744899211732e+02  4.382675880691873e-01  -1.280744899211732e+02  8.525896452802947e-01  -31.360043514567    
1.000000000000000e+01  8.720292432845590e-01  -3.951759225237782e+01  4.507845368025624e-01  -1.323628159837184e+02  4.507845368025624e-01  -1.323628159837184e+02  8.404749038705064e-01  -34.8624273596927   
1.050000000000000e+01  8.612507385743180e-01  -4.318299280053491e+01  4.653841723290948e-01  -1.367643125662901e+02  4.653841723290948e-01  -1.367643125662901e+02  8.257563299453557e-01  -38.4502458961279   
1.100000000000000e+01  8.482476762838156e-01  -4.697676539605529e+01  4.828632729029192e-01  -1.412888647995897e+02  4.828632729029192e-01  -1.412888647995897e+02  8.088398782872391e-01  -42.2094571600679   
1.150000000000000e+01  8.318612867615817e-01  -5.078817199570494e+01  5.016308682990162e-01  -1.459528572752910e+02  5.016308682990162e-01  -1.459528572752910e+02  7.884135541895200e-01  -46.0286579638106   
1.200000000000000e+01  8.119494782580925e-01  -5.465229779580164e+01  5.220387713599308e-01  -1.507780615998400e+02  5.220387713599308e-01  -1.507780615998400e+02  7.644674730692091e-01  -49.9586831733282   
1.250000000000000e+01  7.882608256682972e-01  -5.858903601811332e+01  5.442368682865592e-01  -1.557787355722877e+02  5.442368682865592e-01  -1.557787355722877e+02  7.368554976603212e-01  -54.0356691589814   
1.300000000000000e+01  7.572988813753415e-01  -6.301876058294516e+01  5.806885550358845e-01  -1.610156549862636e+02  5.806885550358845e-01  -1.610156549862636e+02  6.982327018158825e-01  -57.2276738510226   
1.350000000000000e+01  7.170273799637836e-01  -6.706867308385985e+01  6.122001480429136e-01  -1.664709047801225e+02  6.122001480429136e-01  -1.664709047801225e+02  6.552217409708826e-01  -61.2243064261375   
1.400000000000000e+01  6.677399522776326e-01  -7.087674776431199e+01  6.404408812838146e-01  -1.723347660459244e+02  6.404408812838146e-01  -1.723347660459244e+02  6.057082285313565e-01  -65.9310914132473   
1.450000000000000e+01  6.164571084635195e-01  -7.426013006631059e+01  6.630688555578893e-01  -1.782448562449325e+02  6.630688555578893e-01  -1.782448562449325e+02  5.570891341420898e-01  -71.280601592979    
1.500000000000000e+01  5.661884118595184e-01  -7.691599888090074e+01  6.827815057937564e-01  1.760613171562825e+02  6.827815057937564e-01  1.760613171562825e+02  5.104700826194519e-01  -76.6102386276303   
1.550000000000000e+01  5.240141424070062e-01  -7.913246650359218e+01  6.992968990956296e-01  1.706314354234168e+02  6.992968990956296e-01  1.706314354234168e+02  4.697599652540336e-01  -81.5111370080722   
1.600000000000000e+01  4.818428000719568e-01  -8.016357699235101e+01  7.195677450398840e-01  1.645801577010701e+02  7.195677450398840e-01  1.645801577010701e+02  4.140509583357505e-01  -85.5824002339079   
1.650000000000000e+01  4.559547687487176e-01  -8.379997749229258e+01  7.340720217817349e-01  1.584230113663776e+02  7.340720217817349e-01  1.584230113663776e+02  3.694232575640241e-01  -88.3339126222364   
1.700000000000000e+01  4.238849459327863e-01  -8.669240465622521e+01  7.500087899394747e-01  1.522603088293517e+02  7.500087899394747e-01  1.522603088293517e+02  3.109189069452362e-01  -91.0300309101336   
1.750000000000000e+01  3.748555731040634e-01  -9.027480537465448e+01  7.629315916603793e-01  1.461082889911009e+02  7.629315916603793e-01  1.461082889911009e+02  2.525388237401131e-01  -92.3917538472119   