
!*************************************************************************
!! ASITIC Ver 10.20.99.0.0.0
!!  Data generated by the <2Port> command in <slow> mode.
!! Generated on Thu Apr 11 17:21:13 1974
!# Spiral Data:	Name = <SQ_300>, Square Spiral Inductor
!# L1 = 300.00, L2 = 300.00, Origin = <50.00,50.00>
!# Sides =   4, Metal =   4, Exit Metal =   3
!# W = 12.00, S =  3.00, N =  3.00
!# Theta =  0.00, Phase =   1
!# Technolog File Data <CMOS.tek> @ <.>
!# Auto-Cell Mode:  <alpha> = 0.050000, <beta> = 0.800000
!# Metal Layers
!# Name=M1        Met=0  Lyr=  1  Mz=48.70  T=0.50  RS=0.07  Col=YELLOW  
!# Name=M2        Met=1  Lyr=  1  Mz=47.60  T=0.50  RS=0.06  Col=LIGHTSKYBLUE1
!# Name=M3        Met=2  Lyr=  1  Mz=46.50  T=0.50  RS=0.06  Col=MEDIUM PURPLE
!# Name=M4        Met=3  Lyr=  1  Mz=45.50  T=0.50  RS=0.06  Col=LIGHT GREEN
!# Name=M5        Met=4  Lyr=  1  Mz=44.00  T=1.00  RS=0.03  Col=GREY    
!# Substrate Layers
!# Lyr=    0  Eps=  12  Rho=  10  DZ=7.5e+02  T=7e+02
!# Lyr=    1  Eps= 3.9  Rho=1e+14  DZ=  50  T=  50
!*************************************************************************
# GHZ S MA S11 mag    S11 phase  S12 mag    S12 phase  S21 mag    S21 phase  S22 mag    S22 phase  
1.000000000000000e+00  2.305539976798773e-01  5.242050851262927e+01  9.004396377727625e-01  -1.886666639076588e+01  9.004396377727625e-01  -1.886666639076588e+01  2.353899628746527e-01  53.5774872315755    
1.500000000000000e+00  3.234243737863234e-01  4.926629874285676e+01  8.735688497733243e-01  -2.774787527807509e+01  8.735688497733243e-01  -2.774787527807509e+01  3.302518879140061e-01  50.738152097073     
2.000000000000000e+00  4.062340679603311e-01  4.390499131153785e+01  8.414400772112119e-01  -3.608244888772544e+01  8.414400772112119e-01  -3.608244888772544e+01  4.145004836468434e-01  45.7338414792452    
2.500000000000000e+00  4.777003657591835e-01  3.798469595512815e+01  8.070582352635265e-01  -4.384413598956927e+01  8.070582352635265e-01  -4.384413598956927e+01  4.868237013984844e-01  40.1897047910416    
3.000000000000000e+00  5.382425324328332e-01  3.206361952999799e+01  7.727739492316640e-01  -5.104799871104004e+01  7.727739492316640e-01  -5.104799871104004e+01  5.476393546490982e-01  34.651059848443     
3.500000000000000e+00  5.890732050698192e-01  2.633103310894007e+01  7.399984739618940e-01  -5.774143344846659e+01  7.399984739618940e-01  -5.774143344846659e+01  5.981885311155950e-01  29.306235171013     
4.000000000000000e+00  6.315234644594625e-01  2.086154500447719e+01  7.097147182304691e-01  -6.397621904781415e+01  7.097147182304691e-01  -6.397621904781415e+01  6.398324193860669e-01  24.2243744664765    
4.500000000000000e+00  6.669199517806244e-01  1.566485730419139e+01  6.823980504315499e-01  -6.980917321900515e+01  6.823980504315499e-01  -6.980917321900515e+01  6.739340066723175e-01  19.4130464861625    
5.000000000000000e+00  6.964466077596803e-01  1.072911194187308e+01  6.582651683506127e-01  -7.529431618317719e+01  6.582651683506127e-01  -7.529431618317719e+01  7.017154604246399e-01  14.8570878281504    
5.500000000000000e+00  7.211318367803407e-01  6.022083549934262e+00  6.372339828767066e-01  -8.048532700035699e+01  6.372339828767066e-01  -8.048532700035699e+01  7.242272138616810e-01  10.5265992286575    
6.000000000000000e+00  7.418019328015860e-01  1.521721759196976e+00  6.192633940812792e-01  -8.542536639641953e+01  6.192633940812792e-01  -8.542536639641953e+01  7.423323025034833e-01  6.3948701417566     
6.500000000000000e+00  7.591318671958204e-01  -2.805204821833924e+00  6.041307672487528e-01  -9.015657449572782e+01  6.041307672487528e-01  -9.015657449572782e+01  7.567138457313928e-01  2.43106129408676    
7.000000000000000e+00  7.736640085799108e-01  -6.979634348595122e+00  5.917059437683082e-01  -9.471159050875697e+01  5.917059437683082e-01  -9.471159050875697e+01  7.679489986248481e-01  -1.39002989160434   
7.500000000000001e+00  7.858139540392185e-01  -1.102967112161727e+01  5.817550982541239e-01  -9.912283598815685e+01  5.817550982541239e-01  -9.912283598815685e+01  7.764508276381591e-01  -5.09431754592975   
8.000000000000000e+00  7.959281177998493e-01  -1.497214350648051e+01  5.741404169846935e-01  -1.034140758326820e+02  5.741404169846935e-01  -1.034140758326820e+02  7.825997348024674e-01  -8.70253905099094   
8.500000000000000e+00  8.042396773061835e-01  -1.882897380935998e+01  5.686672234919500e-01  -1.076097542977818e+02  5.686672234919500e-01  -1.076097542977818e+02  7.866201803590214e-01  -12.2349094300638   
9.000000000000000e+00  8.109783098158470e-01  -2.261444246098116e+01  5.652016084509291e-01  -1.117283629195583e+02  5.652016084509291e-01  -1.117283629195583e+02  7.887746273418753e-01  -15.7089854178704   
9.500000000000000e+00  8.162540037237621e-01  -2.634496378429817e+01  5.635941943619330e-01  -1.157882549436179e+02  5.635941943619330e-01  -1.157882549436179e+02  7.891614710266877e-01  -19.1396574262662   
1.000000000000000e+01  8.202096211416458e-01  -3.003224352278201e+01  5.637331808031902e-01  -1.198033148928656e+02  5.637331808031902e-01  -1.198033148928656e+02  7.879564707558285e-01  -22.5422880569153   
1.050000000000000e+01  8.228733144985783e-01  -3.368986399222686e+01  5.654997036055702e-01  -1.237893023625868e+02  5.654997036055702e-01  -1.237893023625868e+02  7.851757486364920e-01  -25.9293132272672   
1.100000000000000e+01  8.246481474862710e-01  -3.735279077871707e+01  5.691272237890533e-01  -1.277737412570779e+02  5.691272237890533e-01  -1.277737412570779e+02  7.812867545252963e-01  -29.3414691521152   
1.150000000000000e+01  8.249268034737233e-01  -4.098177314550492e+01  5.739340993447895e-01  -1.317297143288247e+02  5.739340993447895e-01  -1.317297143288247e+02  7.756130053589433e-01  -32.7340598128992   
1.200000000000000e+01  8.239600895896819e-01  -4.460436473961751e+01  5.800727763745090e-01  -1.356840446288940e+02  5.800727763745090e-01  -1.356840446288940e+02  7.684424868375753e-01  -36.1376441640773   
1.250000000000000e+01  8.218307199175297e-01  -4.823450564238197e+01  5.875071477676732e-01  -1.396484119611588e+02  5.875071477676732e-01  -1.396484119611588e+02  7.598848105337558e-01  -39.5690406365607   
1.300000000000000e+01  8.167777146350199e-01  -5.209532265700756e+01  6.025508740860759e-01  -1.437561136690264e+02  6.025508740860759e-01  -1.437561136690264e+02  7.452811533453241e-01  -42.6044044228367   
1.350000000000000e+01  7.975646950592715e-01  -5.553670171901319e+01  6.251565708592858e-01  -1.475852940337491e+02  6.251565708592858e-01  -1.475852940337491e+02  7.224745780314729e-01  -45.9021630303413   
1.400000000000000e+01  7.771406385375521e-01  -5.897541114166196e+01  6.428665360692931e-01  -1.515331898827876e+02  6.428665360692931e-01  -1.515331898827876e+02  7.013120956501481e-01  -49.8980304681907   
1.450000000000000e+01  7.693070662500181e-01  -6.275019917044619e+01  6.550652209403149e-01  -1.556307023080454e+02  6.550652209403149e-01  -1.556307023080454e+02  6.853547578412930e-01  -53.3479939961844   
1.500000000000000e+01  7.452974096236809e-01  -6.633417234822100e+01  6.699223157438948e-01  -1.597828912537871e+02  6.699223157438948e-01  -1.597828912537871e+02  6.635320253386614e-01  -58.0418123307035   
1.550000000000000e+01  7.299281798065278e-01  -7.021381300043865e+01  6.762172005689564e-01  -1.640079549132302e+02  6.762172005689564e-01  -1.640079549132302e+02  6.516988805315292e-01  -63.0376559363457   
1.600000000000000e+01  7.161446435782437e-01  -7.402098441863752e+01  6.897272958330606e-01  -1.681862905954713e+02  6.897272958330606e-01  -1.681862905954713e+02  6.315489031674055e-01  -66.7567049053313   
1.650000000000000e+01  7.102389537275046e-01  -7.830653948474537e+01  6.939151746702922e-01  -1.725906424881759e+02  6.939151746702922e-01  -1.725906424881759e+02  6.239043001099129e-01  -71.2141453135885   
1.700000000000000e+01  6.956902191657730e-01  -8.224128749005916e+01  7.077247040319026e-01  -1.768098847320846e+02  7.077247040319026e-01  -1.768098847320846e+02  6.020929837892027e-01  -74.9876031558811   
1.750000000000000e+01  6.806809133088119e-01  -8.626118921293592e+01  7.215198393106059e-01  1.789489249189056e+02  7.215198393106059e-01  1.789489249189056e+02  5.790103862989562e-01  -78.7892940010616   