
!*************************************************************************
!! ASITIC Ver 10.20.99.0.0.0
!!  Data generated by the <2Port> command in <slow> mode.
!! Generated on Thu Apr 11 17:21:13 1974
!# Spiral Data:	Name = <SQ_260>, Square Spiral Inductor
!# L1 = 260.00, L2 = 260.00, Origin = <100.00,120.00>
!# Sides =   4, Metal =   4, Exit Metal =   3
!# W = 10.00, S =  4.00, N =  2.25
!# Theta =  0.00, Phase =   1
!# Technolog File Data <CMOS.tek> @ <.>
!# Auto-Cell Mode:  <alpha> = 0.050000, <beta> = 0.800000
!# Metal Layers
!# Name=M1        Met=0  Lyr=  1  Mz=48.70  T=0.50  RS=0.07  Col=YELLOW  
!# Name=M2        Met=1  Lyr=  1  Mz=47.60  T=0.50  RS=0.06  Col=LIGHTSKYBLUE1
!# Name=M3        Met=2  Lyr=  1  Mz=46.50  T=0.50  RS=0.06  Col=MEDIUM PURPLE
!# Name=M4        Met=3  Lyr=  1  Mz=45.50  T=0.50  RS=0.06  Col=LIGHT GREEN
!# Name=M5        Met=4  Lyr=  1  Mz=44.00  T=1.00  RS=0.03  Col=GREY    
!# Substrate Layers
!# Lyr=    0  Eps=  12  Rho=  10  DZ=7.5e+02  T=7e+02
!# Lyr=    1  Eps= 3.9  Rho=1e+14  DZ=  50  T=  50
!*************************************************************************
# GHZ S MA S11 mag    S11 phase  S12 mag    S12 phase  S21 mag    S21 phase  S22 mag    S22 phase  
1.000000000000000e+00  1.433610452532486e-01  5.282457555922221e+01  9.286861946242279e-01  -1.150420269872578e+01  9.286861946242279e-01  -1.150420269872578e+01  1.466675554579692e-01  53.8256446106894    
1.500000000000000e+00  2.008471893420655e-01  5.491466106212058e+01  9.182666215624854e-01  -1.712841868463988e+01  9.182666215624854e-01  -1.712841868463988e+01  2.057268436069761e-01  56.0516743014342    
2.000000000000000e+00  2.571780803119900e-01  5.355265647697642e+01  9.046773222042661e-01  -2.260561222196723e+01  9.046773222042661e-01  -2.260561222196723e+01  2.634591835256407e-01  54.8792044218431    
2.500000000000000e+00  3.107765552084195e-01  5.077186535579709e+01  8.885059621323766e-01  -2.791851385958257e+01  8.885059621323766e-01  -2.791851385958257e+01  3.182800611756579e-01  52.3188283988861    
3.000000000000000e+00  3.608261420695401e-01  4.736658735166910e+01  8.705125830033075e-01  -3.304530183599534e+01  8.705125830033075e-01  -3.304530183599534e+01  3.693426787762563e-01  49.1473556982251    
3.500000000000000e+00  4.069862534674810e-01  4.369811579202851e+01  8.513995038003644e-01  -3.797380046155862e+01  8.513995038003644e-01  -3.797380046155862e+01  4.162824349215791e-01  45.7162313734085    
4.000000000000000e+00  4.493145381795219e-01  3.992410656208862e+01  8.315738116495697e-01  -4.270948753988073e+01  8.315738116495697e-01  -4.270948753988073e+01  4.591665028983742e-01  42.1861503454713    
4.500000000000000e+00  4.878469712766747e-01  3.615078472894198e+01  8.115736923697447e-01  -4.725053440610756e+01  8.115736923697447e-01  -4.725053440610756e+01  4.980197727831249e-01  38.657575955106     
5.000000000000000e+00  5.227360034117423e-01  3.243696568653911e+01  7.918301775415160e-01  -5.159983830006671e+01  7.918301775415160e-01  -5.159983830006671e+01  5.329932782012676e-01  35.1854122206354    
5.500000000000000e+00  5.542926787958933e-01  2.879816971296425e+01  7.725126923544763e-01  -5.577158756911061e+01  7.725126923544763e-01  -5.577158756911061e+01  5.644131857472889e-01  31.7894147177535    
6.000000000000000e+00  5.827303479250244e-01  2.526116347467510e+01  7.539498371190723e-01  -5.977083838970117e+01  7.539498371190723e-01  -5.977083838970117e+01  5.924932745827326e-01  28.4902643965206    
6.500000000000000e+00  6.083728291546795e-01  2.182117438341962e+01  7.361888540462778e-01  -6.361326497876055e+01  7.361888540462778e-01  -6.361326497876055e+01  6.175709993083773e-01  25.2874880746931    
7.000000000000000e+00  6.314475228983302e-01  1.848930978183192e+01  7.194357930920854e-01  -6.730582729573754e+01  7.194357930920854e-01  -6.730582729573754e+01  6.398811126767716e-01  22.1866941260877    
7.500000000000001e+00  6.522342628873030e-01  1.525809059516370e+01  7.037016305717322e-01  -7.086227035943136e+01  7.037016305717322e-01  -7.086227035943136e+01  6.597149684418713e-01  19.1821882829255    
8.000000000000000e+00  6.709815956993044e-01  1.211893604806443e+01  6.889721795229069e-01  -7.429553398167241e+01  6.889721795229069e-01  -7.429553398167241e+01  6.773275698936824e-01  16.2672517095523    
8.500000000000000e+00  6.878814327939348e-01  9.074968557310598e+00  6.753443587777220e-01  -7.761266225873553e+01  6.753443587777220e-01  -7.761266225873553e+01  6.929256181130445e-01  13.4397750265656    
9.000000000000000e+00  7.031294815823147e-01  6.114272586174410e+00  6.627479374202344e-01  -8.082539278335662e+01  6.627479374202344e-01  -8.082539278335662e+01  7.067078618046974e-01  10.6919318675697    
9.500000000000000e+00  7.169263972291395e-01  3.233726287528583e+00  6.511872419916788e-01  -8.394389387690323e+01  6.511872419916788e-01  -8.394389387690323e+01  7.188911645162438e-01  8.01558643495555    
1.000000000000000e+01  7.294142063763760e-01  4.254862409562334e-01  6.406154011854874e-01  -8.697681912878457e+01  6.406154011854874e-01  -8.697681912878457e+01  7.296232491579431e-01  5.40460814094712    
1.050000000000000e+01  7.407254801991671e-01  -2.319239386683634e+00  6.309697589934152e-01  -8.993350120515244e+01  6.309697589934152e-01  -8.993350120515244e+01  7.390370453390329e-01  2.85174263879191    
1.100000000000000e+01  7.513444884595586e-01  -5.010638381532499e+00  6.222749946440894e-01  -9.285176109645924e+01  6.222749946440894e-01  -9.285176109645924e+01  7.476648647752634e-01  0.339033010727455   
1.150000000000000e+01  7.606524977197097e-01  -7.638767797388795e+00  6.144436864167454e-01  -9.567559176349569e+01  6.144436864167454e-01  -9.567559176349569e+01  7.548418815740185e-01  -2.11591153138849   
1.200000000000000e+01  7.690437406628126e-01  -1.021561449119318e+01  6.074502911971192e-01  -9.843890862830725e+01  6.074502911971192e-01  -9.843890862830725e+01  7.609837838518521e-01  -4.52620735043757   
1.250000000000000e+01  7.767023359114488e-01  -1.274932869606249e+01  6.012301316647078e-01  -1.011563223396020e+02  6.012301316647078e-01  -1.011563223396020e+02  7.663008961975667e-01  -6.90534204860816   
1.300000000000000e+01  7.836410246123369e-01  -1.524293741461848e+01  5.957536007765198e-01  -1.038291079495889e+02  5.957536007765198e-01  -1.038291079495889e+02  7.708059719712899e-01  -9.25455405399228   
1.350000000000000e+01  7.898659744571759e-01  -1.769887036112454e+01  5.909911914883205e-01  -1.064585633361149e+02  5.909911914883205e-01  -1.064585633361149e+02  7.745024477666502e-01  -11.5747999257733   
1.400000000000000e+01  7.955236753732547e-01  -2.012462633515183e+01  5.868856344466690e-01  -1.090570097132867e+02  5.868856344466690e-01  -1.090570097132867e+02  7.775676925200919e-01  -13.8783365284061   
1.450000000000000e+01  8.006045143724662e-01  -2.252223701554430e+01  5.834116456140782e-01  -1.116250568861443e+02  5.834116456140782e-01  -1.116250568861443e+02  7.799910093585845e-01  -16.1657919226817   
1.500000000000000e+01  7.970182173350492e-01  -2.458366783670925e+01  5.893465813867164e-01  -1.138613343345440e+02  5.893465813867164e-01  -1.138613343345440e+02  7.752484375994473e-01  -18.2132124746233   
1.550000000000000e+01  7.874015603412037e-01  -2.657956280997512e+01  6.003655145047967e-01  -1.161314333904088e+02  6.003655145047967e-01  -1.161314333904088e+02  7.659576291147816e-01  -20.7667088918946   
1.600000000000000e+01  7.843019839140876e-01  -2.862872331489900e+01  6.015740904062282e-01  -1.183857419476290e+02  6.015740904062282e-01  -1.183857419476290e+02  7.637042180531346e-01  -23.7220800858792   
1.650000000000000e+01  7.857140906195875e-01  -3.093815886303219e+01  6.014324504145125e-01  -1.208673875239396e+02  6.014324504145125e-01  -1.208673875239396e+02  7.630272103474273e-01  -25.9730886287295   
1.700000000000000e+01  7.854132741785946e-01  -3.378448663414932e+01  5.967633217511232e-01  -1.238605287671480e+02  5.967633217511232e-01  -1.238605287671480e+02  7.650151523155031e-01  -29.9844832418637   
1.750000000000000e+01  7.853568204654067e-01  -3.610730039832873e+01  5.973217253677156e-01  -1.263587250934056e+02  5.973217253677156e-01  -1.263587250934056e+02  7.634753356315094e-01  -32.3389208477645   