
!*************************************************************************
!! ASITIC Ver 10.20.99.0.0.0
!!  Data generated by the <2Port> command in <slow> mode.
!! Generated on Thu Apr 11 17:21:13 1974
!# Spiral Data:	Name = <YP_80_2>, Symmetric Polygon Inductor, Radius = 80.00, Origin = <200.00,200.00>
!# Sides =   8, Metal =   2, Exit Metal =   1
!# W = 10.00, S =  3.00, N =  2.00
!# Theta =  0.00, Phase =   1
!# Technolog File Data <BiCMOS.tek> @ <.>
!# Auto-Cell Mode:  <alpha> = 0.050000, <beta> = 0.800000
!# Metal Layers
!# Name=MSUB      Met=0  Lyr=  1  Mz=50.00  T=0.40  RS=0.04  Col=BLUE    
!# Name=M2        Met=1  Lyr=  2  Mz=47.00  T=0.80  RS=0.05  Col=GREEN   
!# Name=M3        Met=2  Lyr=  2  Mz=45.00  T=2.00  RS=0.02  Col=RED     
!# Substrate Layers
!# Lyr=    0  Eps=  12  Rho=1e+05  DZ=8.5e+02  T=8e+02
!# Lyr=    1  Eps=  12  Rho=1e+03  DZ=  52  T=   2
!# Lyr=    2  Eps=   4  Rho=1e+14  DZ=  50  T=  50
!*************************************************************************
# GHZ S MA S11 mag    S11 phase  S12 mag    S12 phase  S21 mag    S21 phase  S22 mag    S22 phase  
1.000000000000000e+00  4.247264497719426e-02  6.196397571215508e+01  9.746881268690274e-01  -4.033464149047019e+00  9.746881268690274e-01  -4.033464149047019e+00  4.346140336891996e-02  61.8921198903208    
1.500000000000000e+00  6.092379576711159e-02  7.062356395853796e+01  9.695599367520930e-01  -5.952206162522894e+00  9.695599367520930e-01  -5.952206162522894e+00  6.217826501970958e-02  70.3922648588137    
2.000000000000000e+00  8.119411458155726e-02  7.471132233660464e+01  9.633956841351214e-01  -7.789289551812924e+00  9.633956841351214e-01  -7.789289551812924e+00  8.268294455624538e-02  74.4285535335878    
2.500000000000000e+00  1.026765653843870e-01  7.654046876350994e+01  9.567258453853698e-01  -9.554236236391265e+00  9.567258453853698e-01  -9.554236236391265e+00  1.043748536208528e-01  76.2504054419207    
3.000000000000000e+00  1.248753489059462e-01  7.705259700979080e+01  9.497533198126985e-01  -1.125832594529003e+01  9.497533198126985e-01  -1.125832594529003e+01  1.267660106630171e-01  76.7773576914844    
3.500000000000000e+00  1.474995569076573e-01  7.681498642594775e+01  9.426997684850102e-01  -1.291981070244847e+01  9.426997684850102e-01  -1.291981070244847e+01  1.495704660371204e-01  76.5652219596309    
4.000000000000000e+00  1.726476869446960e-01  7.602743524553583e+01  9.353673154815547e-01  -1.469444388674798e+01  9.353673154815547e-01  -1.469444388674798e+01  1.748888721325199e-01  75.8149396950415    
4.500000000000000e+00  1.956635870020745e-01  7.499665991268283e+01  9.280611350585952e-01  -1.631861908640237e+01  9.280611350585952e-01  -1.631861908640237e+01  1.980733366196863e-01  74.8159063728111    
5.000000000000000e+00  2.184172813110154e-01  7.376675119652411e+01  9.205564190921354e-01  -1.791891199968149e+01  9.205564190921354e-01  -1.791891199968149e+01  2.209921999913112e-01  73.6178271318066    
5.500000000000000e+00  2.409799806180674e-01  7.243219841190654e+01  9.129166227766421e-01  -1.950848623392386e+01  9.129166227766421e-01  -1.950848623392386e+01  2.437165867124920e-01  72.3144323364634    
6.000000000000000e+00  2.631280299362435e-01  7.101428211659086e+01  9.050181303167546e-01  -2.107932854053045e+01  9.050181303167546e-01  -2.107932854053045e+01  2.660235848535577e-01  70.9266098653732    
6.500000000000000e+00  2.849897961116976e-01  6.956107208690827e+01  8.969292802309765e-01  -2.264307206171658e+01  8.969292802309765e-01  -2.264307206171658e+01  2.880407798300760e-01  69.5023177518339    
7.000000000000000e+00  3.064562221955897e-01  6.808175567247234e+01  8.885904598944848e-01  -2.419532354887828e+01  8.885904598944848e-01  -2.419532354887828e+01  3.096591835061218e-01  68.0507209575541    
7.500000000000001e+00  3.273933172845969e-01  6.658312826389225e+01  8.799539428579134e-01  -2.572896380029512e+01  8.799539428579134e-01  -2.572896380029512e+01  3.307446781115041e-01  66.5786561947703    
8.000000000000000e+00  3.479986320322315e-01  6.508630634387244e+01  8.710929719828889e-01  -2.725750986340926e+01  8.710929719828889e-01  -2.725750986340926e+01  3.514940971445209e-01  65.1073343302184    
8.500000000000000e+00  3.681581350638610e-01  6.359107671047712e+01  8.619713152932975e-01  -2.877420801675732e+01  8.619713152932975e-01  -2.877420801675732e+01  3.717932935434564e-01  63.6366152783637    
9.000000000000000e+00  3.877431729465227e-01  6.209778433217447e+01  8.525626672148015e-01  -3.027075447707981e+01  8.525626672148015e-01  -3.027075447707981e+01  3.915133563680805e-01  62.1669241705668    
9.500000000000000e+00  4.069763409301445e-01  6.061778505346899e+01  8.429388817812407e-01  -3.176196905032869e+01  8.429388817812407e-01  -3.176196905032869e+01  4.108765188377687e-01  60.7097085712842    
1.000000000000000e+01  4.257418592596003e-01  5.914900157540383e+01  8.330784629720505e-01  -3.324018718019889e+01  8.330784629720505e-01  -3.324018718019889e+01  4.297668167522583e-01  59.2629557314271    
1.050000000000000e+01  4.447923448699443e-01  5.764478582319610e+01  8.226490915873844e-01  -3.475868464179675e+01  8.226490915873844e-01  -3.475868464179675e+01  4.489359066306008e-01  57.7804900188405    
1.100000000000000e+01  4.626289539684696e-01  5.620042245416941e+01  8.123190534985354e-01  -3.621174966273490e+01  8.123190534985354e-01  -3.621174966273490e+01  4.668860607986946e-01  56.3568118711117    
1.150000000000000e+01  4.799882055730426e-01  5.477107801131776e+01  8.017920477281288e-01  -3.765066771402596e+01  8.017920477281288e-01  -3.765066771402596e+01  4.843530753548665e-01  54.9475738385801    
1.200000000000000e+01  4.967135546458413e-01  5.335785465086871e+01  7.910808171027152e-01  -3.906379090800752e+01  7.910808171027152e-01  -3.906379090800752e+01  5.011804639866339e-01  53.5539363800988    
1.250000000000000e+01  5.131137065395558e-01  5.196071778580046e+01  7.802089445264105e-01  -4.047302165294124e+01  7.802089445264105e-01  -4.047302165294124e+01  5.176764769869092e-01  52.1758802538128    
1.300000000000000e+01  5.290405217419802e-01  5.058007650822465e+01  7.691865664147125e-01  -4.186740953553659e+01  7.691865664147125e-01  -4.186740953553659e+01  5.336930709022315e-01  50.8138571833537    
1.350000000000000e+01  5.444972409161605e-01  4.921616824057507e+01  7.580292235301050e-01  -4.324680589465017e+01  7.580292235301050e-01  -4.324680589465017e+01  5.492334289831861e-01  49.4681337309238    
1.400000000000000e+01  5.593298768463675e-01  4.787102780617623e+01  7.467640860469678e-01  -4.459888681607186e+01  7.467640860469678e-01  -4.459888681607186e+01  5.641437350586549e-01  48.1408005953196    
1.450000000000000e+01  5.738554661182694e-01  4.654131417431684e+01  7.353861460451794e-01  -4.594748966023227e+01  7.353861460451794e-01  -4.594748966023227e+01  5.787406071391794e-01  46.8284822128721    
1.500000000000000e+01  5.879259482920650e-01  4.522860147092668e+01  7.239184173469182e-01  -4.728089707463944e+01  7.239184173469182e-01  -4.728089707463944e+01  5.928761673945417e-01  45.5327977121914    
1.550000000000000e+01  6.015476455451683e-01  4.393287300571123e+01  7.123750666676262e-01  -4.859911377002717e+01  7.123750666676262e-01  -4.859911377002717e+01  6.065567447374320e-01  44.2537468632585    
1.600000000000000e+01  6.145698887038649e-01  4.265749192610168e+01  7.007995683071991e-01  -4.988911910284885e+01  7.007995683071991e-01  -4.988911910284885e+01  6.196319402554271e-01  42.9947475118584    
1.650000000000000e+01  6.273128619195407e-01  4.139580770851766e+01  6.891488921678914e-01  -5.117665666025456e+01  6.891488921678914e-01  -5.117665666025456e+01  6.324214963771860e-01  41.7490850977967    