
!*************************************************************************
!! ASITIC Ver 10.20.99.0.0.0
!!  Data generated by the <2Port> command in <slow> mode.
!! Generated on Thu Apr 11 17:21:13 1974
!# Spiral Data:	Name = <YP_120_2>, Symmetric Polygon Inductor, Radius = 120.00, Origin = <200.00,200.00>
!# Sides =   8, Metal =   2, Exit Metal =   1
!# W = 10.00, S =  3.00, N =  2.00
!# Theta =  0.00, Phase =   1
!# Technolog File Data <BiCMOS.tek> @ <.>
!# Auto-Cell Mode:  <alpha> = 0.050000, <beta> = 0.800000
!# Metal Layers
!# Name=MSUB      Met=0  Lyr=  1  Mz=50.00  T=0.40  RS=0.04  Col=BLUE    
!# Name=M2        Met=1  Lyr=  2  Mz=47.00  T=0.80  RS=0.05  Col=GREEN   
!# Name=M3        Met=2  Lyr=  2  Mz=45.00  T=2.00  RS=0.02  Col=RED     
!# Substrate Layers
!# Lyr=    0  Eps=  12  Rho=1e+05  DZ=8.5e+02  T=8e+02
!# Lyr=    1  Eps=  12  Rho=1e+03  DZ=  52  T=   2
!# Lyr=    2  Eps=   4  Rho=1e+14  DZ=  50  T=  50
!*************************************************************************
# GHZ S MA S11 mag    S11 phase  S12 mag    S12 phase  S21 mag    S21 phase  S22 mag    S22 phase  
1.000000000000000e+00  7.795897904367942e-02  6.620560492852805e+01  9.591492767442088e-01  -7.000796460602612e+00  9.591492767442088e-01  -7.000796460602612e+00  7.931750111961573e-02  66.1711478888951    
1.500000000000000e+00  1.155408614298042e-01  7.170906869152581e+01  9.478794883505227e-01  -1.026123465698244e+01  9.478794883505227e-01  -1.026123465698244e+01  1.173324122202221e-01  71.5807296196474    
2.000000000000000e+00  1.556329343129366e-01  7.299906147335629e+01  9.348135176245472e-01  -1.335613147937882e+01  9.348135176245472e-01  -1.335613147937882e+01  1.577928584633484e-01  72.854661824145     
2.500000000000000e+00  1.966164249419080e-01  7.240123785164386e+01  9.207963623965882e-01  -1.632431829629004e+01  9.207963623965882e-01  -1.632431829629004e+01  1.991038692706962e-01  72.2724995867305    
3.000000000000000e+00  2.373857403856614e-01  7.084750089300032e+01  9.059925273460454e-01  -1.919532528037783e+01  9.059925273460454e-01  -1.919532528037783e+01  2.401761582985734e-01  70.7475149464937    
3.500000000000000e+00  2.773937258276926e-01  6.883146801538071e+01  8.905645800069407e-01  -2.199659529873766e+01  8.905645800069407e-01  -2.199659529873766e+01  2.804695963129420e-01  68.7647968183758    
4.000000000000000e+00  3.195467516071059e-01  6.640706472468274e+01  8.735927266797282e-01  -2.495607810750504e+01  8.735927266797282e-01  -2.495607810750504e+01  3.228966911028385e-01  66.3783030115761    
4.500000000000000e+00  3.572983356065150e-01  6.401305832933610e+01  8.565660240490209e-01  -2.766810514618284e+01  8.565660240490209e-01  -2.766810514618284e+01  3.609064630871260e-01  64.0178311817325    
5.000000000000000e+00  3.933796488921119e-01  6.156932730376432e+01  8.388014700090671e-01  -3.031852501290053e+01  8.388014700090671e-01  -3.031852501290053e+01  3.972318429323404e-01  61.6065898577959    
5.500000000000000e+00  4.279384219011885e-01  5.912817575089003e+01  8.204317486223232e-01  -3.292215111914337e+01  8.204317486223232e-01  -3.292215111914337e+01  4.320197292228245e-01  59.1967042520354    
6.000000000000000e+00  4.607196191669092e-01  5.670426029117182e+01  8.014521427901208e-01  -3.546326079081759e+01  8.014521427901208e-01  -3.546326079081759e+01  4.650144616469798e-01  56.8028496786105    
6.500000000000000e+00  4.919371929665491e-01  5.431957184909867e+01  7.820060127641156e-01  -3.795670559205244e+01  7.820060127641156e-01  -3.795670559205244e+01  4.964294119317411e-01  54.4470780325554    
7.000000000000000e+00  5.214959841093324e-01  5.197937492364630e+01  7.621466048805472e-01  -4.039457656997654e+01  7.621466048805472e-01  -4.039457656997654e+01  5.261690304115443e-01  52.1347566667038    
7.500000000000001e+00  5.492890579223438e-01  4.968896430423229e+01  7.419527350774678e-01  -4.276634243529152e+01  7.419527350774678e-01  -4.276634243529152e+01  5.541261382258472e-01  49.8712920681471    
8.000000000000000e+00  5.756086866010742e-01  4.745276649077361e+01  7.215301002309531e-01  -4.509145383216912e+01  7.215301002309531e-01  -4.509145383216912e+01  5.805929908083288e-01  47.6611767425103    
8.500000000000000e+00  6.003771296242035e-01  4.527178448010564e+01  7.009478196908713e-01  -4.736099180425929e+01  7.009478196908713e-01  -4.736099180425929e+01  6.054919163277971e-01  45.5055008961142    
9.000000000000000e+00  6.235204203192007e-01  4.314781020577755e+01  6.802870369814049e-01  -4.956489856026602e+01  6.802870369814049e-01  -4.956489856026602e+01  6.287491873068344e-01  43.4061478055254    
9.500000000000000e+00  6.453447836911753e-01  4.107912388204987e+01  6.596092809200962e-01  -5.172487353348905e+01  6.596092809200962e-01  -5.172487353348905e+01  6.506712998302956e-01  41.3614077643566    
1.000000000000000e+01  6.657900588925688e-01  3.906582745966736e+01  6.389778519106138e-01  -5.383218366156925e+01  6.389778519106138e-01  -5.383218366156925e+01  6.711984904067908e-01  39.3714486984014    
1.050000000000000e+01  6.855223572520424e-01  3.705512580959341e+01  6.178564502869373e-01  -5.594723363573986e+01  6.178564502869373e-01  -5.594723363573986e+01  6.909944087296048e-01  37.3836045218488    
1.100000000000000e+01  7.033840660732227e-01  3.514862008884639e+01  5.974476423472704e-01  -5.795451087079552e+01  5.974476423472704e-01  -5.795451087079552e+01  7.089072229498102e-01  35.499297017126     
1.150000000000000e+01  7.200575554827676e-01  3.329405754072417e+01  5.772305892236811e-01  -5.991393827893351e+01  5.772305892236811e-01  -5.991393827893351e+01  7.256174010133417e-01  33.6664145360338    
1.200000000000000e+01  7.354748260708516e-01  3.149413091292496e+01  5.572872572579385e-01  -6.181346902564874e+01  5.572872572579385e-01  -6.181346902564874e+01  7.410579130966733e-01  31.8877226121959    
1.250000000000000e+01  7.499639165948757e-01  2.973881256599180e+01  5.375554995852547e-01  -6.368267174234244e+01  5.375554995852547e-01  -6.368267174234244e+01  7.555564984946420e-01  30.1531070209665    
1.300000000000000e+01  7.634543357796248e-01  2.803036820606846e+01  5.181020663021056e-01  -6.551029179826547e+01  5.181020663021056e-01  -6.551029179826547e+01  7.690435862952123e-01  28.4648913889817    
1.350000000000000e+01  7.760053227472257e-01  2.636700233212934e+01  4.989456302961104e-01  -6.729858668378577e+01  4.989456302961104e-01  -6.729858668378577e+01  7.815789351176781e-01  26.8212877798691    
1.400000000000000e+01  7.875581400683823e-01  2.475151557229099e+01  4.801558754874354e-01  -6.903545589459482e+01  4.801558754874354e-01  -6.903545589459482e+01  7.931047958287462e-01  25.225171682184     
1.450000000000000e+01  7.983989085662642e-01  2.317306407740127e+01  4.616359470651639e-01  -7.075158056510192e+01  4.616359470651639e-01  -7.075158056510192e+01  8.039068623066750e-01  23.6655697927828    
1.500000000000000e+01  8.084628803946529e-01  2.163429481584397e+01  4.434455265317108e-01  -7.243548950994496e+01  4.434455265317108e-01  -7.243548950994496e+01  8.139212897606725e-01  22.1451924105505    
1.550000000000000e+01  8.177987113706705e-01  2.013346148466124e+01  4.255892948863990e-01  -7.408965823135074e+01  4.255892948863990e-01  -7.408965823135074e+01  8.231971829654294e-01  20.6622922947714    
1.600000000000000e+01  8.263517346162251e-01  1.867394279666715e+01  4.081341058644665e-01  -7.570151269143683e+01  4.081341058644665e-01  -7.570151269143683e+01  8.316809168419355e-01  19.2203366805928    
1.650000000000000e+01  8.343675745826014e-01  1.724402749220262e+01  3.909530338739047e-01  -7.730332961352151e+01  3.909530338739047e-01  -7.730332961352151e+01  8.396173368183177e-01  17.8074377355689    