
!*************************************************************************
!! ASITIC Ver 10.20.99.0.0.0
!!  Data generated by the <2Port> command in <slow> mode.
!! Generated on Thu Apr 11 17:21:13 1974
!# Spiral Data:	Name = <YP_80_2>, Symmetric Polygon Inductor, Radius = 80.00, Origin = <200.00,200.00>
!# Sides =   8, Metal =   4, Exit Metal =   3
!# W = 10.00, S =  3.00, N =  2.00
!# Theta =  0.00, Phase =   1
!# Technolog File Data <CMOS.tek> @ <.>
!# Auto-Cell Mode:  <alpha> = 0.050000, <beta> = 0.800000
!# Metal Layers
!# Name=M1        Met=0  Lyr=  1  Mz=48.70  T=0.50  RS=0.07  Col=YELLOW  
!# Name=M2        Met=1  Lyr=  1  Mz=47.60  T=0.50  RS=0.06  Col=LIGHTSKYBLUE1
!# Name=M3        Met=2  Lyr=  1  Mz=46.50  T=0.50  RS=0.06  Col=MEDIUM PURPLE
!# Name=M4        Met=3  Lyr=  1  Mz=45.50  T=0.50  RS=0.06  Col=LIGHT GREEN
!# Name=M5        Met=4  Lyr=  1  Mz=44.00  T=1.00  RS=0.03  Col=GREY    
!# Substrate Layers
!# Lyr=    0  Eps=  12  Rho=  10  DZ=7.5e+02  T=7e+02
!# Lyr=    1  Eps= 3.9  Rho=1e+14  DZ=  50  T=  50
!*************************************************************************
# GHZ S MA S11 mag    S11 phase  S12 mag    S12 phase  S21 mag    S21 phase  S22 mag    S22 phase  
1.000000000000000e+00  4.998319288497650e-02  5.069435361434185e+01  9.700002790424668e-01  -3.986192088745050e+00  9.700002790424668e-01  -3.986192088745050e+00  5.086890672640471e-02  51.2065241883332    
1.500000000000000e+00  6.764822205869993e-02  5.838995987248682e+01  9.685138264340201e-01  -5.964530838212381e+00  9.685138264340201e-01  -5.964530838212381e+00  6.892362557677911e-02  58.8439359741719    
2.000000000000000e+00  8.620537106083449e-02  6.189453253768259e+01  9.665665059407571e-01  -7.929402935943051e+00  9.665665059407571e-01  -7.929402935943051e+00  8.785894418409683e-02  62.348057535571     
2.500000000000000e+00  1.049915658853348e-01  6.337771936891134e+01  9.641796187715106e-01  -9.878902973089833e+00  9.641796187715106e-01  -9.878902973089833e+00  1.070182742148817e-01  63.8570111815233    
3.000000000000000e+00  1.237544071610775e-01  6.379772383486134e+01  9.614325272241694e-01  -1.181407438913717e+01  9.614325272241694e-01  -1.181407438913717e+01  1.261484713083416e-01  64.3152743967774    
3.500000000000000e+00  1.423819960197222e-01  6.360704320354066e+01  9.583878627884825e-01  -1.373572611942663e+01  9.583878627884825e-01  -1.373572611942663e+01  1.451361925167348e-01  64.1693420489604    
4.000000000000000e+00  1.608174118668273e-01  6.301176542455848e+01  9.550130610214694e-01  -1.564341476738486e+01  9.550130610214694e-01  -1.564341476738486e+01  1.639227230436207e-01  63.6230770233507    
4.500000000000000e+00  1.790300538448778e-01  6.215791435088731e+01  9.513584964270526e-01  -1.753799946835055e+01  9.513584964270526e-01  -1.753799946835055e+01  1.824763304192582e-01  62.8207825307321    
5.000000000000000e+00  1.969932876471176e-01  6.113332519237610e+01  9.474689607698302e-01  -1.941957384489497e+01  9.474689607698302e-01  -1.941957384489497e+01  2.007692603759310e-01  61.8492360247063    
5.500000000000000e+00  2.146899545683812e-01  5.997133564682184e+01  9.433004717971534e-01  -2.128746482667206e+01  9.433004717971534e-01  -2.128746482667206e+01  2.187829016612760e-01  60.7416266237275    
6.000000000000000e+00  2.321097172723253e-01  5.872319940252739e+01  9.389251727156976e-01  -2.314233281585942e+01  9.389251727156976e-01  -2.314233281585942e+01  2.365063219223012e-01  59.5484900274902    
6.500000000000000e+00  2.492375582159977e-01  5.739747156104803e+01  9.342966941320983e-01  -2.498324869254177e+01  9.342966941320983e-01  -2.498324869254177e+01  2.539230965401816e-01  58.2784435279566    
7.000000000000000e+00  2.660627348111405e-01  5.602638625455008e+01  9.294904772895483e-01  -2.681050440497031e+01  9.294904772895483e-01  -2.681050440497031e+01  2.710221793280937e-01  56.9632843628018    
7.500000000000001e+00  2.825761414154520e-01  5.461573136246961e+01  9.244913284303626e-01  -2.862360595352095e+01  9.244913284303626e-01  -2.862360595352095e+01  2.877934467601070e-01  55.6087900318166    
8.000000000000000e+00  2.987664888801766e-01  5.316863683040697e+01  9.192783142842386e-01  -3.042186134113147e+01  9.192783142842386e-01  -3.042186134113147e+01  3.042246125928793e-01  54.2181163342529    
8.500000000000000e+00  3.146292868032637e-01  5.170613504739330e+01  9.139336743379729e-01  -3.220567514169125e+01  9.139336743379729e-01  -3.220567514169125e+01  3.203111164314472e-01  52.8119536179362    
9.000000000000000e+00  3.301286053735077e-01  5.022356270417367e+01  9.084181266989128e-01  -3.397252924476773e+01  9.084181266989128e-01  -3.397252924476773e+01  3.360159629603931e-01  51.385818953434     
9.500000000000000e+00  3.453150756036286e-01  4.873401446173866e+01  9.027875345132949e-01  -3.572602904343718e+01  9.027875345132949e-01  -3.572602904343718e+01  3.513897727712992e-01  49.9525001718956    
1.000000000000000e+01  3.601581731401283e-01  4.723730671053903e+01  8.970363759476221e-01  -3.746416431961131e+01  8.970363759476221e-01  -3.746416431961131e+01  3.664013696310224e-01  48.5118823773394    
1.050000000000000e+01  3.746462191784508e-01  4.573176354167376e+01  8.911471774066528e-01  -3.918603677489051e+01  8.911471774066528e-01  -3.918603677489051e+01  3.810382908578545e-01  47.0623594137725    
1.100000000000000e+01  3.892025842498453e-01  4.425178882771548e+01  8.853181343012049e-01  -4.092040324373790e+01  8.853181343012049e-01  -4.092040324373790e+01  3.957266557490674e-01  45.6365650643009    
1.150000000000000e+01  4.030237432393722e-01  4.274961020023503e+01  8.792879048013954e-01  -4.261322558787820e+01  8.792879048013954e-01  -4.261322558787820e+01  4.096579145244567e-01  44.1897547143334    
1.200000000000000e+01  4.164057802100616e-01  4.124807362917992e+01  8.731826583620254e-01  -4.428425949582994e+01  8.731826583620254e-01  -4.428425949582994e+01  4.231302509586622e-01  42.7435978877753    
1.250000000000000e+01  4.295256231560872e-01  3.975287121929612e+01  8.670345422086759e-01  -4.594521048416364e+01  8.670345422086759e-01  -4.594521048416364e+01  4.363201592718088e-01  41.3031418065731    
1.300000000000000e+01  4.422990082961400e-01  3.826308050130572e+01  8.608461642420656e-01  -4.759037605523787e+01  8.608461642420656e-01  -4.759037605523787e+01  4.491434202355482e-01  39.8677345870599    
1.350000000000000e+01  4.546381659885853e-01  3.677866434900368e+01  8.546244405915562e-01  -4.921364306424302e+01  8.546244405915562e-01  -4.921364306424302e+01  4.615123081789386e-01  38.437597383184     
1.400000000000000e+01  4.667239864857728e-01  3.530286481288516e+01  8.483917532130639e-01  -5.082716063822448e+01  8.483917532130639e-01  -5.082716063822448e+01  4.736075440019899e-01  37.015377741993     
1.450000000000000e+01  4.784729903904963e-01  3.383512383111513e+01  8.421531347551861e-01  -5.242511906108463e+01  8.421531347551861e-01  -5.242511906108463e+01  4.853457563679175e-01  35.600769729744     
1.500000000000000e+01  4.898011491157053e-01  3.237559141007871e+01  8.359168541364259e-01  -5.400148081880566e+01  8.359168541364259e-01  -5.400148081880566e+01  4.966432111592968e-01  34.1941833979018    
1.550000000000000e+01  5.008878493036560e-01  3.092579965503305e+01  8.296975473210807e-01  -5.556852724513637e+01  8.296975473210807e-01  -5.556852724513637e+01  5.076789767544369e-01  32.7965610891295    
1.600000000000000e+01  5.116522597398128e-01  2.948551780204635e+01  8.235015510326079e-01  -5.712047285178493e+01  8.235015510326079e-01  -5.712047285178493e+01  5.183725594052673e-01  31.4079255436095    
1.650000000000000e+01  5.220999735361859e-01  2.805504384520456e+01  8.173374667734113e-01  -5.865751114129660e+01  8.173374667734113e-01  -5.865751114129660e+01  5.287297178171552e-01  30.0285504250987    
1.700000000000000e+01  5.321490487468542e-01  2.663489203090367e+01  8.112150798095884e-01  -6.017353137207380e+01  8.112150798095884e-01  -6.017353137207380e+01  5.386689875910029e-01  28.6591854431063    
1.750000000000000e+01  5.419797698406317e-01  2.522480364800571e+01  8.051391402214081e-01  -6.168124266318966e+01  8.051391402214081e-01  -6.168124266318966e+01  5.483703255720821e-01  27.2990365216808    