
!*************************************************************************
!! ASITIC Ver 10.20.99.0.0.0
!!  Data generated by the <2Port> command in <slow> mode.
!! Generated on Thu Apr 11 17:21:13 1974
!# Spiral Data:	Name = <YP_100_2>, Symmetric Polygon Inductor, Radius = 100.00, Origin = <200.00,200.00>
!# Sides =   8, Metal =   4, Exit Metal =   3
!# W = 10.00, S =  3.00, N =  2.00
!# Theta =  0.00, Phase =   1
!# Technolog File Data <CMOS.tek> @ <.>
!# Auto-Cell Mode:  <alpha> = 0.050000, <beta> = 0.800000
!# Metal Layers
!# Name=M1        Met=0  Lyr=  1  Mz=48.70  T=0.50  RS=0.07  Col=YELLOW  
!# Name=M2        Met=1  Lyr=  1  Mz=47.60  T=0.50  RS=0.06  Col=LIGHTSKYBLUE1
!# Name=M3        Met=2  Lyr=  1  Mz=46.50  T=0.50  RS=0.06  Col=MEDIUM PURPLE
!# Name=M4        Met=3  Lyr=  1  Mz=45.50  T=0.50  RS=0.06  Col=LIGHT GREEN
!# Name=M5        Met=4  Lyr=  1  Mz=44.00  T=1.00  RS=0.03  Col=GREY    
!# Substrate Layers
!# Lyr=    0  Eps=  12  Rho=  10  DZ=7.5e+02  T=7e+02
!# Lyr=    1  Eps= 3.9  Rho=1e+14  DZ=  50  T=  50
!*************************************************************************
# GHZ S MA S11 mag    S11 phase  S12 mag    S12 phase  S21 mag    S21 phase  S22 mag    S22 phase  
1.000000000000000e+00  6.822023664102653e-02  5.287806711790429e+01  9.622216334512924e-01  -5.452849859917603e+00  9.622216334512924e-01  -5.452849859917603e+00  6.913102378512950e-02  53.2621800295526    
1.500000000000000e+00  9.395806226410403e-02  5.917550663041024e+01  9.596561514409369e-01  -8.156047730727005e+00  9.596561514409369e-01  -8.156047730727005e+00  9.526971140735996e-02  59.5409084430341    
2.000000000000000e+00  1.205660804836641e-01  6.146280886589248e+01  9.562535042241640e-01  -1.083646260567923e+01  9.562535042241640e-01  -1.083646260567923e+01  1.222665897927500e-01  61.8499839842656    
2.500000000000000e+00  1.472165707869049e-01  6.189543296125161e+01  9.520627092544561e-01  -1.349021936684549e+01  9.520627092544561e-01  -1.349021936684549e+01  1.492956479191273e-01  62.3216003363996    
3.000000000000000e+00  1.735919768068969e-01  6.137481914355522e+01  9.472008526833767e-01  -1.611741273848410e+01  9.472008526833767e-01  -1.611741273848410e+01  1.760368321613203e-01  61.8480169945869    
3.500000000000000e+00  1.995265569903789e-01  6.031777189932981e+01  9.417707281710550e-01  -1.871714674514179e+01  9.417707281710550e-01  -1.871714674514179e+01  2.023218263541790e-01  60.8421737892923    
4.000000000000000e+00  2.249310058729061e-01  5.891488755674107e+01  9.357622382301054e-01  -2.128791871223943e+01  9.357622382301054e-01  -2.128791871223943e+01  2.280586940686853e-01  59.4931439787279    
4.500000000000000e+00  2.497506702551121e-01  5.729819871052314e+01  9.292646258596150e-01  -2.382976292346747e+01  9.292646258596150e-01  -2.382976292346747e+01  2.531908965479163e-01  57.9317503782481    
5.000000000000000e+00  2.739371438367393e-01  5.554699459548905e+01  9.223605001747454e-01  -2.634185358561915e+01  9.223605001747454e-01  -2.634185358561915e+01  2.776683313484056e-01  56.2365762188866    
5.500000000000000e+00  2.974567994246933e-01  5.369323950969424e+01  9.150299240197187e-01  -2.882274435292568e+01  9.150299240197187e-01  -2.882274435292568e+01  3.014554792430384e-01  54.4394275135585    
6.000000000000000e+00  3.202911394892352e-01  5.178208843856371e+01  9.073858059032928e-01  -3.127271701887076e+01  9.073858059032928e-01  -3.127271701887076e+01  3.245329739117547e-01  52.5849941312093    
6.500000000000000e+00  3.424157406861312e-01  4.982291539387616e+01  8.994058145701076e-01  -3.369025173472191e+01  8.994058145701076e-01  -3.369025173472191e+01  3.468747758555095e-01  50.6826331525783    
7.000000000000000e+00  3.638213390237533e-01  4.784352045780197e+01  8.912029481564401e-01  -3.607560358086602e+01  8.912029481564401e-01  -3.607560358086602e+01  3.684712619907432e-01  48.7598268934666    
7.500000000000001e+00  3.844988179954982e-01  4.584976959765164e+01  8.827872407049825e-01  -3.842808008282429e+01  8.827872407049825e-01  -3.842808008282429e+01  3.893123370594850e-01  46.8223986779646    
8.000000000000000e+00  4.044390292838905e-01  4.384516556414244e+01  8.741622785432128e-01  -4.074685328005679e+01  8.741622785432128e-01  -4.074685328005679e+01  4.093879859257342e-01  44.873836921055     
8.500000000000000e+00  4.236501555256261e-01  4.184698545504220e+01  8.654410837591628e-01  -4.303274841897067e+01  8.654410837591628e-01  -4.303274841897067e+01  4.287066047080672e-01  42.9311573358773    
9.000000000000000e+00  4.420998893610115e-01  3.985258544707693e+01  8.566076683292555e-01  -4.528300279387391e+01  8.566076683292555e-01  -4.528300279387391e+01  4.472351907194053e-01  40.9918075254013    
9.500000000000000e+00  4.598605321244562e-01  3.787106012494642e+01  8.477326993800670e-01  -4.750232006953543e+01  8.477326993800670e-01  -4.750232006953543e+01  4.650463166116105e-01  39.0646404149377    
1.000000000000000e+01  4.769111692734220e-01  3.590287860538877e+01  8.388319356406104e-01  -4.968876645199516e+01  8.388319356406104e-01  -4.968876645199516e+01  4.821189342412288e-01  37.1501406698603    
1.050000000000000e+01  4.932530368951343e-01  3.394679301036066e+01  8.299043214352673e-01  -5.184179102916515e+01  8.299043214352673e-01  -5.184179102916515e+01  4.984540039708119e-01  35.2470604737639    
1.100000000000000e+01  5.093607402981752e-01  3.202014665077009e+01  8.211069362805345e-01  -5.399492167109033e+01  8.211069362805345e-01  -5.399492167109033e+01  5.145285396391119e-01  33.3715084192586    
1.150000000000000e+01  5.243809516407701e-01  3.010264693152494e+01  8.122976026972664e-01  -5.608673312222682e+01  8.122976026972664e-01  -5.608673312222682e+01  5.294865688890914e-01  31.5052478746906    
1.200000000000000e+01  5.386608950072214e-01  2.820509894173274e+01  8.035733270347504e-01  -5.814103841355919e+01  8.035733270347504e-01  -5.814103841355919e+01  5.436773359246222e-01  29.6582540839449    
1.250000000000000e+01  5.523989531492836e-01  2.632779027287395e+01  7.949501394723921e-01  -6.017142753671858e+01  7.949501394723921e-01  -6.017142753671858e+01  5.572991427065157e-01  27.8303072150866    
1.300000000000000e+01  5.655263308318178e-01  2.447117607185612e+01  7.864489774158070e-01  -6.217231703135282e+01  7.864489774158070e-01  -6.217231703135282e+01  5.702840550277728e-01  26.0220291249729    
1.350000000000000e+01  5.779767199492664e-01  2.263632562327915e+01  7.780928896605079e-01  -6.413802972598194e+01  7.780928896605079e-01  -6.413802972598194e+01  5.825666789676653e-01  24.2346638063133    
1.400000000000000e+01  5.899419135890771e-01  2.082166154236059e+01  7.698849701151769e-01  -6.608212797397145e+01  7.698849701151769e-01  -6.608212797397145e+01  5.943389345444317e-01  22.4661335094828    
1.450000000000000e+01  6.013575511548045e-01  1.902776300701383e+01  7.618435585406924e-01  -6.799919319265641e+01  7.618435585406924e-01  -6.799919319265641e+01  6.055374591430107e-01  20.7171830172645    
1.500000000000000e+01  6.121627627538843e-01  1.725572820280429e+01  7.539878724196650e-01  -6.988379068568491e+01  7.539878724196650e-01  -6.988379068568491e+01  6.161024462312209e-01  18.9891073094745    
1.550000000000000e+01  6.225392716022838e-01  1.550271799644409e+01  7.463119594955111e-01  -7.174927798613915e+01  7.463119594955111e-01  -7.174927798613915e+01  6.262158172199453e-01  17.2785258086689    
1.600000000000000e+01  6.324265430532574e-01  1.376950484363612e+01  7.388314462686204e-01  -7.359039148367793e+01  7.388314462686204e-01  -7.359039148367793e+01  6.358181698946973e-01  15.5863968232452    
1.650000000000000e+01  6.418438463855888e-01  1.205562655575268e+01  7.315531530157552e-01  -7.540802901282038e+01  7.315531530157552e-01  -7.540802901282038e+01  6.449296341581361e-01  13.9122047789752    
1.700000000000000e+01  6.507331934548637e-01  1.036240834124175e+01  7.244918418037720e-01  -7.719685463059801e+01  7.244918418037720e-01  -7.719685463059801e+01  6.534933627933879e-01  12.2574948274731    
1.750000000000000e+01  6.592657906339138e-01  8.685781105705097e+00  7.176338228555025e-01  -7.897012353456084e+01  7.176338228555025e-01  -7.897012353456084e+01  6.616809308758226e-01  10.6176086961609    