
!*************************************************************************
!! ASITIC Ver 10.20.99.0.0.0
!!  Data generated by the <2Port> command in <slow> mode.
!! Generated on Thu Apr 11 17:21:13 1974
!# Spiral Data:	Name = <YP_100_2>, Symmetric Polygon Inductor, Radius = 100.00, Origin = <200.00,200.00>
!# Sides =   8, Metal =   2, Exit Metal =   1
!# W = 10.00, S =  3.00, N =  2.00
!# Theta =  0.00, Phase =   1
!# Technolog File Data <BiCMOS.tek> @ <.>
!# Auto-Cell Mode:  <alpha> = 0.050000, <beta> = 0.800000
!# Metal Layers
!# Name=MSUB      Met=0  Lyr=  1  Mz=50.00  T=0.40  RS=0.04  Col=BLUE    
!# Name=M2        Met=1  Lyr=  2  Mz=47.00  T=0.80  RS=0.05  Col=GREEN   
!# Name=M3        Met=2  Lyr=  2  Mz=45.00  T=2.00  RS=0.02  Col=RED     
!# Substrate Layers
!# Lyr=    0  Eps=  12  Rho=1e+05  DZ=8.5e+02  T=8e+02
!# Lyr=    1  Eps=  12  Rho=1e+03  DZ=  52  T=   2
!# Lyr=    2  Eps=   4  Rho=1e+14  DZ=  50  T=  50
!*************************************************************************
# GHZ S MA S11 mag    S11 phase  S12 mag    S12 phase  S21 mag    S21 phase  S22 mag    S22 phase  
1.000000000000000e+00  5.965340313217140e-02  6.482787628314969e+01  9.671726339265856e-01  -5.498847204746968e+00  9.671726339265856e-01  -5.498847204746968e+00  6.062112588459795e-02  64.7365469139993    
1.500000000000000e+00  8.737149325925246e-02  7.180133782995105e+01  9.591930540187692e-01  -8.085397000856558e+00  9.591930540187692e-01  -8.085397000856558e+00  8.860289063244278e-02  71.6287372573666    
2.000000000000000e+00  1.174015633211460e-01  7.438087428905500e+01  9.498162077957545e-01  -1.054883900298712e+01  9.498162077957545e-01  -1.054883900298712e+01  1.188660561719603e-01  74.1952612272453    
2.500000000000000e+00  1.486779412030365e-01  7.488530848829431e+01  9.397658787346373e-01  -1.291237038360339e+01  9.397658787346373e-01  -1.291237038360339e+01  1.503532096275896e-01  74.7127979534581    
3.000000000000000e+00  1.803930497540934e-01  7.426074473444825e+01  9.292469616148190e-01  -1.519796189553566e+01  9.292469616148190e-01  -1.519796189553566e+01  1.822651559382654e-01  74.1124869392465    
3.500000000000000e+00  2.121065737282191e-01  7.304060573671691e+01  9.184465404047119e-01  -1.743050185287576e+01  9.184465404047119e-01  -1.743050185287576e+01  2.141656766098416e-01  72.9207008815186    
4.000000000000000e+00  2.463693328315111e-01  7.134567974179446e+01  9.068117359449203e-01  -1.980594212198661e+01  9.068117359449203e-01  -1.980594212198661e+01  2.486079844319826e-01  71.2591984911475    
4.500000000000000e+00  2.774605483097218e-01  6.956213698877143e+01  8.951487392232740e-01  -2.198669403324708e+01  8.951487392232740e-01  -2.198669403324708e+01  2.798735227539269e-01  69.504238784643     
5.000000000000000e+00  3.077174451323946e-01  6.766163026444715e+01  8.829991914962189e-01  -2.413106516561545e+01  8.829991914962189e-01  -2.413106516561545e+01  3.102987503993195e-01  67.6313154992936    
5.500000000000000e+00  3.372440103695213e-01  6.571335082745351e+01  8.704379246209552e-01  -2.625316816532028e+01  8.704379246209552e-01  -2.625316816532028e+01  3.399868538682206e-01  65.7094545792263    
6.000000000000000e+00  3.657860460904978e-01  6.373438216777325e+01  8.573746072764166e-01  -2.834086051344378e+01  8.573746072764166e-01  -2.834086051344378e+01  3.686835327236172e-01  63.7557138232863    
6.500000000000000e+00  3.935058748537831e-01  6.175693339699846e+01  8.439007304113116e-01  -3.040709797771135e+01  8.439007304113116e-01  -3.040709797771135e+01  3.965502480072295e-01  61.802379077342     
7.000000000000000e+00  4.202844239189458e-01  5.978774186990834e+01  8.299975226438293e-01  -3.244521738683580e+01  8.299975226438293e-01  -3.244521738683580e+01  4.234676179345062e-01  59.8562730032601    
7.500000000000001e+00  4.459800021292430e-01  5.783280154620360e+01  8.156693829685437e-01  -3.444568146077425e+01  8.156693829685437e-01  -3.444568146077425e+01  4.492935859516008e-01  57.9234857905398    
8.000000000000000e+00  4.708286005074193e-01  5.590343436270711e+01  8.010025319878609e-01  -3.642463401100152e+01  8.010025319878609e-01  -3.642463401100152e+01  4.742636865657073e-01  56.0154361347257    
8.500000000000000e+00  4.947127867426659e-01  5.400052241615339e+01  7.860089692657897e-01  -3.837347313210205e+01  7.860089692657897e-01  -3.837347313210205e+01  4.982602826754430e-01  54.133082863155     
9.000000000000000e+00  5.175082376083434e-01  5.212588526794130e+01  7.707164246487708e-01  -4.028214122682205e+01  7.707164246487708e-01  -4.028214122682205e+01  5.211589316353644e-01  52.2783273120238    
9.500000000000000e+00  5.394737025181578e-01  5.028334040133154e+01  7.551939650867088e-01  -4.216863610101652e+01  7.551939650867088e-01  -4.216863610101652e+01  5.432181252975101e-01  50.4550296371339    
1.000000000000000e+01  5.605006778934782e-01  4.847281189537056e+01  7.394668821156994e-01  -4.402391311630016e+01  7.394668821156994e-01  -4.402391311630016e+01  5.643293629762280e-01  48.6631718698205    
1.050000000000000e+01  5.813180122385383e-01  4.664253763745808e+01  7.230723001132077e-01  -4.590622595481699e+01  7.230723001132077e-01  -4.590622595481699e+01  5.852196663815781e-01  46.8512004076717    
1.100000000000000e+01  6.005163402641496e-01  4.489610657164178e+01  7.070182747096232e-01  -4.770025556779297e+01  7.070182747096232e-01  -4.770025556779297e+01  6.044829742271252e-01  45.1223855052339    
1.150000000000000e+01  6.188289719580720e-01  4.318302499504133e+01  6.908747585483609e-01  -4.946300883958344e+01  6.908747585483609e-01  -4.946300883958344e+01  6.228511991752335e-01  43.4264510990375    
1.200000000000000e+01  6.361283678607506e-01  4.150625995286941e+01  6.747029981267787e-01  -5.118177481297840e+01  6.747029981267787e-01  -5.118177481297840e+01  6.401971464191760e-01  41.7664189464248    
1.250000000000000e+01  6.527384047738084e-01  3.985977331092865e+01  6.584848686579817e-01  -5.288234664786226e+01  6.584848686579817e-01  -5.288234664786226e+01  6.568444072810924e-01  40.1362143562819    
1.300000000000000e+01  6.685377035280972e-01  3.824589937074059e+01  6.422723553330395e-01  -5.455282627184177e+01  6.422723553330395e-01  -5.455282627184177e+01  6.726719606437599e-01  38.5382128017272    
1.350000000000000e+01  6.835533362583063e-01  3.666415823480600e+01  6.260921773093041e-01  -5.619379177924144e+01  6.260921773093041e-01  -5.619379177924144e+01  6.877070578795910e-01  36.9719468104447    
1.400000000000000e+01  6.976718208759970e-01  3.511793263513602e+01  6.100093782228797e-01  -5.779233585039361e+01  6.100093782228797e-01  -5.779233585039361e+01  7.018368271482262e-01  35.4408598546345    
1.450000000000000e+01  7.112024517632628e-01  3.359896905104139e+01  5.939680187637580e-01  -5.937580456556170e+01  5.939680187637580e-01  -5.937580456556170e+01  7.153699730539498e-01  33.9366097513826    
1.500000000000000e+01  7.240335500263012e-01  3.211026834748749e+01  5.780245144830684e-01  -6.093192459546579e+01  5.780245144830684e-01  -6.093192459546579e+01  7.281954016516272e-01  32.4622478905923    
1.550000000000000e+01  7.361931200205085e-01  3.065111595301751e+01  5.621961432594704e-01  -6.246153050230219e+01  5.621961432594704e-01  -6.246153050230219e+01  7.403413301459644e-01  31.0170632973017    
1.600000000000000e+01  7.475783021433070e-01  2.922563687542186e+01  5.465540206571287e-01  -6.395132998837530e+01  5.465540206571287e-01  -6.395132998837530e+01  7.517056161893924e-01  29.6052486213232    
1.650000000000000e+01  7.584778427799919e-01  2.782351110360012e+01  5.310026158579130e-01  -6.543016227682170e+01  5.310026158579130e-01  -6.543016227682170e+01  7.625762593665331e-01  28.2163604168111    