
!*************************************************************************
!! ASITIC Ver 10.20.99.0.0.0
!!  Data generated by the <2Port> command in <slow> mode.
!! Generated on Thu Apr 11 17:21:13 1974
!# Spiral Data:	Name = <YP_100_3>, Symmetric Polygon Inductor, Radius = 100.00, Origin = <200.00,200.00>
!# Sides =   8, Metal =   4, Exit Metal =   3
!# W = 10.00, S =  3.00, N =  3.00
!# Theta =  0.00, Phase =   1
!# Technolog File Data <CMOS.tek> @ <.>
!# Auto-Cell Mode:  <alpha> = 0.050000, <beta> = 0.800000
!# Metal Layers
!# Name=M1        Met=0  Lyr=  1  Mz=48.70  T=0.50  RS=0.07  Col=YELLOW  
!# Name=M2        Met=1  Lyr=  1  Mz=47.60  T=0.50  RS=0.06  Col=LIGHTSKYBLUE1
!# Name=M3        Met=2  Lyr=  1  Mz=46.50  T=0.50  RS=0.06  Col=MEDIUM PURPLE
!# Name=M4        Met=3  Lyr=  1  Mz=45.50  T=0.50  RS=0.06  Col=LIGHT GREEN
!# Name=M5        Met=4  Lyr=  1  Mz=44.00  T=1.00  RS=0.03  Col=GREY    
!# Substrate Layers
!# Lyr=    0  Eps=  12  Rho=  10  DZ=7.5e+02  T=7e+02
!# Lyr=    1  Eps= 3.9  Rho=1e+14  DZ=  50  T=  50
!*************************************************************************
# GHZ S MA S11 mag    S11 phase  S12 mag    S12 phase  S21 mag    S21 phase  S22 mag    S22 phase  
1.000000000000000e+00  1.187188525617025e-01  5.567852631616124e+01  9.428851912668357e-01  -8.786854316141604e+00  9.428851912668357e-01  -8.786854316141604e+00  1.193942982764206e-01  55.8788264494715    
1.500000000000000e+00  1.671757445449778e-01  5.885634723866784e+01  9.352085069293313e-01  -1.310098210361607e+01  9.352085069293313e-01  -1.310098210361607e+01  1.681656045028809e-01  59.0738874111559    
2.000000000000000e+00  2.154108558330866e-01  5.859143752095659e+01  9.250960644387966e-01  -1.733325780884195e+01  9.250960644387966e-01  -1.733325780884195e+01  2.166947689936748e-01  58.8404109080168    
2.500000000000000e+00  2.621743706435352e-01  5.687480593292876e+01  9.128854301682974e-01  -2.147004150573470e+01  9.128854301682974e-01  -2.147004150573470e+01  2.637286090863799e-01  57.1612708337941    
3.000000000000000e+00  3.069616249196250e-01  5.447760979295606e+01  8.989975792363383e-01  -2.550611118702743e+01  8.989975792363383e-01  -2.550611118702743e+01  3.087590396680953e-01  54.8043593979039    
3.500000000000000e+00  3.495315412862651e-01  5.174575039515679e+01  8.838194410485661e-01  -2.943843388131627e+01  8.838194410485661e-01  -2.943843388131627e+01  3.515420969144386e-01  52.1140756247764    
4.000000000000000e+00  3.897614106672565e-01  4.883251669753411e+01  8.675517188827602e-01  -3.326353919798763e+01  8.675517188827602e-01  -3.326353919798763e+01  3.919526540711378e-01  49.2430773307689    
4.500000000000000e+00  4.276218377804333e-01  4.584098080328776e+01  8.505059738393652e-01  -3.698200976325091e+01  8.505059738393652e-01  -3.698200976325091e+01  4.299598622146572e-01  46.2939051287583    
5.000000000000000e+00  4.631241419750779e-01  4.283111886734145e+01  8.329559831709464e-01  -4.059466671605136e+01  8.329559831709464e-01  -4.059466671605136e+01  4.655741784747353e-01  43.3262018329568    
5.500000000000000e+00  4.962965310627640e-01  3.982570604815583e+01  8.150223891020224e-01  -4.410093211589047e+01  8.150223891020224e-01  -4.410093211589047e+01  4.988230758622479e-01  40.3626164614517    
6.000000000000000e+00  5.272332292623710e-01  3.685591280333804e+01  7.969645543586104e-01  -4.750505839050542e+01  7.969645543586104e-01  -4.750505839050542e+01  5.298011876212383e-01  37.4340936150119    
6.500000000000000e+00  5.560001889935872e-01  3.392620907363392e+01  7.788577693451085e-01  -5.080745548466471e+01  7.788577693451085e-01  -5.080745548466471e+01  5.585744109080686e-01  34.5450254365124    
7.000000000000000e+00  5.827240822352588e-01  3.105329350571736e+01  7.609110414846351e-01  -5.401352553753967e+01  7.609110414846351e-01  -5.401352553753967e+01  5.852705706558573e-01  31.7119374959847    
7.500000000000001e+00  6.075074481939577e-01  2.823788663949473e+01  7.431949656249065e-01  -5.712599225166201e+01  7.431949656249065e-01  -5.712599225166201e+01  6.099929116333850e-01  28.9354695020363    
8.000000000000000e+00  6.304504793917932e-01  2.547909817073823e+01  7.257605648647287e-01  -6.014739777916165e+01  7.257605648647287e-01  -6.014739777916165e+01  6.328424393581197e-01  26.214664154502     
8.500000000000000e+00  6.517014810607981e-01  2.278453802728725e+01  7.087532768215035e-01  -6.308461352639600e+01  7.087532768215035e-01  -6.308461352639600e+01  6.539692673342300e-01  23.5569757381826    
9.000000000000000e+00  6.713273455454281e-01  2.014934171553777e+01  6.921785803562230e-01  -6.593771131203252e+01  6.921785803562230e-01  -6.593771131203252e+01  6.734412463676968e-01  20.9575172268349    
9.500000000000000e+00  6.895140174305654e-01  1.757434233246031e+01  6.761020875777516e-01  -6.871709261220242e+01  6.761020875777516e-01  -6.871709261220242e+01  6.914459967781820e-01  18.4169625461749    
1.000000000000000e+01  7.063356868608482e-01  1.505660718344561e+01  6.605404958676085e-01  -7.142425780650161e+01  6.605404958676085e-01  -7.142425780650161e+01  7.080590775199206e-01  15.932328288838     
1.050000000000000e+01  7.218761189509176e-01  1.259199523521826e+01  6.454866584441149e-01  -7.406184719016512e+01  6.454866584441149e-01  -7.406184719016512e+01  7.233653715358787e-01  13.4994144111932    
1.100000000000000e+01  7.366705881706894e-01  1.017859389841906e+01  6.309951710661814e-01  -7.667333073816060e+01  6.309951710661814e-01  -7.667333073816060e+01  7.379037077253103e-01  11.1155443666326    
1.150000000000000e+01  7.499967105465175e-01  7.817341441024738e+00  6.170575536941645e-01  -7.919023661789703e+01  6.170575536941645e-01  -7.919023661789703e+01  7.509507914186918e-01  8.78281188480095    
1.200000000000000e+01  7.622584776700341e-01  5.505310345485823e+00  6.036857023507556e-01  -8.164431408055461e+01  6.036857023507556e-01  -8.164431408055461e+01  7.629130980322929e-01  6.49775126256932    
1.250000000000000e+01  7.736824830469373e-01  3.236134168700915e+00  5.908424829741855e-01  -8.405313738489149e+01  5.908424829741855e-01  -8.405313738489149e+01  7.740188553011010e-01  4.25366647146984    
1.300000000000000e+01  7.842662022260618e-01  1.008910647755363e+00  5.785349253198951e-01  -8.641341071223562e+01  5.785349253198951e-01  -8.641341071223562e+01  7.842671683673329e-01  2.04969356987723    
1.350000000000000e+01  7.940093985553184e-01  -1.176753545783523e+00  5.667672617529970e-01  -8.872194696766682e+01  5.667672617529970e-01  -8.872194696766682e+01  7.936591011247123e-01  -0.114494252796587  
1.400000000000000e+01  8.031039850975698e-01  -3.327607322557686e+00  5.554957589925581e-01  -9.099491361742555e+01  5.554957589925581e-01  -9.099491361742555e+01  8.023887686698385e-01  -2.2460111590909    
1.450000000000000e+01  8.115387010752961e-01  -5.444020486394217e+00  5.447214028154013e-01  -9.322886388260463e+01  5.447214028154013e-01  -9.322886388260463e+01  8.104463573578180e-01  -4.34517136834354   
1.500000000000000e+01  8.193039880923707e-01  -7.525786913782957e+00  5.344433488797673e-01  -9.542040255386178e+01  5.344433488797673e-01  -9.542040255386178e+01  8.178233558756269e-01  -6.41167837139353   
1.550000000000000e+01  8.265640106436005e-01  -9.579992963166083e+00  5.246164674433923e-01  -9.758454001993177e+01  5.246164674433923e-01  -9.758454001993177e+01  8.246868017089083e-01  -8.45303045845686   
1.600000000000000e+01  8.333002781920320e-01  -1.160636098720794e+01  5.152395843004696e-01  -9.971762373154419e+01  5.152395843004696e-01  -9.971762373154419e+01  8.310194700796372e-01  -10.4688724570549   
1.650000000000000e+01  8.395500256007009e-01  -1.360687732376134e+01  5.062966281288500e-01  -1.018219914381185e+02  5.062966281288500e-01  -1.018219914381185e+02  8.368604063866272e-01  -12.4612727445347   
1.700000000000000e+01  8.452939503483087e-01  -1.558060063300513e+01  4.977814298430980e-01  -1.038940303651477e+02  4.977814298430980e-01  -1.038940303651477e+02  8.421908008121799e-01  -14.4291695919462   