
!*************************************************************************
!! ASITIC Ver 10.20.99.0.0.0
!!  Data generated by the <2Port> command in <slow> mode.
!! Generated on Thu Apr 11 17:21:13 1974
!# Spiral Data:	Name = <YP_120_2>, Symmetric Polygon Inductor, Radius = 120.00, Origin = <200.00,200.00>
!# Sides =   8, Metal =   4, Exit Metal =   3
!# W = 10.00, S =  3.00, N =  2.00
!# Theta =  0.00, Phase =   1
!# Technolog File Data <CMOS.tek> @ <.>
!# Auto-Cell Mode:  <alpha> = 0.050000, <beta> = 0.800000
!# Metal Layers
!# Name=M1        Met=0  Lyr=  1  Mz=48.70  T=0.50  RS=0.07  Col=YELLOW  
!# Name=M2        Met=1  Lyr=  1  Mz=47.60  T=0.50  RS=0.06  Col=LIGHTSKYBLUE1
!# Name=M3        Met=2  Lyr=  1  Mz=46.50  T=0.50  RS=0.06  Col=MEDIUM PURPLE
!# Name=M4        Met=3  Lyr=  1  Mz=45.50  T=0.50  RS=0.06  Col=LIGHT GREEN
!# Name=M5        Met=4  Lyr=  1  Mz=44.00  T=1.00  RS=0.03  Col=GREY    
!# Substrate Layers
!# Lyr=    0  Eps=  12  Rho=  10  DZ=7.5e+02  T=7e+02
!# Lyr=    1  Eps= 3.9  Rho=1e+14  DZ=  50  T=  50
!*************************************************************************
# GHZ S MA S11 mag    S11 phase  S12 mag    S12 phase  S21 mag    S21 phase  S22 mag    S22 phase  
1.000000000000000e+00  8.724770421936216e-02  5.382055388622293e+01  9.541953387694684e-01  -6.964166030572701e+00  9.541953387694684e-01  -6.964166030572701e+00  8.846910078550643e-02  54.2912817435098    
1.500000000000000e+00  1.213361576933277e-01  5.886680124217073e+01  9.501386559946980e-01  -1.040804792168397e+01  9.501386559946980e-01  -1.040804792168397e+01  1.231348632923308e-01  59.344326695269     
2.000000000000000e+00  1.561027034534010e-01  6.008084557361536e+01  9.447422206155863e-01  -1.381324715168362e+01  9.447422206155863e-01  -1.381324715168362e+01  1.584536913924458e-01  60.6029334299252    
2.500000000000000e+00  1.905298902246349e-01  5.957585215686417e+01  9.381146610198585e-01  -1.717226117164148e+01  9.381146610198585e-01  -1.717226117164148e+01  1.934067789498430e-01  60.1600640595039    
3.000000000000000e+00  2.241981072900729e-01  5.820886087190327e+01  9.304497069379442e-01  -2.048216985688184e+01  9.304497069379442e-01  -2.048216985688184e+01  2.275696634329819e-01  58.8638805571107    
3.500000000000000e+00  2.568878955554877e-01  5.637211455268167e+01  9.219237189423704e-01  -2.374040552810197e+01  9.219237189423704e-01  -2.374040552810197e+01  2.607190592943894e-01  57.1026095950763    
4.000000000000000e+00  2.884654799520233e-01  5.424557623909069e+01  9.125876930828277e-01  -2.694350065541233e+01  9.125876930828277e-01  -2.694350065541233e+01  2.927167248987537e-01  55.0545102788355    
4.500000000000000e+00  3.188531546856268e-01  5.195201567470428e+01  9.026029904906598e-01  -3.009040219165184e+01  9.026029904906598e-01  -3.009040219165184e+01  3.234820428831189e-01  52.8410242809855    
5.000000000000000e+00  3.479918784195916e-01  4.956526640445951e+01  8.921211480215978e-01  -3.317956717137571e+01  8.921211480215978e-01  -3.317956717137571e+01  3.529537227798625e-01  50.5352094066304    
5.500000000000000e+00  3.758454371245130e-01  4.711610014409131e+01  8.811762191310881e-01  -3.620899029813904e+01  8.811762191310881e-01  -3.620899029813904e+01  3.810928242329939e-01  48.1675601324044    
6.000000000000000e+00  4.024102340330941e-01  4.464513630492117e+01  8.699418326691454e-01  -3.917929703026436e+01  8.699418326691454e-01  -3.917929703026436e+01  4.078949823343780e-01  45.7781607837305    
6.500000000000000e+00  4.276757518417209e-01  4.216164025932119e+01  8.584409633759754e-01  -4.208904476188285e+01  8.584409633759754e-01  -4.208904476188285e+01  4.333478327250562e-01  43.3762000446096    
7.000000000000000e+00  4.516626826175023e-01  3.968959987739112e+01  8.468342511251227e-01  -4.493946860837627e+01  8.468342511251227e-01  -4.493946860837627e+01  4.574723852825167e-01  40.9853053792975    
7.500000000000001e+00  4.743900440659438e-01  3.723392948570650e+01  8.351666818553851e-01  -4.773066977368845e+01  8.351666818553851e-01  -4.773066977368845e+01  4.802870253702212e-01  38.6103021700551    
8.000000000000000e+00  4.958796521897529e-01  3.479729514761721e+01  8.234722831062230e-01  -5.046276947603000e+01  8.234722831062230e-01  -5.046276947603000e+01  5.018131477064413e-01  36.253799201697     
8.500000000000000e+00  5.161814673527810e-01  3.239323375902561e+01  8.118904685668435e-01  -5.313822218286626e+01  8.118904685668435e-01  -5.313822218286626e+01  5.221021408967708e-01  33.9290432626313    
9.000000000000000e+00  5.352963711598078e-01  3.001917882836914e+01  8.004270188757497e-01  -5.575527909216951e+01  8.004270188757497e-01  -5.575527909216951e+01  5.411547976523472e-01  31.6335244680742    
9.500000000000000e+00  5.533378184146935e-01  2.768044125295667e+01  7.891595488307503e-01  -5.832060401237040e+01  7.891595488307503e-01  -5.832060401237040e+01  5.590858826030113e-01  29.3722721108079    
1.000000000000000e+01  5.703199342344224e-01  2.537664722241470e+01  7.781164640902387e-01  -6.083354960600554e+01  7.781164640902387e-01  -6.083354960600554e+01  5.759102890413278e-01  27.1448986752982    
1.050000000000000e+01  5.862774836614921e-01  2.310565638892256e+01  7.673038251746302e-01  -6.329497438979314e+01  7.673038251746302e-01  -6.329497438979314e+01  5.916632840171786e-01  24.9492293968881    
1.100000000000000e+01  6.017094017381140e-01  2.087335708595637e+01  7.568357146169742e-01  -6.574149728432617e+01  7.568357146169742e-01  -6.574149728432617e+01  6.068475170507236e-01  22.789832700717     
1.150000000000000e+01  6.158140995950842e-01  1.867466002459908e+01  7.466542914150325e-01  -6.811019932955580e+01  7.466542914150325e-01  -6.811019932955580e+01  6.206595970114278e-01  20.6637501714644    
1.200000000000000e+01  6.289686995842170e-01  1.651197174755323e+01  7.368182020889971e-01  -7.042793771081193e+01  7.368182020889971e-01  -7.042793771081193e+01  6.334796668712172e-01  18.5724822876305    
1.250000000000000e+01  6.413850809457352e-01  1.438161496321279e+01  7.273237024987433e-01  -7.270978193279474e+01  7.273237024987433e-01  -7.270978193279474e+01  6.455202643689381e-01  16.5117967465015    
1.300000000000000e+01  6.530259402561255e-01  1.228381522527296e+01  7.181921355226242e-01  -7.495145053536122e+01  7.181921355226242e-01  -7.495145053536122e+01  6.567459111519734e-01  14.4820592026919    
1.350000000000000e+01  6.638576009102262e-01  1.021928016716533e+01  7.094427202823312e-01  -7.714873745466895e+01  7.094427202823312e-01  -7.714873745466895e+01  6.671247964559737e-01  12.4841345382363    
1.400000000000000e+01  6.740734235042267e-01  8.183104460827600e+00  7.010603572192472e-01  -7.931614139373983e+01  7.010603572192472e-01  -7.931614139373983e+01  6.768510208511674e-01  10.5125508169262    
1.450000000000000e+01  6.836359909358937e-01  6.175681237717614e+00  6.930589549767396e-01  -8.144951062308709e+01  6.930589549767396e-01  -8.144951062308709e+01  6.858890704366071e-01  8.56784571291564    
1.500000000000000e+01  6.925121846972914e-01  4.197838310638814e+00  6.854488637369686e-01  -8.354481278333559e+01  6.854488637369686e-01  -8.354481278333559e+01  6.942076672286380e-01  6.65104259828132    
1.550000000000000e+01  7.008748680140894e-01  2.243961378228957e+00  6.782116102099977e-01  -8.561582764758174e+01  6.782116102099977e-01  -8.561582764758174e+01  7.019806010396717e-01  4.75587956034749    
1.600000000000000e+01  7.086865456270254e-01  3.147078437813521e-01  6.713548349582348e-01  -8.765849973473385e+01  6.713548349582348e-01  -8.765849973473385e+01  7.091722758132358e-01  2.88319335947223    
1.650000000000000e+01  7.159768375328909e-01  -1.591292391993929e+00  6.648757528080113e-01  -8.967460214664280e+01  6.648757528080113e-01  -8.967460214664280e+01  7.158139072305260e-01  1.03151995468032    
1.700000000000000e+01  7.227102539819001e-01  -3.472792350002483e+00  6.587762436196141e-01  -9.166015220254832e+01  6.587762436196141e-01  -9.166015220254832e+01  7.218717438528954e-01  -0.797707539891928  
1.750000000000000e+01  7.290383069405878e-01  -5.336144690995697e+00  6.530394649245931e-01  -9.362811498156393e+01  6.530394649245931e-01  -9.362811498156393e+01  7.274986346246310e-01  -2.61148723634158   