
!*************************************************************************
!! ASITIC Ver 10.20.99.0.0.0
!!  Data generated by the <2Port> command in <slow> mode.
!! Generated on Thu Apr 11 17:21:13 1974
!# Spiral Data:	Name = <YP_100_3>, Symmetric Polygon Inductor, Radius = 100.00, Origin = <200.00,200.00>
!# Sides =   8, Metal =   2, Exit Metal =   1
!# W = 10.00, S =  3.00, N =  3.00
!# Theta =  0.00, Phase =   1
!# Technolog File Data <BiCMOS.tek> @ <.>
!# Auto-Cell Mode:  <alpha> = 0.050000, <beta> = 0.800000
!# Metal Layers
!# Name=MSUB      Met=0  Lyr=  1  Mz=50.00  T=0.40  RS=0.04  Col=BLUE    
!# Name=M2        Met=1  Lyr=  2  Mz=47.00  T=0.80  RS=0.05  Col=GREEN   
!# Name=M3        Met=2  Lyr=  2  Mz=45.00  T=2.00  RS=0.02  Col=RED     
!# Substrate Layers
!# Lyr=    0  Eps=  12  Rho=1e+05  DZ=8.5e+02  T=8e+02
!# Lyr=    1  Eps=  12  Rho=1e+03  DZ=  52  T=   2
!# Lyr=    2  Eps=   4  Rho=1e+14  DZ=  50  T=  50
!*************************************************************************
# GHZ S MA S11 mag    S11 phase  S12 mag    S12 phase  S21 mag    S21 phase  S22 mag    S22 phase  
1.000000000000000e+00  1.095533126007249e-01  6.557290486814463e+01  9.482467620392258e-01  -8.857594268788754e+00  9.482467620392258e-01  -8.857594268788754e+00  1.102709094673129e-01  65.5777939564139    
1.500000000000000e+00  1.613047927657290e-01  6.878451225398065e+01  9.325527505009530e-01  -1.298770124661403e+01  9.325527505009530e-01  -1.298770124661403e+01  1.622686760392154e-01  68.7685742619364    
2.000000000000000e+00  2.143688212951702e-01  6.853282913740864e+01  9.139461383354457e-01  -1.690798644280855e+01  9.139461383354457e-01  -1.690798644280855e+01  2.155485989623012e-01  68.5181735620275    
2.500000000000000e+00  2.669803455257611e-01  6.682572032300389e+01  8.935103208357443e-01  -2.066010831013829e+01  8.935103208357443e-01  -2.066010831013829e+01  2.683530803487033e-01  66.821281632562     
3.000000000000000e+00  3.180003331529783e-01  6.441691581780276e+01  8.715456718435873e-01  -2.427295412539777e+01  8.715456718435873e-01  -2.427295412539777e+01  3.195485182026182e-01  64.4264979985409    
3.500000000000000e+00  3.669291525257013e-01  6.169893161304379e+01  8.483917808264357e-01  -2.777559403993191e+01  8.483917808264357e-01  -2.777559403993191e+01  3.686376998860199e-01  61.7239081267308    
4.000000000000000e+00  4.168952657546562e-01  5.870154382105054e+01  8.231129539572398e-01  -3.142062944101175e+01  8.231129539572398e-01  -3.142062944101175e+01  4.187500536740515e-01  58.7431155790287    
4.500000000000000e+00  4.609946327925837e-01  5.577684858203983e+01  7.976042511374918e-01  -3.475446765638664e+01  7.976042511374918e-01  -3.475446765638664e+01  4.629815178617693e-01  55.8339868190001    
5.000000000000000e+00  5.021873330071551e-01  5.285935785026932e+01  7.712136127437677e-01  -3.798297996189562e+01  7.712136127437677e-01  -3.798297996189562e+01  5.042921184900485e-01  52.9317787248328    
5.500000000000000e+00  5.407270542682591e-01  4.999144870593818e+01  7.442128942564951e-01  -4.112616294598551e+01  7.442128942564951e-01  -4.112616294598551e+01  5.429352943092122e-01  50.0787691318954    
6.000000000000000e+00  5.764107212111532e-01  4.718314150324534e+01  7.167035567823283e-01  -4.416644416836014e+01  7.167035567823283e-01  -4.416644416836014e+01  5.787081138073034e-01  47.2849909481796    
6.500000000000000e+00  6.095763725687691e-01  4.445081199755407e+01  6.889180466595900e-01  -4.712571722543989e+01  6.889180466595900e-01  -4.712571722543989e+01  6.119486806841460e-01  44.5667979673751    
7.000000000000000e+00  6.402102499048719e-01  4.179674893498862e+01  6.609786634109873e-01  -4.999732339485398e+01  6.609786634109873e-01  -4.999732339485398e+01  6.426435603188628e-01  41.926506947146     
7.500000000000001e+00  6.682941741177597e-01  3.922379225879229e+01  6.330240249888035e-01  -5.277167758080020e+01  6.330240249888035e-01  -5.277167758080020e+01  6.707749825750072e-01  39.3669928010729    
8.000000000000000e+00  6.942355178690380e-01  3.673194506298887e+01  6.051791279981682e-01  -5.547697861225786e+01  6.051791279981682e-01  -5.547697861225786e+01  6.967507529407109e-01  36.8882398054682    
8.500000000000000e+00  7.180369729137037e-01  3.432001496557936e+01  5.775399939453653e-01  -5.810586451262587e+01  5.775399939453653e-01  -5.810586451262587e+01  7.205740930059275e-01  34.4890828032102    
9.000000000000000e+00  7.397078340587858e-01  3.198778620030841e+01  5.502076295575222e-01  -6.064952922315280e+01  5.502076295575222e-01  -6.064952922315280e+01  7.422549444712502e-01  32.1693410612602    
9.500000000000000e+00  7.596366885764169e-01  2.972952617753856e+01  5.232211054053234e-01  -6.313903322835783e+01  5.232211054053234e-01  -6.313903322835783e+01  7.621823086307872e-01  29.9232397320303    
1.000000000000000e+01  7.778294398555433e-01  2.754360025058510e+01  4.966457113722896e-01  -6.556722970633599e+01  4.966457113722896e-01  -6.556722970633599e+01  7.803627326431173e-01  27.7491695056732    
1.050000000000000e+01  7.948959578798240e-01  2.538101484168983e+01  4.699147357194877e-01  -6.800381223491347e+01  4.699147357194877e-01  -6.800381223491347e+01  7.974037180199209e-01  25.5980738499957    
1.100000000000000e+01  8.099580884383800e-01  2.332958564505055e+01  4.442565352855228e-01  -7.032755247935962e+01  4.442565352855228e-01  -7.032755247935962e+01  8.124331816359581e-01  23.5578746198052    
1.150000000000000e+01  8.236389008831670e-01  2.134075326425799e+01  4.191046357205514e-01  -7.260804206810515e+01  4.191046357205514e-01  -7.260804206810515e+01  8.260721381051869e-01  21.5799635078625    