
!*************************************************************************
!! ASITIC Ver 10.20.99.0.0.0
!!  Data generated by the <2Port> command in <slow> mode.
!! Generated on Thu Apr 11 17:21:13 1974
!# Spiral Data:	Name = <Y_200_3>, Symmetric Square Inductor
!# L1 = 200.00, L2 = 20.00, Origin = <100.00,100.00>
!# Sides =   4, Metal =   4, Exit Metal =   3
!# W = 10.00, S =  3.00, N =  3.00
!# Theta =  0.00, Phase =   1
!# Technolog File Data <CMOS.tek> @ <.>
!# Auto-Cell Mode:  <alpha> = 0.050000, <beta> = 0.800000
!# Metal Layers
!# Name=M1        Met=0  Lyr=  1  Mz=48.70  T=0.50  RS=0.07  Col=YELLOW  
!# Name=M2        Met=1  Lyr=  1  Mz=47.60  T=0.50  RS=0.06  Col=LIGHTSKYBLUE1
!# Name=M3        Met=2  Lyr=  1  Mz=46.50  T=0.50  RS=0.06  Col=MEDIUM PURPLE
!# Name=M4        Met=3  Lyr=  1  Mz=45.50  T=0.50  RS=0.06  Col=LIGHT GREEN
!# Name=M5        Met=4  Lyr=  1  Mz=44.00  T=1.00  RS=0.03  Col=GREY    
!# Substrate Layers
!# Lyr=    0  Eps=  12  Rho=  10  DZ=7.5e+02  T=7e+02
!# Lyr=    1  Eps= 3.9  Rho=1e+14  DZ=  50  T=  50
!*************************************************************************
# GHZ S MA S11 mag    S11 phase  S12 mag    S12 phase  S21 mag    S21 phase  S22 mag    S22 phase  
1.000000000000000e+00  1.373838654352555e-01  5.316589620657425e+01  9.311871931612691e-01  -1.039193710549665e+01  9.311871931612691e-01  -1.039193710549665e+01  1.384037342787513e-01  53.6551435584621    
1.500000000000000e+00  1.923862532466778e-01  5.582847911412978e+01  9.213611861871559e-01  -1.549300035887100e+01  9.213611861871559e-01  -1.549300035887100e+01  1.940615393792418e-01  56.3589025427351    
2.000000000000000e+00  2.466449962530628e-01  5.496937341682208e+01  9.084719007519346e-01  -2.046900061058603e+01  9.084719007519346e-01  -2.046900061058603e+01  2.489009323476941e-01  55.5595508459971    
2.500000000000000e+00  2.989854579239573e-01  5.264179944878048e+01  8.929601698984136e-01  -2.532666466278806e+01  8.929601698984136e-01  -2.532666466278806e+01  3.017441279419200e-01  53.3040321881921    
3.000000000000000e+00  3.483547553158864e-01  4.963772835994476e+01  8.755072787098679e-01  -3.003247276370046e+01  8.755072787098679e-01  -3.003247276370046e+01  3.515359463918173e-01  50.379935333351     
3.500000000000000e+00  3.944832333238591e-01  4.633416063747136e+01  8.567624234055674e-01  -3.458376462980713e+01  8.567624234055674e-01  -3.458376462980713e+01  3.980064534034798e-01  47.1606653369125    
4.000000000000000e+00  4.376770271188627e-01  4.289188641688253e+01  8.370200429253359e-01  -3.900405064652649e+01  8.370200429253359e-01  -3.900405064652649e+01  4.414583057730191e-01  43.8040580467345    
4.500000000000000e+00  4.776282461875069e-01  3.939471847648360e+01  8.166168696477970e-01  -4.327244387555204e+01  8.166168696477970e-01  -4.327244387555204e+01  4.815804343105514e-01  40.3939186249418    
5.000000000000000e+00  5.143087069398929e-01  3.591473511863452e+01  7.960166383172481e-01  -4.738472902990069e+01  7.960166383172481e-01  -4.738472902990069e+01  5.183466485233932e-01  37.001496782168     
5.500000000000000e+00  5.481484310401072e-01  3.246302466293114e+01  7.752515096600634e-01  -5.136380983876767e+01  7.752515096600634e-01  -5.136380983876767e+01  5.521843013884117e-01  33.6367494718583    
6.000000000000000e+00  5.790898692105071e-01  2.908421270529867e+01  7.548069596085329e-01  -5.520161898778661e+01  7.548069596085329e-01  -5.520161898778661e+01  5.830427759052144e-01  30.3441232825511    
6.500000000000000e+00  6.076511352211303e-01  2.576986259952737e+01  7.346285058285853e-01  -5.892779883574118e+01  7.346285058285853e-01  -5.892779883574118e+01  6.114403121513253e-01  27.1140266597228    
7.000000000000000e+00  6.335915293592284e-01  2.253581083379176e+01  7.150149245309971e-01  -6.251791613736737e+01  7.150149245309971e-01  -6.251791613736737e+01  6.371389006404382e-01  23.9631788900222    
7.500000000000001e+00  6.573116907568006e-01  1.937858439148769e+01  6.959847509053574e-01  -6.599439015821763e+01  6.959847509053574e-01  -6.599439015821763e+01  6.605425131456452e-01  20.8872348501566    
8.000000000000000e+00  6.789687152489815e-01  1.628517526607070e+01  6.774542201119226e-01  -6.936091204488409e+01  6.774542201119226e-01  -6.936091204488409e+01  6.818054319254169e-01  17.8730462238956    
8.500000000000000e+00  6.987831068221854e-01  1.327824888426576e+01  6.597733728413000e-01  -7.263101819096165e+01  6.597733728413000e-01  -7.263101819096165e+01  7.011637007790743e-01  14.9427878527366    
9.000000000000000e+00  7.171119456374845e-01  1.034650444306583e+01  6.428405917301886e-01  -7.582740058857618e+01  6.428405917301886e-01  -7.582740058857618e+01  7.189796004540645e-01  12.0843603174338    
9.500000000000000e+00  7.336994722446815e-01  7.477620542577498e+00  6.266278414507603e-01  -7.892156962444321e+01  6.266278414507603e-01  -7.892156962444321e+01  7.349878421182664e-01  9.28655445010268    
1.000000000000000e+01  7.488870007449950e-01  4.672031742401223e+00  6.111595532944206e-01  -8.193723988793757e+01  6.111595532944206e-01  -8.193723988793757e+01  7.495398517215881e-01  6.54893097974884    
1.050000000000000e+01  7.628023431551748e-01  1.919908466514746e+00  5.963313076466632e-01  -8.487983268472688e+01  5.963313076466632e-01  -8.487983268472688e+01  7.627635077974890e-01  3.86136216263389    
1.100000000000000e+01  7.766380113024763e-01  -7.993501714311801e-01  5.818671104094457e-01  -8.785401398298941e+01  5.818671104094457e-01  -8.785401398298941e+01  7.758665807500565e-01  1.19956237339109    
1.150000000000000e+01  7.883440270343119e-01  -3.440705843593016e+00  5.685445281960183e-01  -9.067127887912729e+01  5.685445281960183e-01  -9.067127887912729e+01  7.867931932206941e-01  -1.3846474626458    
1.200000000000000e+01  7.990995566833979e-01  -6.034868674127137e+00  5.558700108469222e-01  -9.343269083939536e+01  5.558700108469222e-01  -9.343269083939536e+01  7.967301426595976e-01  -3.92581189377653   
1.250000000000000e+01  8.089793081023519e-01  -8.585787483445468e+00  5.438864569469055e-01  -9.614325801446995e+01  5.438864569469055e-01  -9.614325801446995e+01  8.057540164015148e-01  -6.42773894044396   
1.300000000000000e+01  8.180643956623715e-01  -1.109709484574219e+01  5.325355688486630e-01  -9.880746234777328e+01  5.325355688486630e-01  -9.880746234777328e+01  8.139511096676350e-01  -8.89444285469772   
1.350000000000000e+01  8.263952151087309e-01  -1.357057267822236e+01  5.217654821521936e-01  -1.014261222410333e+02  5.217654821521936e-01  -1.014261222410333e+02  8.213655504883777e-01  -11.3278436175426   
1.400000000000000e+01  8.340859015946127e-01  -1.601259154708551e+01  5.115960245365154e-01  -1.040098796083560e+02  5.115960245365154e-01  -1.040098796083560e+02  8.281166549748535e-01  -13.7346447367255   
1.450000000000000e+01  8.411627400934453e-01  -1.842479028393162e+01  5.019780726223368e-01  -1.065590552301378e+02  5.019780726223368e-01  -1.065590552301378e+02  8.342348106029598e-01  -16.1166406755271   
1.500000000000000e+01  8.475823251573652e-01  -2.080811910580913e+01  4.928505833432378e-01  -1.090661987636820e+02  4.928505833432378e-01  -1.090661987636820e+02  8.396762136666466e-01  -18.474761927268    
1.550000000000000e+01  8.535645331894224e-01  -2.316881957321338e+01  4.842543893902811e-01  -1.115556334343903e+02  4.842543893902811e-01  -1.115556334343903e+02  8.446750298291282e-01  -20.8159013788615   
1.600000000000000e+01  8.590580844354517e-01  -2.550782919919902e+01  4.761326199763057e-01  -1.140199026217024e+02  4.761326199763057e-01  -1.140199026217024e+02  8.491804802914811e-01  -23.1409958276672   
1.650000000000000e+01  8.640951398945954e-01  -2.782753195642134e+01  4.684614192801871e-01  -1.164617130977984e+02  4.684614192801871e-01  -1.164617130977984e+02  8.532299504931325e-01  -25.4526407843915   
1.700000000000000e+01  8.687472839425148e-01  -3.012500536203315e+01  4.612045355638099e-01  -1.188887282815528e+02  4.612045355638099e-01  -1.188887282815528e+02  8.569064296063592e-01  -27.7478881337173   
1.750000000000000e+01  8.729543111595619e-01  -3.241240493286536e+01  4.543615482126285e-01  -1.212933609876613e+02  4.543615482126285e-01  -1.212933609876613e+02  8.601436568076773e-01  -30.0395372538507   