
!*************************************************************************
!! ASITIC Ver 10.20.99.0.0.0
!!  Data generated by the <2Port> command in <slow> mode.
!! Generated on Thu Apr 11 17:21:13 1974
!# Spiral Data:	Name = <Y_150_2>, Symmetric Square Inductor
!# L1 = 150.00, L2 = 15.00, Origin = <100.00,100.00>
!# Sides =   4, Metal =   4, Exit Metal =   3
!# W =  8.00, S =  2.00, N =  2.00
!# Theta =  0.00, Phase =   1
!# Technolog File Data <CMOS.tek> @ <.>
!# Auto-Cell Mode:  <alpha> = 0.050000, <beta> = 0.800000
!# Metal Layers
!# Name=M1        Met=0  Lyr=  1  Mz=48.70  T=0.50  RS=0.07  Col=YELLOW  
!# Name=M2        Met=1  Lyr=  1  Mz=47.60  T=0.50  RS=0.06  Col=LIGHTSKYBLUE1
!# Name=M3        Met=2  Lyr=  1  Mz=46.50  T=0.50  RS=0.06  Col=MEDIUM PURPLE
!# Name=M4        Met=3  Lyr=  1  Mz=45.50  T=0.50  RS=0.06  Col=LIGHT GREEN
!# Name=M5        Met=4  Lyr=  1  Mz=44.00  T=1.00  RS=0.03  Col=GREY    
!# Substrate Layers
!# Lyr=    0  Eps=  12  Rho=  10  DZ=7.5e+02  T=7e+02
!# Lyr=    1  Eps= 3.9  Rho=1e+14  DZ=  50  T=  50
!*************************************************************************
# GHZ S MA S11 mag    S11 phase  S12 mag    S12 phase  S21 mag    S21 phase  S22 mag    S22 phase  
1.000000000000000e+00  6.554878014504378e-02  4.583562649400578e+01  9.571810511539535e-01  -4.589573774378036e+00  9.571810511539535e-01  -4.589573774378036e+00  6.623250081826106e-02  46.8502937087896    
1.500000000000000e+00  8.635267538208449e-02  5.393773746155856e+01  9.552171276581232e-01  -6.870832097537926e+00  9.552171276581232e-01  -6.870832097537926e+00  8.775688691986891e-02  55.0158322753922    
2.000000000000000e+00  1.089280694478078e-01  5.787012576579351e+01  9.525136400192531e-01  -9.156484866074125e+00  9.525136400192531e-01  -9.156484866074125e+00  1.110427796913300e-01  58.9523901289392    
2.500000000000000e+00  1.319881038756883e-01  5.957524120418538e+01  9.491216548328929e-01  -1.142226728490959e+01  9.491216548328929e-01  -1.142226728490959e+01  1.347769486702910e-01  60.6731673479869    
3.000000000000000e+00  1.549093193913688e-01  6.007003479872020e+01  9.451997344615933e-01  -1.365750800535097e+01  9.451997344615933e-01  -1.365750800535097e+01  1.583401266788278e-01  61.2028667482362    
3.500000000000000e+00  1.778777429735283e-01  5.984426630300428e+01  9.406770729520679e-01  -1.588436482182834e+01  9.406770729520679e-01  -1.588436482182834e+01  1.819183021057357e-01  61.0244010517026    
4.000000000000000e+00  2.003544620005299e-01  5.917095429776810e+01  9.357424265685799e-01  -1.807841692407635e+01  9.357424265685799e-01  -1.807841692407635e+01  2.049760021486258e-01  60.4106519520478    
4.500000000000000e+00  2.226119520428011e-01  5.819407952139888e+01  9.303189893378340e-01  -2.025890237421962e+01  9.303189893378340e-01  -2.025890237421962e+01  2.277838903572066e-01  59.4998200498958    
5.000000000000000e+00  2.443133978963394e-01  5.701887844967393e+01  9.245516083127063e-01  -2.240894871111459e+01  9.245516083127063e-01  -2.240894871111459e+01  2.500061306029401e-01  58.3978668785432    
5.500000000000000e+00  2.658005941570178e-01  5.568987640528935e+01  9.183308211128336e-01  -2.454982319276503e+01  9.183308211128336e-01  -2.454982319276503e+01  2.719801391811044e-01  57.1453676163562    
6.000000000000000e+00  2.865854348578561e-01  5.426939959081903e+01  9.118697365904345e-01  -2.665430819638270e+01  9.118697365904345e-01  -2.665430819638270e+01  2.932221137531572e-01  55.8059090303168    
6.500000000000000e+00  3.068721604560654e-01  5.277632994827042e+01  9.051165963170741e-01  -2.873494881796564e+01  9.051165963170741e-01  -2.873494881796564e+01  3.139328624300677e-01  54.3964251313052    
7.000000000000000e+00  3.268386930679563e-01  5.122421336556904e+01  8.980353989578214e-01  -3.080303136493130e+01  8.980353989578214e-01  -3.080303136493130e+01  3.342853066113834e-01  52.9296614956856    
7.500000000000001e+00  3.460988992942042e-01  4.964181486853334e+01  8.907858206017205e-01  -3.283565292579834e+01  8.907858206017205e-01  -3.283565292579834e+01  3.538999473670471e-01  51.4343719352923    
8.000000000000000e+00  3.648277907420410e-01  4.803405776772404e+01  8.833352957461800e-01  -3.484351859044163e+01  8.833352957461800e-01  -3.484351859044163e+01  3.729474860142394e-01  49.9148880022877    
8.500000000000000e+00  3.832122509076697e-01  4.639982945696923e+01  8.756191813883963e-01  -3.683798397731589e+01  8.756191813883963e-01  -3.683798397731589e+01  3.916110696895113e-01  48.3688233059788    
9.000000000000000e+00  4.008720409300889e-01  4.476510293535411e+01  8.678438506452806e-01  -3.879619968781134e+01  8.678438506452806e-01  -3.879619968781134e+01  4.095157896439648e-01  46.8238693850465    
9.500000000000000e+00  4.179933714470430e-01  4.312605793862820e+01  8.599503464381235e-01  -4.072925878866071e+01  8.599503464381235e-01  -4.072925878866071e+01  4.268445981072376e-01  45.2750459284036    
1.000000000000000e+01  4.345787010694596e-01  4.148695396008814e+01  8.519640170774565e-01  -4.263717798122160e+01  8.519640170774565e-01  -4.263717798122160e+01  4.435996289878811e-01  43.7264491647024    
1.050000000000000e+01  4.506945117538181e-01  3.983981689024441e+01  8.438103993096836e-01  -4.452335733277799e+01  8.438103993096836e-01  -4.452335733277799e+01  4.598424170919073e-01  42.1701336536004    
1.100000000000000e+01  4.678572640692055e-01  3.821235425773605e+01  8.355458204231186e-01  -4.649117184954304e+01  8.355458204231186e-01  -4.649117184954304e+01  4.770962943855888e-01  40.6255668799368    
1.150000000000000e+01  4.829206497733145e-01  3.658777710434055e+01  8.273911600040679e-01  -4.832886364985102e+01  8.273911600040679e-01  -4.832886364985102e+01  4.922145595603012e-01  39.0913595034608    
1.200000000000000e+01  4.974749925582330e-01  3.497008893327170e+01  8.191963360394224e-01  -5.014157019130897e+01  8.191963360394224e-01  -5.014157019130897e+01  5.067847685317084e-01  37.5632868104735    
1.250000000000000e+01  5.115221912260832e-01  3.336690313540419e+01  8.110478721860870e-01  -5.193026001066953e+01  8.110478721860870e-01  -5.193026001066953e+01  5.208108567034033e-01  36.0500055551899    
1.300000000000000e+01  5.250773986012123e-01  3.177621377320852e+01  8.029303599364231e-01  -5.369498907586684e+01  8.029303599364231e-01  -5.369498907586684e+01  5.343072597967299e-01  34.5488797153301    
1.350000000000000e+01  5.381523075859367e-01  3.019885861267212e+01  7.948598575008412e-01  -5.543615269045232e+01  7.948598575008412e-01  -5.543615269045232e+01  5.472859606148994e-01  33.0606757602344    
1.400000000000000e+01  5.506336800883723e-01  2.863639318036772e+01  7.868616299449420e-01  -5.714489982317995e+01  7.868616299449420e-01  -5.714489982317995e+01  5.596336959837628e-01  31.5875519490638    
1.450000000000000e+01  5.627826618810507e-01  2.708783046676670e+01  7.789306543728983e-01  -5.883996267411158e+01  7.789306543728983e-01  -5.883996267411158e+01  5.716128921374957e-01  30.1271414905963    
1.500000000000000e+01  5.744899193151934e-01  2.555400113223259e+01  7.710869672152398e-01  -6.051286493495819e+01  7.710869672152398e-01  -6.051286493495819e+01  5.831141544431702e-01  28.6808658815309    
1.550000000000000e+01  5.857688309851671e-01  2.403509472854844e+01  7.633415344840198e-01  -6.216412261588345e+01  7.633415344840198e-01  -6.216412261588345e+01  5.941513393863299e-01  27.2488591743764    
1.600000000000000e+01  5.966488567515668e-01  2.252822746729688e+01  7.556571408487140e-01  -6.379462867304989e+01  7.556571408487140e-01  -6.379462867304989e+01  6.047536686777579e-01  25.8273810733573    
1.650000000000000e+01  6.071108501274268e-01  2.103928259982822e+01  7.481339616518671e-01  -6.540412436483965e+01  7.481339616518671e-01  -6.540412436483965e+01  6.149040117606432e-01  24.4238479014848    
1.700000000000000e+01  6.171849469090426e-01  1.956528488888237e+01  7.407354428762993e-01  -6.699361657805618e+01  7.407354428762993e-01  -6.699361657805618e+01  6.246323416555211e-01  23.0344543288273    
1.750000000000000e+01  6.268845176649419e-01  1.810609845165047e+01  7.334684410139730e-01  -6.856367708019017e+01  7.334684410139730e-01  -6.856367708019017e+01  6.339526109268470e-01  21.6590164372941    