
!*************************************************************************
!! ASITIC Ver 10.20.99.0.0.0
!!  Data generated by the <2Port> command in <slow> mode.
!! Generated on Thu Apr 11 17:21:13 1974
!# Spiral Data:	Name = <Y_150_2>, Symmetric Square Inductor
!# L1 = 150.00, L2 = 15.00, Origin = <100.00,100.00>
!# Sides =   4, Metal =   2, Exit Metal =   1
!# W =  8.00, S =  2.00, N =  2.00
!# Theta =  0.00, Phase =   1
!# Technolog File Data <BiCMOS.tek> @ <.>
!# Auto-Cell Mode:  <alpha> = 0.050000, <beta> = 0.800000
!# Metal Layers
!# Name=MSUB      Met=0  Lyr=  1  Mz=50.00  T=0.40  RS=0.04  Col=BLUE    
!# Name=M2        Met=1  Lyr=  2  Mz=47.00  T=0.80  RS=0.05  Col=GREEN   
!# Name=M3        Met=2  Lyr=  2  Mz=45.00  T=2.00  RS=0.02  Col=RED     
!# Substrate Layers
!# Lyr=    0  Eps=  12  Rho=1e+05  DZ=8.5e+02  T=8e+02
!# Lyr=    1  Eps=  12  Rho=1e+03  DZ=  52  T=   2
!# Lyr=    2  Eps=   4  Rho=1e+14  DZ=  50  T=  50
!*************************************************************************
# GHZ S MA S11 mag    S11 phase  S12 mag    S12 phase  S21 mag    S21 phase  S22 mag    S22 phase  
1.000000000000000e+00  5.513123607273009e-02  5.556171161298914e+01  9.646030975194890e-01  -4.615998535322252e+00  9.646030975194890e-01  -4.615998535322252e+00  5.630916833840123e-02  56.7168849022608    
1.500000000000000e+00  7.679371688278097e-02  6.495083036279725e+01  9.587991772096561e-01  -6.845614879724887e+00  9.587991772096561e-01  -6.845614879724887e+00  7.902972259736431e-02  65.7054761837103    
2.000000000000000e+00  1.007642169247293e-01  6.954438920492441e+01  9.517487603392315e-01  -8.981298021673000e+00  9.517487603392315e-01  -8.981298021673000e+00  1.038532249363781e-01  69.9705426013973    
2.500000000000000e+00  1.266336372070873e-01  7.163334439603683e+01  9.438594738190855e-01  -1.106303222993172e+01  9.438594738190855e-01  -1.106303222993172e+01  1.304011008749429e-01  71.8508334097596    
3.000000000000000e+00  1.530179323587574e-01  7.225985920423973e+01  9.354775354684354e-01  -1.306108034640922e+01  9.354775354684354e-01  -1.306108034640922e+01  1.573478763680144e-01  72.3634334746667    
3.500000000000000e+00  1.800097214754237e-01  7.199949985507131e+01  9.266342276590674e-01  -1.502300920881769e+01  9.266342276590674e-01  -1.502300920881769e+01  1.848217457863859e-01  72.0483511707011    
4.000000000000000e+00  2.110553812091041e-01  7.114737232537283e+01  9.170927836194888e-01  -1.719605557201021e+01  9.170927836194888e-01  -1.719605557201021e+01  2.163122142145041e-01  71.1812276837482    
4.500000000000000e+00  2.381266165806968e-01  7.000665964347569e+01  9.075459167413299e-01  -1.910625795541086e+01  9.075459167413299e-01  -1.910625795541086e+01  2.437861989695320e-01  70.0450199100788    
5.000000000000000e+00  2.647892935041429e-01  6.868141302118252e+01  8.977552207086101e-01  -2.098780538251611e+01  8.977552207086101e-01  -2.098780538251611e+01  2.708293661369047e-01  68.7369605341266    
5.500000000000000e+00  2.909584828423719e-01  6.722633064934955e+01  8.876332384707070e-01  -2.284491320094054e+01  8.876332384707070e-01  -2.284491320094054e+01  2.973616371755637e-01  67.3070667868227    
6.000000000000000e+00  3.165270887425311e-01  6.567725680808533e+01  8.771021241576030e-01  -2.467693136275289e+01  8.771021241576030e-01  -2.467693136275289e+01  3.232773501097369e-01  65.7879510052768    
6.500000000000000e+00  3.415031055683836e-01  6.409122509947467e+01  8.662918849168487e-01  -2.648875028599421e+01  8.662918849168487e-01  -2.648875028599421e+01  3.485894782982161e-01  64.2348410100569    
7.000000000000000e+00  3.658263458084635e-01  6.247737525809568e+01  8.551448497369529e-01  -2.827884525713609e+01  8.551448497369529e-01  -2.827884525713609e+01  3.732369827543781e-01  62.6555834582578    
7.500000000000001e+00  3.894555638729408e-01  6.083805203583462e+01  8.435883383958027e-01  -3.004593799470264e+01  8.435883383958027e-01  -3.004593799470264e+01  3.971776061062390e-01  61.0519267420126    
8.000000000000000e+00  4.124022190204678e-01  5.920870267469308e+01  8.318016806895354e-01  -3.179170672403662e+01  8.318016806895354e-01  -3.179170672403662e+01  4.204251047589084e-01  59.458447163977     
8.500000000000000e+00  4.346458552733551e-01  5.758408701159041e+01  8.197252758442821e-01  -3.351508045459941e+01  8.197252758442821e-01  -3.351508045459941e+01  4.429576794530966e-01  57.8697826622632    
9.000000000000000e+00  4.561811616716679e-01  5.596949453007334e+01  8.073815356317867e-01  -3.521571559218824e+01  8.073815356317867e-01  -3.521571559218824e+01  4.647697642676443e-01  56.2910215018376    
9.500000000000000e+00  4.769749980558066e-01  5.436262894044140e+01  7.947444911848535e-01  -3.689105777705654e+01  7.947444911848535e-01  -3.689105777705654e+01  4.858277308721188e-01  54.7201072765571    
1.000000000000000e+01  4.970887983087184e-01  5.277871028683211e+01  7.819387293506647e-01  -3.854499408005882e+01  7.819387293506647e-01  -3.854499408005882e+01  5.061932147808872e-01  53.1714594498499    
1.050000000000000e+01  5.180187463307256e-01  5.113741050057912e+01  7.682838859085288e-01  -4.028922576346246e+01  7.682838859085288e-01  -4.028922576346246e+01  5.273657230964616e-01  51.5655294430401    
1.100000000000000e+01  5.367599178636691e-01  4.958867914886009e+01  7.550620940429938e-01  -4.190012309164470e+01  7.550620940429938e-01  -4.190012309164470e+01  5.463324347930023e-01  50.0512514872788    
1.150000000000000e+01  5.546563490847924e-01  4.805960739914268e+01  7.416793326420367e-01  -4.347521503864666e+01  7.416793326420367e-01  -4.347521503864666e+01  5.644395373552832e-01  48.5562545479945    
1.200000000000000e+01  5.720161598024783e-01  4.655525732259726e+01  7.282066356901542e-01  -4.503736968268221e+01  7.282066356901542e-01  -4.503736968268221e+01  5.819985436877885e-01  47.0855289366285    
1.250000000000000e+01  5.887068187472295e-01  4.507379616990907e+01  7.146439447014210e-01  -4.657558633235458e+01  7.146439447014210e-01  -4.657558633235458e+01  5.988752470990718e-01  45.6372753830341    
1.300000000000000e+01  6.047421654476549e-01  4.361554773304373e+01  7.010143875776029e-01  -4.809000056187431e+01  7.010143875776029e-01  -4.809000056187431e+01  6.150835416833783e-01  44.2118209763809    
1.350000000000000e+01  6.199475912031394e-01  4.218390629292065e+01  6.873700865237842e-01  -4.956485910905361e+01  6.873700865237842e-01  -4.956485910905361e+01  6.304483417950624e-01  42.8126559399396    
1.400000000000000e+01  6.347145654854462e-01  4.077290807459357e+01  6.736767148347316e-01  -5.103166731732500e+01  6.736767148347316e-01  -5.103166731732500e+01  6.453624262814160e-01  41.4336463143955    
1.450000000000000e+01  6.488741795242681e-01  3.938523851581510e+01  6.599781628609024e-01  -5.247544995359038e+01  6.599781628609024e-01  -5.247544995359038e+01  6.596564307692420e-01  40.0775693951381    
1.500000000000000e+01  6.624436071107367e-01  3.802073980217146e+01  6.462921936261437e-01  -5.389656400120995e+01  6.462921936261437e-01  -5.389656400120995e+01  6.733477046402050e-01  38.7442734074399    
1.550000000000000e+01  6.754404373600841e-01  3.667918339559137e+01  6.326351823559858e-01  -5.529540952243875e+01  6.326351823559858e-01  -5.529540952243875e+01  6.864540318804518e-01  37.4335354812554    
1.600000000000000e+01  6.877658869517547e-01  3.536012309861591e+01  6.190166972337605e-01  -5.666138866457725e+01  6.190166972337605e-01  -5.666138866457725e+01  6.988749006035004e-01  36.1448905111055    
1.650000000000000e+01  6.996689327560083e-01  3.406370905026426e+01  6.054629608965324e-01  -5.801655780787596e+01  6.054629608965324e-01  -5.801655780787596e+01  7.108633716016868e-01  34.8785446879676    
1.700000000000000e+01  7.110534962862440e-01  3.278924205123482e+01  5.919792962770279e-01  -5.935086735843350e+01  5.919792962770279e-01  -5.935086735843350e+01  7.223216787172757e-01  33.6337757343359    
1.750000000000000e+01  7.219375771717809e-01  3.153631649221233e+01  5.785768471998335e-01  -6.066484677338072e+01  5.785768471998335e-01  -6.066484677338072e+01  7.332680595377624e-01  32.4101813936115    