
!*************************************************************************
!! ASITIC Ver 10.20.99.0.0.0
!!  Data generated by the <2Port> command in <slow> mode.
!! Generated on Thu Apr 11 17:21:13 1974
!# Spiral Data:	Name = <Y_200_2>, Symmetric Square Inductor
!# L1 = 200.00, L2 = 20.00, Origin = <100.00,100.00>
!# Sides =   4, Metal =   2, Exit Metal =   1
!# W = 10.00, S =  3.00, N =  2.00
!# Theta =  0.00, Phase =   1
!# Technolog File Data <BiCMOS.tek> @ <.>
!# Auto-Cell Mode:  <alpha> = 0.050000, <beta> = 0.800000
!# Metal Layers
!# Name=MSUB      Met=0  Lyr=  1  Mz=50.00  T=0.40  RS=0.04  Col=BLUE    
!# Name=M2        Met=1  Lyr=  2  Mz=47.00  T=0.80  RS=0.05  Col=GREEN   
!# Name=M3        Met=2  Lyr=  2  Mz=45.00  T=2.00  RS=0.02  Col=RED     
!# Substrate Layers
!# Lyr=    0  Eps=  12  Rho=1e+05  DZ=8.5e+02  T=8e+02
!# Lyr=    1  Eps=  12  Rho=1e+03  DZ=  52  T=   2
!# Lyr=    2  Eps=   4  Rho=1e+14  DZ=  50  T=  50
!*************************************************************************
# GHZ S MA S11 mag    S11 phase  S12 mag    S12 phase  S21 mag    S21 phase  S22 mag    S22 phase  
1.000000000000000e+00  6.827769151816447e-02  6.374711104905375e+01  9.592500584820181e-01  -6.478266597090776e+00  9.592500584820181e-01  -6.478266597090776e+00  7.024172714806727e-02  64.4324518049492    
1.500000000000000e+00  1.009010660632672e-01  7.119675072060130e+01  9.486138936400765e-01  -9.489949798474992e+00  9.486138936400765e-01  -9.489949798474992e+00  1.039225994321806e-01  71.4050998349577    
2.000000000000000e+00  1.368985409432902e-01  7.355977622655510e+01  9.365088822540479e-01  -1.234014927824421e+01  9.365088822540479e-01  -1.234014927824421e+01  1.406751539944136e-01  73.5405971981528    
2.500000000000000e+00  1.740934273960319e-01  7.358202125906504e+01  9.237855029206229e-01  -1.505658160773755e+01  9.237855029206229e-01  -1.505658160773755e+01  1.784604064771739e-01  73.4784303445718    
3.000000000000000e+00  2.116755080876585e-01  7.242467899600337e+01  9.105547159150843e-01  -1.769832796823523e+01  9.105547159150843e-01  -1.769832796823523e+01  2.165445764593146e-01  72.3071554253762    
3.500000000000000e+00  2.486151305279292e-01  7.069405082946028e+01  8.969332284857547e-01  -2.026814041080140e+01  8.969332284857547e-01  -2.026814041080140e+01  2.539419726291374e-01  70.5950232636616    
4.000000000000000e+00  2.892449205416253e-01  6.845596261776610e+01  8.818814166404140e-01  -2.308521352315732e+01  8.818814166404140e-01  -2.308521352315732e+01  2.950187015658170e-01  68.3979707563646    
4.500000000000000e+00  3.247093533724023e-01  6.624405530483115e+01  8.669606946492280e-01  -2.560030882727727e+01  8.669606946492280e-01  -2.560030882727727e+01  3.308958415531329e-01  66.226359254173     
5.000000000000000e+00  3.590449456973362e-01  6.395728069481232e+01  8.513985125425513e-01  -2.808191671758081e+01  8.513985125425513e-01  -2.808191671758081e+01  3.656247745652177e-01  63.9823279053111    
5.500000000000000e+00  3.919748872108814e-01  6.165396989398633e+01  8.352680657462124e-01  -3.051709088855875e+01  8.352680657462124e-01  -3.051709088855875e+01  3.989314770370391e-01  61.7225410497101    
6.000000000000000e+00  4.235514850721888e-01  5.934627689509679e+01  8.185031807500782e-01  -3.291137011740555e+01  8.185031807500782e-01  -3.291137011740555e+01  4.308647949296578e-01  59.4580966276722    
6.500000000000000e+00  4.537558081148422e-01  5.706842920341216e+01  8.012740722384349e-01  -3.526384661148802e+01  8.012740722384349e-01  -3.526384661148802e+01  4.614080689181414e-01  57.2226682182771    
7.000000000000000e+00  4.825848211608239e-01  5.482190341961439e+01  7.835791534588050e-01  -3.757374376406207e+01  7.835791534588050e-01  -3.757374376406207e+01  4.905558825073236e-01  55.0175884612162    
7.500000000000001e+00  5.100381329047753e-01  5.260455546107467e+01  7.654061035185548e-01  -3.983987227240106e+01  7.654061035185548e-01  -3.983987227240106e+01  5.183064513184669e-01  52.8407555480913    
8.000000000000000e+00  5.361394187576358e-01  5.043771226040391e+01  7.469685576489703e-01  -4.206198506743772e+01  7.469685576489703e-01  -4.206198506743772e+01  5.446841664701736e-01  50.7132842775197    
8.500000000000000e+00  5.609107147864422e-01  4.831512686155475e+01  7.282599746520642e-01  -4.423978364122564e+01  7.282599746520642e-01  -4.423978364122564e+01  5.697101325863168e-01  48.629077048002     
9.000000000000000e+00  5.843445657029372e-01  4.623404967761351e+01  7.093013527717845e-01  -4.637022903277158e+01  7.093013527717845e-01  -4.637022903277158e+01  5.933756409517505e-01  46.5854540469128    
9.500000000000000e+00  6.065458873441665e-01  4.420359599764561e+01  6.902391934383755e-01  -4.845905685133388e+01  6.902391934383755e-01  -4.845905685133388e+01  6.157877855850804e-01  44.5915403961258    
1.000000000000000e+01  6.275208006356627e-01  4.221955535139629e+01  6.710876006210443e-01  -5.050414581053174e+01  6.710876006210443e-01  -5.050414581053174e+01  6.369518042739761e-01  42.6431989937543    
1.050000000000000e+01  6.484602178451021e-01  4.020307736876427e+01  6.510634808147940e-01  -5.261019623846487e+01  6.510634808147940e-01  -5.261019623846487e+01  6.580586176913584e-01  40.6618843436378    
1.100000000000000e+01  6.671008357986651e-01  3.830862606801598e+01  6.318362764270635e-01  -5.457251671674288e+01  6.318362764270635e-01  -5.457251671674288e+01  6.768451313743447e-01  38.8015346138923    
1.150000000000000e+01  6.846436686864698e-01  3.645915543219741e+01  6.126650699541510e-01  -5.649339861782104e+01  6.126650699541510e-01  -5.649339861782104e+01  6.945132263456875e-01  36.9854486571728    
1.200000000000000e+01  7.010301742660924e-01  3.465593554624453e+01  5.936105017151083e-01  -5.836350668536635e+01  5.936105017151083e-01  -5.836350668536635e+01  7.110040045802773e-01  35.2149363611987    
1.250000000000000e+01  7.165189833869684e-01  3.289358514580828e+01  5.746639893129486e-01  -6.020468351485287e+01  5.746639893129486e-01  -6.020468351485287e+01  7.265784569742657e-01  33.484627491255     
1.300000000000000e+01  7.310533853999283e-01  3.117290570012592e+01  5.558737573877258e-01  -6.200835590084720e+01  5.558737573877258e-01  -6.200835590084720e+01  7.411795683066906e-01  31.7953500443775    
1.350000000000000e+01  7.446804135028171e-01  2.949262093314824e+01  5.372645178564314e-01  -6.377604647341903e+01  5.372645178564314e-01  -6.377604647341903e+01  7.548549862574376e-01  30.1458449129146    
1.400000000000000e+01  7.572696919657111e-01  2.785262458023866e+01  5.188639086313431e-01  -6.548966384882941e+01  5.188639086313431e-01  -6.548966384882941e+01  7.674734751881418e-01  28.5363122358269    
1.450000000000000e+01  7.692153948215333e-01  2.624947039911401e+01  5.006798512205698e-01  -6.718909982386994e+01  5.006798512205698e-01  -6.718909982386994e+01  7.794327321430357e-01  26.9627474053079    
1.500000000000000e+01  7.803883326081354e-01  2.468266373828991e+01  4.827291110669242e-01  -6.885752949436117e+01  4.827291110669242e-01  -6.885752949436117e+01  7.906027623088319e-01  25.4249405892838    
1.550000000000000e+01  7.908302529031553e-01  2.315083340359562e+01  4.650228929562553e-01  -7.049674584370941e+01  4.650228929562553e-01  -7.049674584370941e+01  8.010259163683445e-01  23.9215260269158    
1.600000000000000e+01  8.005857469346292e-01  2.165670912556246e+01  4.476255693617689e-01  -7.210825508727345e+01  4.476255693617689e-01  -7.210825508727345e+01  8.107480866815694e-01  22.4549259723151    
1.650000000000000e+01  8.096872727151373e-01  2.019072024240727e+01  4.304321769756440e-01  -7.369504174389050e+01  4.304321769756440e-01  -7.369504174389050e+01  8.198010137241523e-01  21.016185366132     
1.700000000000000e+01  8.181723464350337e-01  1.875566013060191e+01  4.135024998955814e-01  -7.525836310517086e+01  4.135024998955814e-01  -7.525836310517086e+01  8.282233430030846e-01  19.6077940005616    
1.750000000000000e+01  8.260754530093543e-01  1.735022794058838e+01  3.968391539684579e-01  -7.680025161714494e+01  3.968391539684579e-01  -7.680025161714494e+01  8.360500898189287e-01  18.2284492884291    