
!*************************************************************************
!! ASITIC Ver 10.20.99.0.0.0
!!  Data generated by the <2Port> command in <slow> mode.
!! Generated on Thu Apr 11 17:21:13 1974
!# Spiral Data:	Name = <Y_250_3>, Symmetric Square Inductor
!# L1 = 250.00, L2 = 25.00, Origin = <100.00,100.00>
!# Sides =   4, Metal =   2, Exit Metal =   1
!# W = 10.00, S =  3.00, N =  3.00
!# Theta =  0.00, Phase =   1
!# Technolog File Data <BiCMOS.tek> @ <.>
!# Auto-Cell Mode:  <alpha> = 0.050000, <beta> = 0.800000
!# Metal Layers
!# Name=MSUB      Met=0  Lyr=  1  Mz=50.00  T=0.40  RS=0.04  Col=BLUE    
!# Name=M2        Met=1  Lyr=  2  Mz=47.00  T=0.80  RS=0.05  Col=GREEN   
!# Name=M3        Met=2  Lyr=  2  Mz=45.00  T=2.00  RS=0.02  Col=RED     
!# Substrate Layers
!# Lyr=    0  Eps=  12  Rho=1e+05  DZ=8.5e+02  T=8e+02
!# Lyr=    1  Eps=  12  Rho=1e+03  DZ=  52  T=   2
!# Lyr=    2  Eps=   4  Rho=1e+14  DZ=  50  T=  50
!*************************************************************************
# GHZ S MA S11 mag    S11 phase  S12 mag    S12 phase  S21 mag    S21 phase  S22 mag    S22 phase  
1.000000000000000e+00  1.839813671547907e-01  6.376534211254406e+01  9.106412141869948e-01  -1.460457185155705e+01  9.106412141869948e-01  -1.460457185155705e+01  1.861614739344715e-01  63.9212279259686    
1.500000000000000e+00  2.719147241179353e-01  6.350268564449711e+01  8.766123694671886e-01  -2.117869319978731e+01  8.766123694671886e-01  -2.117869319978731e+01  2.749682776522695e-01  63.5725945631881    
2.000000000000000e+00  3.565638998812992e-01  6.023799067909935e+01  8.376339925593942e-01  -2.730966999153450e+01  8.376339925593942e-01  -2.730966999153450e+01  3.602978159471186e-01  60.2908322318598    
2.500000000000000e+00  4.340457557378629e-01  5.602109894426439e+01  7.954285106548703e-01  -3.304402629408634e+01  7.954285106548703e-01  -3.304402629408634e+01  4.383451544556087e-01  56.0828870036887    
3.000000000000000e+00  5.036878892215279e-01  5.153763229270336e+01  7.508050341694819e-01  -3.845470995697166e+01  7.508050341694819e-01  -3.845470995697166e+01  5.084626168728078e-01  51.6183710287501    
3.500000000000000e+00  5.648672397097160e-01  4.715563325446558e+01  7.054530998907754e-01  -4.352550334214882e+01  7.054530998907754e-01  -4.352550334214882e+01  5.700416012963744e-01  47.2584668646215    
4.000000000000000e+00  6.231894143282387e-01  4.269159538602064e+01  6.572120278421684e-01  -4.872678314162880e+01  6.572120278421684e-01  -4.872678314162880e+01  6.287008969671737e-01  42.8189716225346    
4.500000000000000e+00  6.695986639885283e-01  3.868278456541310e+01  6.117187144656581e-01  -5.326301905806663e+01  6.117187144656581e-01  -5.326301905806663e+01  6.753721608436145e-01  38.8333954168914    
5.000000000000000e+00  7.096394387504330e-01  3.490331305632430e+01  5.671805738932225e-01  -5.755102070592859e+01  5.671805738932225e-01  -5.755102070592859e+01  7.156145993832548e-01  35.0767991176034    
5.500000000000000e+00  7.440043125380936e-01  3.134787048158758e+01  5.239317950777473e-01  -6.161247320669321e+01  5.239317950777473e-01  -6.161247320669321e+01  7.501267338462354e-01  31.5438152678944    
6.000000000000000e+00  7.734440150248552e-01  2.799881770322981e+01  4.821196323417703e-01  -6.547985051463230e+01  4.821196323417703e-01  -6.547985051463230e+01  7.796639598412718e-01  28.2166352309639    
6.500000000000000e+00  7.986057071412044e-01  2.484858315006770e+01  4.419646783258808e-01  -6.918289936308675e+01  4.419646783258808e-01  -6.918289936308675e+01  8.048793905746787e-01  25.0876142417692    
7.000000000000000e+00  8.200676169584422e-01  2.187573377471871e+01  4.034488601441263e-01  -7.275344406524370e+01  4.034488601441263e-01  -7.275344406524370e+01  8.263552514476873e-01  22.1352852635801    
7.500000000000001e+00  8.382634509882707e-01  1.906268051570847e+01  3.665429918856182e-01  -7.621386654267775e+01  3.665429918856182e-01  -7.621386654267775e+01  8.445291060605452e-01  19.3420987324619    
8.000000000000000e+00  8.537553430439843e-01  1.639539920875456e+01  3.312403393420459e-01  -7.961967613250162e+01  3.312403393420459e-01  -7.961967613250162e+01  8.599669435369656e-01  16.6938718688876    
8.500000000000000e+00  8.668475209592085e-01  1.385791121318373e+01  2.974551905940469e-01  -8.300240536772590e+01  2.974551905940469e-01  -8.300240536772590e+01  8.729758621986922e-01  14.1746556955202    
9.000000000000000e+00  8.778432129278213e-01  1.143182946524236e+01  2.650387789776153e-01  -8.641022998227210e+01  2.650387789776153e-01  -8.641022998227210e+01  8.838607106965177e-01  11.7660760085836    
9.500000000000000e+00  8.870233065543407e-01  9.114781695407482e+00  2.340686430559133e-01  -8.990608891719727e+01  2.340686430559133e-01  -8.990608891719727e+01  8.929068351357451e-01  9.46564657209589    
1.000000000000000e+01  8.946068328695145e-01  6.890791616356670e+00  2.044028502157012e-01  -9.357518897321339e+01  2.044028502157012e-01  -9.357518897321339e+01  9.003342795667612e-01  7.25738700145445    
1.050000000000000e+01  9.010363512930264e-01  4.701518535537721e+00  1.752995972405148e-01  -9.767746373167057e+01  1.752995972405148e-01  -9.767746373167057e+01  9.065789797887748e-01  5.08262726285817    
1.100000000000000e+01  9.059362727906465e-01  2.634947755645518e+00  1.481239763853611e-01  -1.021631488440764e+02  1.481239763853611e-01  -1.021631488440764e+02  9.112829216366513e-01  3.02981431562562    
1.150000000000000e+01  9.097279687589982e-01  6.345660083736088e-01  1.222159174039304e-01  -1.074900793015793e+02  1.222159174039304e-01  -1.074900793015793e+02  9.148613859159348e-01  1.04215898223274    
1.200000000000000e+01  9.125373789060370e-01  -1.306272685130258e+00  9.773139171829316e-02  -1.142876231186676e+02  9.773139171829316e-02  -1.142876231186676e+02  9.174421260247932e-01  -0.886958537432639  
1.250000000000000e+01  9.144393236048889e-01  -3.195090670074877e+00  7.506375122905666e-02  -1.238207045289044e+02  7.506375122905666e-02  -1.238207045289044e+02  9.191002187453787e-01  -2.76525687021619   
1.300000000000000e+01  9.155258201930325e-01  -5.037144318157185e+00  5.532759849566006e-02  -1.388155679315456e+02  5.532759849566006e-02  -1.388155679315456e+02  9.199292555438137e-01  -4.59799148493396   
1.350000000000000e+01  9.158657166159739e-01  -6.837674394350674e+00  4.148284716513634e-02  -1.641876297274365e+02  4.148284716513634e-02  -1.641876297274365e+02  9.199991498297214e-01  -6.39046807449786   
1.400000000000000e+01  9.154803912454743e-01  -8.596287914231588e+00  3.890546813518089e-02  1.605797206703427e+02  3.890546813518089e-02  1.605797206703427e+02  9.193333623600790e-01  -8.14208543566063   