
!*************************************************************************
!! ASITIC Ver 10.20.99.0.0.0
!!  Data generated by the <2Port> command in <slow> mode.
!! Generated on Thu Apr 11 17:21:13 1974
!# Spiral Data:	Name = <Y_250_3>, Symmetric Square Inductor
!# L1 = 250.00, L2 = 25.00, Origin = <100.00,100.00>
!# Sides =   4, Metal =   4, Exit Metal =   3
!# W = 10.00, S =  3.00, N =  3.00
!# Theta =  0.00, Phase =   1
!# Technolog File Data <CMOS.tek> @ <.>
!# Auto-Cell Mode:  <alpha> = 0.050000, <beta> = 0.800000
!# Metal Layers
!# Name=M1        Met=0  Lyr=  1  Mz=48.70  T=0.50  RS=0.07  Col=YELLOW  
!# Name=M2        Met=1  Lyr=  1  Mz=47.60  T=0.50  RS=0.06  Col=LIGHTSKYBLUE1
!# Name=M3        Met=2  Lyr=  1  Mz=46.50  T=0.50  RS=0.06  Col=MEDIUM PURPLE
!# Name=M4        Met=3  Lyr=  1  Mz=45.50  T=0.50  RS=0.06  Col=LIGHT GREEN
!# Name=M5        Met=4  Lyr=  1  Mz=44.00  T=1.00  RS=0.03  Col=GREY    
!# Substrate Layers
!# Lyr=    0  Eps=  12  Rho=  10  DZ=7.5e+02  T=7e+02
!# Lyr=    1  Eps= 3.9  Rho=1e+14  DZ=  50  T=  50
!*************************************************************************
# GHZ S MA S11 mag    S11 phase  S12 mag    S12 phase  S21 mag    S21 phase  S22 mag    S22 phase  
1.000000000000000e+00  1.938990253844369e-01  5.235644669621288e+01  9.078021210059291e-01  -1.459737466797170e+01  9.078021210059291e-01  -1.459737466797170e+01  1.953211688603141e-01  52.8554055289287    
1.500000000000000e+00  2.718742910043868e-01  5.230246789256607e+01  8.893000846120714e-01  -2.162666209323309e+01  8.893000846120714e-01  -2.162666209323309e+01  2.740789308788441e-01  52.8804673490544    
2.000000000000000e+00  3.452725471760798e-01  4.923129340477123e+01  8.658780131031846e-01  -2.835275774713121e+01  8.658780131031846e-01  -2.835275774713121e+01  3.481142142827988e-01  49.9082865917363    
2.500000000000000e+00  4.125231323388445e-01  4.505043896130473e+01  8.388988582797667e-01  -3.476758956880388e+01  8.388988582797667e-01  -3.476758956880388e+01  4.158452816647348e-01  45.8363457121494    
3.000000000000000e+00  4.726093028469501e-01  4.050837178628640e+01  8.101702718889282e-01  -4.083463742171212e+01  8.101702718889282e-01  -4.083463742171212e+01  4.762571610578060e-01  41.4085596621347    
3.500000000000000e+00  5.254398095204981e-01  3.591519796674400e+01  7.810043343425263e-01  -4.654462915545827e+01  7.810043343425263e-01  -4.654462915545827e+01  5.292604692672782e-01  36.9322435924487    
4.000000000000000e+00  5.719248696399812e-01  3.139366532318924e+01  7.521007879358915e-01  -5.194352290815174e+01  7.521007879358915e-01  -5.194352290815174e+01  5.757691487398016e-01  32.5273671825811    
4.500000000000000e+00  6.125030459131217e-01  2.700034546056825e+01  7.240466743600886e-01  -5.704095280792592e+01  7.240466743600886e-01  -5.704095280792592e+01  6.162254299435034e-01  28.2497706373       
5.000000000000000e+00  6.476753108259190e-01  2.277452277551978e+01  6.974204426099334e-01  -6.185069003419743e+01  6.974204426099334e-01  -6.185069003419743e+01  6.511409614609409e-01  24.1381523943373    
5.500000000000000e+00  6.783575898633309e-01  1.870506403479087e+01  6.722377397816197e-01  -6.641766253123072e+01  6.722377397816197e-01  -6.641766253123072e+01  6.814369045311556e-01  20.1800844078067    
6.000000000000000e+00  7.049512288857951e-01  1.480567057520846e+01  6.488721202228579e-01  -7.075330249431849e+01  6.488721202228579e-01  -7.075330249431849e+01  7.075284944642019e-01  16.3891272040756    
6.500000000000000e+00  7.283025784759219e-01  1.104736389316217e+01  6.270813758967186e-01  -7.490612587396555e+01  6.270813758967186e-01  -7.490612587396555e+01  7.302672458248461e-01  12.7347451922228    
7.000000000000000e+00  7.484791044315721e-01  7.438229431206188e+00  6.071624838712336e-01  -7.886528409396014e+01  6.071624838712336e-01  -7.886528409396014e+01  7.497317189502507e-01  9.22601851691431    
7.500000000000001e+00  7.660937662128050e-01  3.955479622558401e+00  5.889095666948290e-01  -8.266786782819023e+01  5.889095666948290e-01  -8.266786782819023e+01  7.665418097844503e-01  5.83894565767049    
8.000000000000000e+00  7.814452466978169e-01  5.815150056959599e-01  5.721554175021685e-01  -8.632666601921940e+01  5.721554175021685e-01  -8.632666601921940e+01  7.809976174303699e-01  2.55568099642519    
8.500000000000000e+00  7.949247813155211e-01  -2.685862025899329e+00  5.569895732676036e-01  -8.986914423016073e+01  5.569895732676036e-01  -8.986914423016073e+01  7.935103892429958e-01  -0.626899146256291  
9.000000000000000e+00  8.069005297446287e-01  -5.862672068188431e+00  5.431872021271309e-01  -9.332122712439475e+01  5.431872021271309e-01  -9.332122712439475e+01  8.044580601626466e-01  -3.7256763233593    
9.500000000000000e+00  8.172637052248862e-01  -8.960186092969325e+00  5.307357257430358e-01  -9.666483224042162e+01  5.307357257430358e-01  -9.666483224042162e+01  8.137250056083978e-01  -6.75121326162326   
1.000000000000000e+01  8.263492781599808e-01  -1.198768383512086e+01  5.195036853298890e-01  -9.992709401268768e+01  5.195036853298890e-01  -9.992709401268768e+01  8.216607732683928e-01  -9.71386287684041   
1.050000000000000e+01  8.342721416357790e-01  -1.495466984763963e+01  5.093385145693669e-01  -1.031146217095342e+02  5.093385145693669e-01  -1.031146217095342e+02  8.283831981944141e-01  -12.6234575776438   
1.100000000000000e+01  8.420179150908833e-01  -1.789501292489871e+01  4.998095971448663e-01  -1.063199194378399e+02  4.998095971448663e-01  -1.063199194378399e+02  8.349140258776175e-01  -15.5190139497148   
1.150000000000000e+01  8.480694887573299e-01  -2.076151450275231e+01  4.917149655804603e-01  -1.093967946339602e+02  4.917149655804603e-01  -1.093967946339602e+02  8.397089057799989e-01  -18.3453760833706   
1.200000000000000e+01  8.533120811782897e-01  -2.358638188484197e+01  4.844547202578495e-01  -1.124278487662732e+02  4.844547202578495e-01  -1.124278487662732e+02  8.436760975075646e-01  -21.1393897931777   
1.250000000000000e+01  8.578078777816077e-01  -2.637864594789908e+01  4.780840117057105e-01  -1.154202690465071e+02  4.780840117057105e-01  -1.154202690465071e+02  8.468874010654350e-01  -23.9104753154809   
1.300000000000000e+01  8.616203788555773e-01  -2.914216650442688e+01  4.724843145657791e-01  -1.183798859702599e+02  4.724843145657791e-01  -1.183798859702599e+02  8.494169882379576e-01  -26.6631510398472   
1.350000000000000e+01  8.647594893257117e-01  -3.187726914940514e+01  4.675460285935485e-01  -1.213068802845601e+02  4.675460285935485e-01  -1.213068802845601e+02  8.512811712229595e-01  -29.3979393902582   
1.400000000000000e+01  8.673383470692091e-01  -3.459660532869304e+01  4.633172296343752e-01  -1.242163414309022e+02  4.633172296343752e-01  -1.242163414309022e+02  8.526137938257444e-01  -32.1288061846768   
1.450000000000000e+01  8.693509890738977e-01  -3.730024845037581e+01  4.597029551822971e-01  -1.271076975678209e+02  4.597029551822971e-01  -1.271076975678209e+02  8.534179227294549e-01  -34.8561251405339   
1.500000000000000e+01  8.708250236545342e-01  -3.998721734941708e+01  4.565698724334901e-01  -1.299845189734556e+02  4.565698724334901e-01  -1.299845189734556e+02  8.537330293854916e-01  -37.5793403421829   
1.550000000000000e+01  8.717699248667569e-01  -4.266933139604984e+01  4.540448911100521e-01  -1.328511108059573e+02  4.540448911100521e-01  -1.328511108059573e+02  8.535870694819249e-01  -40.3113249549064   
1.600000000000000e+01  8.745523298883141e-01  -4.535603577581349e+01  4.515561318315340e-01  -1.356482701271802e+02  4.515561318315340e-01  -1.356482701271802e+02  8.550568970071102e-01  -42.7157912317625   
1.650000000000000e+01  8.752274930304704e-01  -4.803370881989574e+01  4.498836213572434e-01  -1.384956380960714e+02  4.498836213572434e-01  -1.384956380960714e+02  8.543079426790856e-01  -45.3870962155652   
1.700000000000000e+01  8.755171750594939e-01  -5.070395241531907e+01  4.485188657406496e-01  -1.413377447007169e+02  4.485188657406496e-01  -1.413377447007169e+02  8.531774940274131e-01  -48.0580791040225   
1.750000000000000e+01  8.754606066918544e-01  -5.338323360985539e+01  4.476286753454546e-01  -1.441823516082497e+02  4.476286753454546e-01  -1.441823516082497e+02  8.517193491737607e-01  -50.7466196063643   