
!*************************************************************************
!! ASITIC Ver 10.20.99.0.0.0
!!  Data generated by the <2Port> command in <slow> mode.
!! Generated on Thu Apr 11 17:21:13 1974
!# Spiral Data:	Name = <Y_300_3>, Symmetric Square Inductor
!# L1 = 300.00, L2 = 30.00, Origin = <100.00,100.00>
!# Sides =   4, Metal =   4, Exit Metal =   3
!# W = 12.00, S =  4.00, N =  3.00
!# Theta =  0.00, Phase =   1
!# Technolog File Data <CMOS.tek> @ <.>
!# Auto-Cell Mode:  <alpha> = 0.050000, <beta> = 0.800000
!# Metal Layers
!# Name=M1        Met=0  Lyr=  1  Mz=48.70  T=0.50  RS=0.07  Col=YELLOW  
!# Name=M2        Met=1  Lyr=  1  Mz=47.60  T=0.50  RS=0.06  Col=LIGHTSKYBLUE1
!# Name=M3        Met=2  Lyr=  1  Mz=46.50  T=0.50  RS=0.06  Col=MEDIUM PURPLE
!# Name=M4        Met=3  Lyr=  1  Mz=45.50  T=0.50  RS=0.06  Col=LIGHT GREEN
!# Name=M5        Met=4  Lyr=  1  Mz=44.00  T=1.00  RS=0.03  Col=GREY    
!# Substrate Layers
!# Lyr=    0  Eps=  12  Rho=  10  DZ=7.5e+02  T=7e+02
!# Lyr=    1  Eps= 3.9  Rho=1e+14  DZ=  50  T=  50
!*************************************************************************
# GHZ S MA S11 mag    S11 phase  S12 mag    S12 phase  S21 mag    S21 phase  S22 mag    S22 phase  
1.000000000000000e+00  2.157121855546228e-01  5.218155305439221e+01  9.045968062170784e-01  -1.784235071570436e+01  9.045968062170784e-01  -1.784235071570436e+01  2.180111885005288e-01  52.8987992638158    
1.500000000000000e+00  3.019436423128287e-01  4.952909690278598e+01  8.817693607163287e-01  -2.650395677545290e+01  8.817693607163287e-01  -2.650395677545290e+01  3.053912229049831e-01  50.3917618330712    
2.000000000000000e+00  3.831643893547076e-01  4.494572831867611e+01  8.510511915074496e-01  -3.447741776183594e+01  8.510511915074496e-01  -3.447741776183594e+01  3.870110313014595e-01  46.0105376257157    
2.500000000000000e+00  4.546542776673711e-01  3.915506757426029e+01  8.207113323260151e-01  -4.208204061649942e+01  8.207113323260151e-01  -4.208204061649942e+01  4.591135865107847e-01  40.2969655832396    
3.000000000000000e+00  5.188856721556185e-01  3.371973017275642e+01  7.857723648880449e-01  -4.891958762240318e+01  7.857723648880449e-01  -4.891958762240318e+01  5.236930717206175e-01  35.1010247565444    
3.500000000000000e+00  5.687038573082185e-01  2.767335279716078e+01  7.554631974995404e-01  -5.595102416056226e+01  7.554631974995404e-01  -5.595102416056226e+01  5.734379818063163e-01  29.265011862423     
4.000000000000000e+00  6.343357797580635e-01  2.470894180938273e+01  7.077042257938704e-01  -5.976582743730295e+01  7.077042257938704e-01  -5.976582743730295e+01  6.387749769343136e-01  26.3437495557888    
4.500000000000000e+00  6.540990908080779e-01  1.673593100426769e+01  6.976611230149815e-01  -6.808719724194785e+01  6.976611230149815e-01  -6.808719724194785e+01  6.589267300175649e-01  18.6547165130173    
5.000000000000000e+00  6.845340318548097e-01  1.177761586279698e+01  6.697597618643885e-01  -7.384721519300530e+01  6.697597618643885e-01  -7.384721519300530e+01  6.870895349569407e-01  13.7685966901474    
5.500000000000000e+00  7.123704959002246e-01  6.939852133861830e+00  6.444028716466128e-01  -7.922249777763099e+01  6.444028716466128e-01  -7.922249777763099e+01  7.137125198533293e-01  9.2149725701454     
6.000000000000000e+00  7.403125758200885e-01  2.844859301672145e+00  6.190089071674002e-01  -8.364711826614969e+01  6.190089071674002e-01  -8.364711826614969e+01  7.408777992677482e-01  5.24565532916796    
6.500000000000000e+00  7.550430558374395e-01  -2.148975011446206e+00  6.019497241617492e-01  -8.928612050713866e+01  6.019497241617492e-01  -8.928612050713866e+01  7.527243932005343e-01  0.391138347842559   
7.000000000000000e+00  7.743907598163586e-01  -6.611905311188347e+00  5.861701337111734e-01  -9.383938842029583e+01  5.861701337111734e-01  -9.383938842029583e+01  7.717664915980413e-01  -3.92235492173137   
7.500000000000001e+00  7.883722672263392e-01  -1.074594773622157e+01  5.697122317946893e-01  -9.840109532315682e+01  5.697122317946893e-01  -9.840109532315682e+01  7.833682543287789e-01  -7.95869556557348   
8.000000000000000e+00  8.022970117646300e-01  -1.493049606405709e+01  5.571604166106002e-01  -1.027236834490125e+02  5.571604166106002e-01  -1.027236834490125e+02  7.962425204097245e-01  -12.0230422339532   
8.500000000000000e+00  8.090345285466189e-01  -1.894597507253275e+01  5.475511235851712e-01  -1.072102511099368e+02  5.475511235851712e-01  -1.072102511099368e+02  8.009710647519821e-01  -16.3407453411541   
9.000000000000000e+00  8.215239836531181e-01  -2.278730271785805e+01  5.342045350225054e-01  -1.112698703131438e+02  5.342045350225054e-01  -1.112698703131438e+02  8.107936023452680e-01  -19.7330711399045   
9.500000000000000e+00  8.295779658873939e-01  -2.663097840930671e+01  5.252647290568241e-01  -1.153812693089403e+02  5.252647290568241e-01  -1.153812693089403e+02  8.168285102213417e-01  -23.5299454062162   
1.000000000000000e+01  8.355349690906412e-01  -3.037122867068109e+01  5.171214891233065e-01  -1.194662361125463e+02  5.171214891233065e-01  -1.194662361125463e+02  8.201837863666182e-01  -27.2422124076093   
1.050000000000000e+01  8.415312185228428e-01  -3.411688382239841e+01  5.108699747494290e-01  -1.234000043217300e+02  5.108699747494290e-01  -1.234000043217300e+02  8.244607064963352e-01  -30.976284516531    
1.100000000000000e+01  8.477372603351582e-01  -3.624588304866825e+01  4.950526869836601e-01  -1.263246204414987e+02  4.950526869836601e-01  -1.263246204414987e+02  8.260611063101001e-01  -33.173580207008    
1.150000000000000e+01  8.495600738818346e-01  -4.142723261561788e+01  5.002195577305628e-01  -1.312837020746681e+02  5.002195577305628e-01  -1.312837020746681e+02  8.281940274316941e-01  -38.3482566148276   
1.200000000000000e+01  8.515176330894566e-01  -4.491514940578829e+01  4.965634702862008e-01  -1.350233913936279e+02  4.965634702862008e-01  -1.350233913936279e+02  8.286742911053839e-01  -41.9712437004291   
1.250000000000000e+01  8.538147427415570e-01  -4.861554287616233e+01  4.938585074360924e-01  -1.389196495334984e+02  4.938585074360924e-01  -1.389196495334984e+02  8.289248649368353e-01  -45.6784311634667   
1.300000000000000e+01  8.155947482371501e-01  -6.318550339090136e+01  5.275839838990086e-01  -1.540527470719432e+02  5.275839838990086e-01  -1.540527470719432e+02  7.863733953022181e-01  -60.6948117911292   
1.350000000000000e+01  8.613863029431309e-01  -5.585659031079910e+01  4.901393821189216e-01  -1.462919330603193e+02  4.901393821189216e-01  -1.462919330603193e+02  8.320317005664972e-01  -52.4254943405956   
1.400000000000000e+01  8.609352505175824e-01  -5.932195717360383e+01  4.886739743784070e-01  -1.500912970465133e+02  4.886739743784070e-01  -1.500912970465133e+02  8.286866401132085e-01  -55.9486724633631   
1.450000000000000e+01  8.215116902074604e-01  -7.373184902138888e+01  5.088900601522945e-01  -1.656570016685074e+02  5.088900601522945e-01  -1.656570016685074e+02  7.769575699286224e-01  -70.8840835139661   
1.500000000000000e+01  8.442183594678904e-01  -6.599326242344426e+01  4.864765913909688e-01  -1.578493711823696e+02  4.864765913909688e-01  -1.578493711823696e+02  8.153483195469513e-01  -63.9919903354542   
1.550000000000000e+01  8.311579698982812e-01  -6.854880123395044e+01  4.792403447980187e-01  -1.625186079505463e+02  4.792403447980187e-01  -1.625186079505463e+02  7.902375591371044e-01  -67.1470280371308   
1.600000000000000e+01  8.387534017609166e-01  -7.301713161099806e+01  4.876278914351336e-01  -1.652689285197447e+02  4.876278914351336e-01  -1.652689285197447e+02  8.086933263354853e-01  -71.3155078879979   