
!*************************************************************************
!! ASITIC Ver 10.20.99.0.0.0
!!  Data generated by the <2Port> command in <slow> mode.
!! Generated on Thu Apr 11 17:21:13 1974
!# Spiral Data:	Name = <Y_200_2>, Symmetric Square Inductor
!# L1 = 200.00, L2 = 20.00, Origin = <100.00,100.00>
!# Sides =   4, Metal =   4, Exit Metal =   3
!# W = 10.00, S =  3.00, N =  2.00
!# Theta =  0.00, Phase =   1
!# Technolog File Data <CMOS.tek> @ <.>
!# Auto-Cell Mode:  <alpha> = 0.050000, <beta> = 0.800000
!# Metal Layers
!# Name=M1        Met=0  Lyr=  1  Mz=48.70  T=0.50  RS=0.07  Col=YELLOW  
!# Name=M2        Met=1  Lyr=  1  Mz=47.60  T=0.50  RS=0.06  Col=LIGHTSKYBLUE1
!# Name=M3        Met=2  Lyr=  1  Mz=46.50  T=0.50  RS=0.06  Col=MEDIUM PURPLE
!# Name=M4        Met=3  Lyr=  1  Mz=45.50  T=0.50  RS=0.06  Col=LIGHT GREEN
!# Name=M5        Met=4  Lyr=  1  Mz=44.00  T=1.00  RS=0.03  Col=GREY    
!# Substrate Layers
!# Lyr=    0  Eps=  12  Rho=  10  DZ=7.5e+02  T=7e+02
!# Lyr=    1  Eps= 3.9  Rho=1e+14  DZ=  50  T=  50
!*************************************************************************
# GHZ S MA S11 mag    S11 phase  S12 mag    S12 phase  S21 mag    S21 phase  S22 mag    S22 phase  
1.000000000000000e+00  7.962897920151761e-02  5.033697099196844e+01  9.543301225088763e-01  -6.460959375686729e+00  9.543301225088763e-01  -6.460959375686729e+00  8.071685932254348e-02  51.3498284050585    
1.500000000000000e+00  1.087343745622079e-01  5.642942019603965e+01  9.510229554834836e-01  -9.671966453016436e+00  9.510229554834836e-01  -9.671966453016436e+00  1.107081024828776e-01  57.4667169324375    
2.000000000000000e+00  1.387627537522758e-01  5.844656233419941e+01  9.466342363943869e-01  -1.284448582344288e+01  9.466342363943869e-01  -1.284448582344288e+01  1.415679119476433e-01  59.51580226405      
2.500000000000000e+00  1.689749920772839e-01  5.857379090072649e+01  9.412203610302148e-01  -1.599155230432216e+01  9.412203610302148e-01  -1.599155230432216e+01  1.725536757493676e-01  59.6982018999117    
3.000000000000000e+00  1.987043544968049e-01  5.768962310991564e+01  9.349099825951431e-01  -1.909638666942907e+01  9.349099825951431e-01  -1.909638666942907e+01  2.029994410307108e-01  58.8902891353619    
3.500000000000000e+00  2.276746770366709e-01  5.625849109018376e+01  9.279307880240232e-01  -2.215552763832340e+01  9.279307880240232e-01  -2.215552763832340e+01  2.326342607343891e-01  57.5490255316556    
4.000000000000000e+00  2.561619770211427e-01  5.449023274990651e+01  9.202628275371496e-01  -2.519082253975428e+01  9.202628275371496e-01  -2.519082253975428e+01  2.617295924490400e-01  55.877284224181     
4.500000000000000e+00  2.836808189949429e-01  5.249947520602603e+01  9.120278172786082e-01  -2.817613686745237e+01  9.120278172786082e-01  -2.817613686745237e+01  2.897968143838460e-01  53.990117190611     
5.000000000000000e+00  3.101239968314341e-01  5.037509377250441e+01  9.033620422371704e-01  -3.110760004578137e+01  9.033620422371704e-01  -3.110760004578137e+01  3.167282778967820e-01  51.9748273410678    
5.500000000000000e+00  3.358330540231146e-01  4.815253405299305e+01  8.942016624361190e-01  -3.400668373252045e+01  8.942016624361190e-01  -3.400668373252045e+01  3.428587584616100e-01  49.8634299678068    
6.000000000000000e+00  3.603541457198972e-01  4.588577927132722e+01  8.848037305645415e-01  -3.684714413513567e+01  8.848037305645415e-01  -3.684714413513567e+01  3.677387671217417e-01  47.7106851376683    
6.500000000000000e+00  3.840400706394626e-01  4.358077709271677e+01  8.750812990301424e-01  -3.965032500223805e+01  8.750812990301424e-01  -3.965032500223805e+01  3.917143932469537e-01  45.5202208948415    
7.000000000000000e+00  4.065831340302004e-01  4.126812294885967e+01  8.652379738347583e-01  -4.239766975447458e+01  8.652379738347583e-01  -4.239766975447458e+01  4.144808304685159e-01  43.3235901563706    
7.500000000000001e+00  4.281376696841800e-01  3.895290364026145e+01  8.552714400513856e-01  -4.509822101046070e+01  8.552714400513856e-01  -4.509822101046070e+01  4.361896736309062e-01  41.1247202079092    
8.000000000000000e+00  4.488661820961579e-01  3.663618574158623e+01  8.451587144457648e-01  -4.776165906359968e+01  8.451587144457648e-01  -4.776165906359968e+01  4.570006877538800e-01  38.9235744113844    
8.500000000000000e+00  4.684877086719121e-01  3.433923776060625e+01  8.351087539454278e-01  -5.037006601179252e+01  8.351087539454278e-01  -5.037006601179252e+01  4.766372807332225e-01  36.7426065055245    
9.000000000000000e+00  4.872494304648441e-01  3.205727012752958e+01  8.250611387720651e-01  -5.293805131374003e+01  8.250611387720651e-01  -5.293805131374003e+01  4.953440694393483e-01  34.5753712490394    
9.500000000000000e+00  5.050224238276934e-01  2.979797421443085e+01  8.151242621657869e-01  -5.545704685412750e+01  8.151242621657869e-01  -5.545704685412750e+01  5.129939210519920e-01  32.4306750747395    
1.000000000000000e+01  5.219112633322353e-01  2.756170839974195e+01  8.053064090380775e-01  -5.793278767287744e+01  8.053064090380775e-01  -5.793278767287744e+01  5.296915029871008e-01  30.3080268209186    
1.050000000000000e+01  5.380022123065058e-01  2.533034436460277e+01  7.954472104603292e-01  -6.036885280318035e+01  7.954472104603292e-01  -6.036885280318035e+01  5.455062851043823e-01  28.1893292913002    
1.100000000000000e+01  5.546523083516551e-01  2.313564237218487e+01  7.857478211933004e-01  -6.286209664766101e+01  7.857478211933004e-01  -6.286209664766101e+01  5.618337219061891e-01  26.0980171126196    
1.150000000000000e+01  5.691017641304840e-01  2.097366104317657e+01  7.764473752638272e-01  -6.521818605045895e+01  7.764473752638272e-01  -6.521818605045895e+01  5.758928734607027e-01  24.0453808943209    
1.200000000000000e+01  5.828047074356960e-01  1.884343356761153e+01  7.674130144012142e-01  -6.753669734230964e+01  7.674130144012142e-01  -6.753669734230964e+01  5.891520571199026e-01  22.0220697947415    
1.250000000000000e+01  5.957715765039669e-01  1.673474922562101e+01  7.585980988061414e-01  -6.981810550772522e+01  7.585980988061414e-01  -6.981810550772522e+01  6.016044386635211e-01  20.0192586056334    
1.300000000000000e+01  6.080452980955705e-01  1.465219935775963e+01  7.500507457541258e-01  -7.206437807307974e+01  7.500507457541258e-01  -7.206437807307974e+01  6.133034305306919e-01  18.0406555229151    
1.350000000000000e+01  6.196401988292246e-01  1.259465049526903e+01  7.417571280608996e-01  -7.427494100247235e+01  7.417571280608996e-01  -7.427494100247235e+01  6.242635971911313e-01  16.085041332891     
1.400000000000000e+01  6.306229234616897e-01  1.056276348640141e+01  7.337795465816968e-01  -7.645549609339518e+01  7.337795465816968e-01  -7.645549609339518e+01  6.345561087349338e-01  14.1528450279767    
1.450000000000000e+01  6.410059936768929e-01  8.555027114514786e+00  7.261010177441821e-01  -7.860557002974613e+01  7.261010177441821e-01  -7.860557002974613e+01  6.441938559252637e-01  12.2424670842832    
1.500000000000000e+01  6.507252647887821e-01  6.568169189482385e+00  7.186784556471366e-01  -8.071840384190034e+01  7.186784556471366e-01  -8.071840384190034e+01  6.531047984307974e-01  10.3510331519004    
1.550000000000000e+01  6.599915469197539e-01  4.606288804870057e+00  7.116130633248117e-01  -8.281176246448238e+01  7.116130633248117e-01  -8.281176246448238e+01  6.615203177261066e-01  8.48146131680764    
1.600000000000000e+01  6.687406306082008e-01  2.665796746852759e+00  7.048600511349739e-01  -8.487918577513241e+01  7.048600511349739e-01  -8.487918577513241e+01  6.693690525839816e-01  6.6305435710329     
1.650000000000000e+01  6.769971234524989e-01  7.456913422425709e-01  6.984209813938499e-01  -8.692213448681778e+01  6.984209813938499e-01  -8.692213448681778e+01  6.766775434507546e-01  4.79714248208894    
1.700000000000000e+01  6.847746803385593e-01  -1.147144941663744e+00  6.923492585412283e-01  -8.894053808160997e+01  6.923492585412283e-01  -8.894053808160997e+01  6.834768385389632e-01  2.98826044066154    
1.750000000000000e+01  6.921173552606741e-01  -3.029268217683535e+00  6.865381334245910e-01  -9.093895251132579e+01  6.865381334245910e-01  -9.093895251132579e+01  6.897833103864777e-01  1.18670738590659    