
!*************************************************************************
!! ASITIC Ver 10.20.99.0.0.0
!!  Data generated by the <2Port> command in <slow> mode.
!! Generated on Thu Apr 11 17:21:13 1974
!# Spiral Data:	Name = <Y_200_3>, Symmetric Square Inductor
!# L1 = 200.00, L2 = 20.00, Origin = <100.00,100.00>
!# Sides =   4, Metal =   2, Exit Metal =   1
!# W = 10.00, S =  3.00, N =  3.00
!# Theta =  0.00, Phase =   1
!# Technolog File Data <BiCMOS.tek> @ <.>
!# Auto-Cell Mode:  <alpha> = 0.050000, <beta> = 0.800000
!# Metal Layers
!# Name=MSUB      Met=0  Lyr=  1  Mz=50.00  T=0.40  RS=0.04  Col=BLUE    
!# Name=M2        Met=1  Lyr=  2  Mz=47.00  T=0.80  RS=0.05  Col=GREEN   
!# Name=M3        Met=2  Lyr=  2  Mz=45.00  T=2.00  RS=0.02  Col=RED     
!# Substrate Layers
!# Lyr=    0  Eps=  12  Rho=1e+05  DZ=8.5e+02  T=8e+02
!# Lyr=    1  Eps=  12  Rho=1e+03  DZ=  52  T=   2
!# Lyr=    2  Eps=   4  Rho=1e+14  DZ=  50  T=  50
!*************************************************************************
# GHZ S MA S11 mag    S11 phase  S12 mag    S12 phase  S21 mag    S21 phase  S22 mag    S22 phase  
1.000000000000000e+00  1.261542915394062e-01  6.466495770288275e+01  9.357561698615997e-01  -1.041911350225625e+01  9.357561698615997e-01  -1.041911350225625e+01  1.278480586467073e-01  64.8939220240772    
1.500000000000000e+00  1.872472885391415e-01  6.747752660277611e+01  9.149899418520232e-01  -1.520556134701965e+01  9.149899418520232e-01  -1.520556134701965e+01  1.896980940182823e-01  67.5647281034923    
2.000000000000000e+00  2.497449121494574e-01  6.653428316359428e+01  8.911203457771647e-01  -1.972904002186935e+01  8.911203457771647e-01  -1.972904002186935e+01  2.527722628741912e-01  66.5735965041653    
2.500000000000000e+00  3.105095680153711e-01  6.408169266811124e+01  8.651006781064983e-01  -2.403069757009184e+01  8.651006781064983e-01  -2.403069757009184e+01  3.140181029545483e-01  64.1161541967552    
3.000000000000000e+00  3.686198418450377e-01  6.098352800458535e+01  8.371774566106746e-01  -2.818143571075058e+01  8.371774566106746e-01  -2.818143571075058e+01  3.725505275977459e-01  61.0316515096555    
3.500000000000000e+00  4.230119848930849e-01  5.766678613948519e+01  8.078826409805966e-01  -3.217429423492073e+01  8.078826409805966e-01  -3.217429423492073e+01  4.273219516488133e-01  57.7361236936309    
4.000000000000000e+00  4.787594278973590e-01  5.406965113183459e+01  7.755552756069922e-01  -3.641056549632119e+01  7.755552756069922e-01  -3.641056549632119e+01  4.834221997819436e-01  54.1654227746859    
4.500000000000000e+00  5.259075616116461e-01  5.068016494260867e+01  7.435803331287371e-01  -4.018386384923108e+01  7.435803331287371e-01  -4.018386384923108e+01  5.308764397819673e-01  50.8015240411846    
5.000000000000000e+00  5.692885685463038e-01  4.735550251923522e+01  7.108171508634440e-01  -4.383639736269830e+01  7.108171508634440e-01  -4.383639736269830e+01  5.745270841575876e-01  47.5026222748025    
5.500000000000000e+00  6.088555669165037e-01  4.412564359054713e+01  6.775957099669233e-01  -4.735826583981829e+01  6.775957099669233e-01  -4.735826583981829e+01  6.143296832525352e-01  44.2984335662484    
6.000000000000000e+00  6.448506908708292e-01  4.099221020363801e+01  6.440620854539167e-01  -5.075889091943706e+01  6.440620854539167e-01  -5.075889091943706e+01  6.505257946389021e-01  41.1903079659656    
6.500000000000000e+00  6.775040075876229e-01  3.797401421451217e+01  6.105888983845893e-01  -5.404594159927706e+01  6.105888983845893e-01  -5.404594159927706e+01  6.833479900101307e-01  38.1969146948931    
7.000000000000000e+00  7.070270162490647e-01  3.506458908633673e+01  5.772876200186724e-01  -5.722541694262056e+01  5.772876200186724e-01  -5.722541694262056e+01  7.130085501188901e-01  35.3117667474958    
7.500000000000001e+00  7.335525812965070e-01  3.225990001615667e+01  5.442806763100064e-01  -6.029516337115005e+01  5.442806763100064e-01  -6.029516337115005e+01  7.396415625412176e-01  32.5308544424194    
8.000000000000000e+00  7.574840454076612e-01  2.956111609217436e+01  5.117544890276949e-01  -6.328192027605188e+01  5.117544890276949e-01  -6.328192027605188e+01  7.636527178999392e-01  29.8552588166875    
8.500000000000000e+00  7.789509770225914e-01  2.696097159662667e+01  4.797649954861404e-01  -6.618631050972114e+01  4.797649954861404e-01  -6.618631050972114e+01  7.851728938258995e-01  27.2777533167155    
9.000000000000000e+00  7.981566636012690e-01  2.444938965170230e+01  4.483108491882984e-01  -6.901826183054754e+01  4.483108491882984e-01  -6.901826183054754e+01  8.044060492126804e-01  24.7882612271878    
9.500000000000000e+00  8.152931883535018e-01  2.203103103274170e+01  4.175760293557349e-01  -7.178812013075400e+01  4.175760293557349e-01  -7.178812013075400e+01  8.215477926387401e-01  22.3914428735276    
1.000000000000000e+01  8.305416205118785e-01  1.969552172380535e+01  3.875244222600949e-01  -7.450826234057139e+01  3.875244222600949e-01  -7.450826234057139e+01  8.367797964953588e-01  20.0769173420752    
1.050000000000000e+01  8.446508056597325e-01  1.737291975096979e+01  3.572703991066289e-01  -7.729768377914773e+01  3.572703991066289e-01  -7.729768377914773e+01  8.508473161572446e-01  17.7746921263528    
1.100000000000000e+01  8.565579583268967e-01  1.518695829712176e+01  3.286109901885266e-01  -7.996368398052721e+01  3.286109901885266e-01  -7.996368398052721e+01  8.626982658558182e-01  15.6085423580772    
1.150000000000000e+01  8.670284787754521e-01  1.306841410812643e+01  3.006610590805103e-01  -8.262747176243768e+01  3.006610590805103e-01  -8.262747176243768e+01  8.730950404569955e-01  13.5092231132601    
1.200000000000000e+01  8.761927694927987e-01  1.101399402098258e+01  2.734361636831010e-01  -8.531188606164949e+01  2.734361636831010e-01  -8.531188606164949e+01  8.821693578693535e-01  11.4734069955438    
1.250000000000000e+01  8.841517761453583e-01  9.016106634735264e+00  2.468808015013227e-01  -8.804583538139985e+01  2.468808015013227e-01  -8.804583538139985e+01  8.900230822702990e-01  9.49353275266852    
1.300000000000000e+01  8.910098289903532e-01  7.071998813509748e+00  2.210066018070281e-01  -9.086772271601480e+01  2.210066018070281e-01  -9.086772271601480e+01  8.967616533025160e-01  7.56680359941079    
1.350000000000000e+01  8.968568207733433e-01  5.177640899462128e+00  1.958042495170488e-01  -9.383145016751966e+01  1.958042495170488e-01  -9.383145016751966e+01  9.024759290329848e-01  5.68916993105571    