
!*************************************************************************
!! ASITIC Ver 10.20.99.0.0.0
!!  Data generated by the <2Port> command in <slow> mode.
!! Generated on Thu Apr 11 17:21:13 1974
!# Spiral Data:	Name = <Y_300_3>, Symmetric Square Inductor
!# L1 = 300.00, L2 = 30.00, Origin = <100.00,100.00>
!# Sides =   4, Metal =   2, Exit Metal =   1
!# W = 12.00, S =  4.00, N =  3.00
!# Theta =  0.00, Phase =   1
!# Technolog File Data <BiCMOS.tek> @ <.>
!# Auto-Cell Mode:  <alpha> = 0.050000, <beta> = 0.800000
!# Metal Layers
!# Name=MSUB      Met=0  Lyr=  1  Mz=50.00  T=0.40  RS=0.04  Col=BLUE    
!# Name=M2        Met=1  Lyr=  2  Mz=47.00  T=0.80  RS=0.05  Col=GREEN   
!# Name=M3        Met=2  Lyr=  2  Mz=45.00  T=2.00  RS=0.02  Col=RED     
!# Substrate Layers
!# Lyr=    0  Eps=  12  Rho=1e+05  DZ=8.5e+02  T=8e+02
!# Lyr=    1  Eps=  12  Rho=1e+03  DZ=  52  T=   2
!# Lyr=    2  Eps=   4  Rho=1e+14  DZ=  50  T=  50
!*************************************************************************
# GHZ S MA S11 mag    S11 phase  S12 mag    S12 phase  S21 mag    S21 phase  S22 mag    S22 phase  
1.000000000000000e+00  2.135654843465342e-01  6.560085752578149e+01  8.969705012266986e-01  -1.746707489389705e+01  8.969705012266986e-01  -1.746707489389705e+01  2.173150551370267e-01  65.3964052418284    
1.500000000000000e+00  3.188311711826701e-01  6.292619844463789e+01  8.512833933387600e-01  -2.507175833118263e+01  8.512833933387600e-01  -2.507175833118263e+01  3.235598418009682e-01  62.7794527703784    
2.000000000000000e+00  4.134365673402745e-01  5.849612946313732e+01  7.943418062328395e-01  -3.231691634436595e+01  7.943418062328395e-01  -3.231691634436595e+01  4.173823415741427e-01  58.5076065928319    
2.500000000000000e+00  5.001221384682922e-01  5.249258464347619e+01  7.441905761218879e-01  -3.881353097814111e+01  7.441905761218879e-01  -3.881353097814111e+01  5.064095934788011e-01  52.3890229175488    
3.000000000000000e+00  5.430451178350363e-01  5.004267493744806e+01  6.462589516980837e-01  -4.774879373418433e+01  6.462589516980837e-01  -4.774879373418433e+01  5.287034403202889e-01  51.5152982962936    
3.500000000000000e+00  6.366566441037750e-01  4.186361678768893e+01  6.301466026445537e-01  -5.074837321426391e+01  6.301466026445537e-01  -5.074837321426391e+01  6.434601368626027e-01  41.7080856490072    
4.000000000000000e+00  6.955900683153727e-01  3.641330815552404e+01  5.761826799377376e-01  -5.632863540667488e+01  5.761826799377376e-01  -5.632863540667488e+01  7.060951572403310e-01  36.0831006185215    
4.500000000000000e+00  7.299747119677207e-01  3.172225608585764e+01  5.193663547658787e-01  -6.245437818804283e+01  5.193663547658787e-01  -6.245437818804283e+01  7.377928982444949e-01  31.5296938088134    
5.000000000000000e+00  7.867739134648181e-01  2.752337221471393e+01  4.719888034824836e-01  -6.475014569175299e+01  4.719888034824836e-01  -6.475014569175299e+01  8.073461171222320e-01  27.0662554676684    
5.500000000000000e+00  7.649319783955724e-01  2.492034247914805e+01  3.968667717820672e-01  -7.592649716605901e+01  3.968667717820672e-01  -7.592649716605901e+01  7.511377754457855e-01  25.0611049089729    
6.000000000000000e+00  8.354680131620553e-01  2.006062805876068e+01  3.687590936431766e-01  -7.447867309474849e+01  3.687590936431766e-01  -7.447867309474849e+01  8.479044343181229e-01  19.7439401937527    
6.500000000000000e+00  8.668435584286914e-01  1.684380958221467e+01  3.221257939758849e-01  -7.606435152710236e+01  3.221257939758849e-01  -7.606435152710236e+01  8.939178244369521e-01  16.3728831778399    
7.000000000000000e+00  8.755260761043837e-01  1.345394156289382e+01  2.778749964148817e-01  -8.091371104896244e+01  2.778749964148817e-01  -8.091371104896244e+01  9.015745442309283e-01  12.9373571160036    
7.500000000000001e+00  8.893965357964213e-01  1.049407327532879e+01  2.348703223461814e-01  -8.481965197814380e+01  2.348703223461814e-01  -8.481965197814380e+01  9.136359769706257e-01  9.96853118315867    
8.000000000000000e+00  8.852133648711364e-01  7.640620830209190e+00  1.918525800341434e-01  -9.248895480941104e+01  1.918525800341434e-01  -9.248895480941104e+01  9.002288063660502e-01  7.36802324358987    
8.500000000000000e+00  7.944832178662894e-01  7.002506033611600e+01  2.319182098768233e-02  -1.303407816945127e+02  2.319182098768233e-02  -1.303407816945127e+02  9.969079934428121e-01  -177.483111613732   
9.000000000000000e+00  8.891228624008614e-01  2.823181898546604e+00  1.236992850797305e-01  -1.056308177856208e+02  1.236992850797305e-01  -1.056308177856208e+02  9.001104098098230e-01  1.32852912605936    
9.500000000000000e+00  1.660950356714463e+00  1.265065396057705e+02  5.070464523551207e-01  -1.263309175564672e+02  5.070464523551207e-01  -1.263309175564672e+02  2.868819026198286e+00  -100.736936045811   
1.000000000000000e+01  9.062281203539352e-01  -3.807719573921953e+00  6.001256015879294e-02  -1.303017565792455e+02  6.001256015879294e-02  -1.303017565792455e+02  9.109088638556369e-01  -3.57823304449075   
1.050000000000000e+01  9.348843262531867e-01  -4.139998811436043e+00  2.706001899478400e-02  -8.826050958198341e+01  2.706001899478400e-02  -8.826050958198341e+01  9.946372878837233e-01  -7.57653124879305   
1.100000000000000e+01  2.123619576442298e+00  6.054831046643869e+00  9.618510172545771e-01  2.607268426306681e+01  9.618510172545771e-01  2.607268426306681e+01  3.141577834327759e+00  20.4063154691413    
1.150000000000000e+01  9.051933006114203e-01  -9.450416274880963e+00  5.648011079495616e-02  1.057917438081287e+02  5.648011079495616e-02  1.057917438081287e+02  9.315815857005574e-01  -10.1900552462235   
1.200000000000000e+01  9.901988873942923e-01  -1.919808027848610e+01  8.413074636205513e-02  5.342825034729991e+01  8.413074636205513e-02  5.342825034729991e+01  1.044586785041166e+00  -12.9376081322646   