
!*************************************************************************
!! ASITIC Ver 10.20.99.0.0.0
!!  Data generated by the <2Port> command in <slow> mode.
!! Generated on Thu Apr 11 17:21:13 1974
!# Spiral Data:	Name = <TP_250>, Transformer
!# L1 = 250.00, L2 = 250.00, Origin = <113.00,123.00>
!# Sides =   4, Metal =   4, Exit Metal =   3
!# W = 10.00, S = 16.00, N =  3.00
!# Theta =  0.00, Phase =   1
!# Technolog File Data <CMOS.tek> @ <.>
!# Auto-Cell Mode:  <alpha> = 0.050000, <beta> = 0.800000
!# Metal Layers
!# Name=M1        Met=0  Lyr=  1  Mz=48.70  T=0.50  RS=0.07  Col=YELLOW  
!# Name=M2        Met=1  Lyr=  1  Mz=47.60  T=0.50  RS=0.06  Col=LIGHTSKYBLUE1
!# Name=M3        Met=2  Lyr=  1  Mz=46.50  T=0.50  RS=0.06  Col=MEDIUM PURPLE
!# Name=M4        Met=3  Lyr=  1  Mz=45.50  T=0.50  RS=0.06  Col=LIGHT GREEN
!# Name=M5        Met=4  Lyr=  1  Mz=44.00  T=1.00  RS=0.03  Col=GREY    
!# Substrate Layers
!# Lyr=    0  Eps=  12  Rho=  10  DZ=7.5e+02  T=7e+02
!# Lyr=    1  Eps= 3.9  Rho=1e+14  DZ=  50  T=  50
!*************************************************************************
# GHZ S MA S11 mag    S11 phase  S12 mag    S12 phase  S21 mag    S21 phase  S22 mag    S22 phase  
1.000000000000000e+00  1.354643802696686e-01  4.823352206532180e+01  9.237913703453318e-01  -1.158446906801116e+01  9.237913703453318e-01  -1.158446906801116e+01  1.395500717564150e-01  49.5605135262714    
1.500000000000000e+00  1.861959538947036e-01  5.144356949594469e+01  9.153423821653338e-01  -1.727046747766870e+01  9.153423821653338e-01  -1.727046747766870e+01  1.921629220754481e-01  52.9183930452006    
2.000000000000000e+00  2.367841656104830e-01  5.077257782271762e+01  9.042857792599684e-01  -2.283205031178619e+01  9.042857792599684e-01  -2.283205031178619e+01  2.444323316879475e-01  52.4713129652572    
2.500000000000000e+00  2.854022974668971e-01  4.840100125242819e+01  8.910677999665744e-01  -2.825320646999422e+01  8.910677999665744e-01  -2.825320646999422e+01  2.945248805610304e-01  50.3688539142545    
3.000000000000000e+00  3.310827857089896e-01  4.522856420363234e+01  8.763431588887183e-01  -3.351116251724612e+01  8.763431588887183e-01  -3.351116251724612e+01  3.414314486584443e-01  47.4854516742389    
3.500000000000000e+00  3.734053206410897e-01  4.167697698971761e+01  8.607305252123544e-01  -3.859454903137173e+01  8.607305252123544e-01  -3.859454903137173e+01  3.846998980609303e-01  44.2295446617224    
4.000000000000000e+00  4.123281816772099e-01  3.793475388255691e+01  8.445696059723679e-01  -4.350730786432060e+01  8.445696059723679e-01  -4.350730786432060e+01  4.242942675848396e-01  40.7936521208387    
4.500000000000000e+00  4.478149372015129e-01  3.413080879411169e+01  8.283615025849335e-01  -4.824729717003858e+01  8.283615025849335e-01  -4.824729717003858e+01  4.601616090064250e-01  37.2992784984346    
5.000000000000000e+00  4.799468410829829e-01  3.033859184022763e+01  8.125165529272635e-01  -5.281665777681771e+01  8.125165529272635e-01  -5.281665777681771e+01  4.923776173477172e-01  33.8143313254953    
5.500000000000000e+00  5.089606017708522e-01  2.657967136430719e+01  7.971813661279782e-01  -5.722871559579463e+01  7.971813661279782e-01  -5.722871559579463e+01  5.211917341332252e-01  30.3665129874109    
6.000000000000000e+00  5.350152975293430e-01  2.288935383098020e+01  7.826897572014315e-01  -6.148833855458265e+01  7.826897572014315e-01  -6.148833855458265e+01  5.467619014324373e-01  26.9828540775424    
6.500000000000000e+00  5.583700851210297e-01  1.926461267423266e+01  7.690847294104280e-01  -6.561062984889725e+01  7.690847294104280e-01  -6.561062984889725e+01  5.693574679018281e-01  23.6665899334929    
7.000000000000000e+00  5.792075952084780e-01  1.572168194168507e+01  7.565895471744443e-01  -6.960251039794723e+01  7.565895471744443e-01  -6.960251039794723e+01  5.891693668795644e-01  20.4263989560229    
7.500000000000001e+00  5.977569555875611e-01  1.225394576723317e+01  7.452249025691750e-01  -7.347762934463604e+01  7.452249025691750e-01  -7.347762934463604e+01  6.064357903837486e-01  17.2584044223509    
8.000000000000000e+00  6.142196627701378e-01  8.853113607115306e+00  7.349904066601397e-01  -7.724918205657563e+01  7.349904066601397e-01  -7.724918205657563e+01  6.213600010180290e-01  14.1572810182196    
8.500000000000000e+00  6.287547395434046e-01  5.525114946354434e+00  7.260059358258072e-01  -8.092440847416178e+01  7.260059358258072e-01  -8.092440847416178e+01  6.341201415008293e-01  11.1215896870391    
9.000000000000000e+00  6.415121145987494e-01  2.256804676423120e+00  7.182154673309682e-01  -8.451558266697658e+01  7.182154673309682e-01  -8.451558266697658e+01  6.448612657609406e-01  8.14438999423583    
9.500000000000000e+00  6.526671478856673e-01  -9.536490467575139e-01  7.116453705066063e-01  -8.803361917855671e+01  7.116453705066063e-01  -8.803361917855671e+01  6.537802088567409e-01  5.21672933459686    
1.000000000000000e+01  6.623224902320994e-01  -4.114886362152808e+00  7.062653912054392e-01  -9.148790732670322e+01  7.062653912054392e-01  -9.148790732670322e+01  6.609805318873901e-01  2.33268349186502    
1.050000000000000e+01  6.705733186807534e-01  -7.236954097719734e+00  7.020306952900479e-01  -9.488915689913175e+01  7.020306952900479e-01  -9.488915689913175e+01  6.665500366888945e-01  -0.515149318604331  
1.100000000000000e+01  6.779065836386627e-01  -1.033018852503898e+01  6.990315668367136e-01  -9.827823476006768e+01  6.990315668367136e-01  -9.827823476006768e+01  6.710103513826414e-01  -3.34721639786668   
1.150000000000000e+01  6.836012950799321e-01  -1.338414266684964e+01  6.971065677223464e-01  -1.015950827499436e+02  6.971065677223464e-01  -1.015950827499436e+02  6.736294918769514e-01  -6.14415997266731   
1.200000000000000e+01  6.880468035558958e-01  -1.641274476449274e+01  6.962752621198589e-01  -1.048775639570170e+02  6.962752621198589e-01  -1.048775639570170e+02  6.747925750231776e-01  -8.92023178389918   
1.250000000000000e+01  6.913976627080909e-01  -1.942455239221774e+01  6.965017996974054e-01  -1.081418023300623e+02  6.965017996974054e-01  -1.081418023300623e+02  6.746866626221775e-01  -11.6914960492352   
1.300000000000000e+01  6.936240513777178e-01  -2.242381704047613e+01  6.977574670166206e-01  -1.113903196097995e+02  6.977574670166206e-01  -1.113903196097995e+02  6.732767677608072e-01  -14.4595805966958   
1.350000000000000e+01  6.946898108312791e-01  -2.541396866220142e+01  7.000079922635855e-01  -1.146257810176206e+02  7.000079922635855e-01  -1.146257810176206e+02  6.705169192565715e-01  -17.2255107753997   
1.400000000000000e+01  6.947037680059899e-01  -2.840336721084658e+01  7.032202991775155e-01  -1.178620039583501e+02  7.032202991775155e-01  -1.178620039583501e+02  6.665571673409078e-01  -20.0049217512163   
1.450000000000000e+01  6.936091466471983e-01  -3.139503954581148e+01  7.073587571294044e-01  -1.211009300870609e+02  7.073587571294044e-01  -1.211009300870609e+02  6.613338678283275e-01  -22.7986707477457   
1.500000000000000e+01  6.832949971945993e-01  -3.450449842038518e+01  7.202524960984379e-01  -1.244450989615071e+02  7.202524960984379e-01  -1.244450989615071e+02  6.461424216398832e-01  -25.2408878286451   
1.550000000000000e+01  6.800986887093095e-01  -3.754931265631546e+01  7.263582961078945e-01  -1.277300601428870e+02  7.263582961078945e-01  -1.277300601428870e+02  6.379862044350967e-01  -27.996294430818    
1.600000000000000e+01  6.570977412082781e-01  -4.043211984095712e+01  7.444261660938258e-01  -1.309869132616867e+02  7.444261660938258e-01  -1.309869132616867e+02  6.140045881162388e-01  -31.1820973725002   
1.650000000000000e+01  6.504357809761427e-01  -4.353097696127253e+01  7.524996825285568e-01  -1.343381020222185e+02  7.524996825285568e-01  -1.343381020222185e+02  6.021665107506526e-01  -33.9653114912413   
1.700000000000000e+01  6.426891344063838e-01  -4.665367862158561e+01  7.611740400923304e-01  -1.377144624041191e+02  7.611740400923304e-01  -1.377144624041191e+02  5.889160887615210e-01  -36.7624090565518   
1.750000000000000e+01  6.339912659632384e-01  -4.980701228501199e+01  7.703965993791937e-01  -1.411231063284203e+02  7.703965993791937e-01  -1.411231063284203e+02  5.743633919056542e-01  -39.5800040562491   