
!*************************************************************************
!! ASITIC Ver 10.20.99.0.0.0
!!  Data generated by the <2Port> command in <slow> mode.
!! Generated on Thu Apr 11 17:21:13 1974
!# Spiral Data:	Name = <TS_200>, Transformer
!# L1 = 200.00, L2 = 200.00, Origin = <100.00,100.00>
!# Sides =   4, Metal =   2, Exit Metal =   1
!# W =  8.00, S = 14.00, N =  3.00
!# Theta =  0.00, Phase =   1
!# Technolog File Data <BiCMOS.tek> @ <.>
!# Auto-Cell Mode:  <alpha> = 0.050000, <beta> = 0.800000
!# Metal Layers
!# Name=MSUB      Met=0  Lyr=  1  Mz=50.00  T=0.40  RS=0.04  Col=BLUE    
!# Name=M2        Met=1  Lyr=  2  Mz=47.00  T=0.80  RS=0.05  Col=GREEN   
!# Name=M3        Met=2  Lyr=  2  Mz=45.00  T=2.00  RS=0.02  Col=RED     
!# Substrate Layers
!# Lyr=    0  Eps=  12  Rho=1e+05  DZ=8.5e+02  T=8e+02
!# Lyr=    1  Eps=  12  Rho=1e+03  DZ=  52  T=   2
!# Lyr=    2  Eps=   4  Rho=1e+14  DZ=  50  T=  50
!*************************************************************************
# GHZ S MA S11 mag    S11 phase  S12 mag    S12 phase  S21 mag    S21 phase  S22 mag    S22 phase  
1.000000000000000e+00  1.003145605811876e-01  6.007890585652721e+01  9.348480234590150e-01  -8.694714759232957e+00  9.348480234590150e-01  -8.694714759232957e+00  1.035730330312460e-01  59.8778331754771    
1.500000000000000e+00  1.473652674419099e-01  6.676842804608472e+01  9.193799613026983e-01  -1.267779834901809e+01  9.193799613026983e-01  -1.267779834901809e+01  1.513286101414486e-01  66.4064487457198    
2.000000000000000e+00  1.980452118209623e-01  6.813823010393529e+01  9.020163110403984e-01  -1.643744390890738e+01  9.020163110403984e-01  -1.643744390890738e+01  2.026096080492385e-01  67.7952713418289    
2.500000000000000e+00  2.492035988449107e-01  6.715521644410777e+01  8.831863866248195e-01  -2.004526705881870e+01  8.831863866248195e-01  -2.004526705881870e+01  2.543773110443714e-01  66.8814832079243    
3.000000000000000e+00  2.989895495626788e-01  6.516347867580397e+01  8.633719132823651e-01  -2.352580607059256e+01  8.633719132823651e-01  -2.352580607059256e+01  3.047194237338137e-01  64.9665840890006    
3.500000000000000e+00  3.466530890821526e-01  6.266726714741799e+01  8.423172372098187e-01  -2.690224322474486e+01  8.423172372098187e-01  -2.690224322474486e+01  3.529397427010825e-01  62.5464572023278    
4.000000000000000e+00  3.965456613133789e-01  5.971213548989312e+01  8.185172975282518e-01  -3.050988277360605e+01  8.185172975282518e-01  -3.050988277360605e+01  4.033579812483361e-01  59.6692797356718    
4.500000000000000e+00  4.391157967066989e-01  5.692462542431567e+01  7.953064962827477e-01  -3.370840851742281e+01  7.953064962827477e-01  -3.370840851742281e+01  4.464062133848326e-01  56.9477327621937    
5.000000000000000e+00  4.789659383228173e-01  5.415189050995157e+01  7.714842169255058e-01  -3.681142019424144e+01  7.714842169255058e-01  -3.681142019424144e+01  4.866680207432704e-01  54.2365360871536    
5.500000000000000e+00  5.160262848145878e-01  5.142151200424607e+01  7.471389080612439e-01  -3.981274338847362e+01  7.471389080612439e-01  -3.981274338847362e+01  5.240918276099994e-01  51.5642505538138    
6.000000000000000e+00  5.502320552737597e-01  4.874997010783086e+01  7.223850680708045e-01  -4.270254289656145e+01  7.223850680708045e-01  -4.270254289656145e+01  5.586289343315998e-01  48.9485128972676    
6.500000000000000e+00  5.819464607826909e-01  4.616113920373731e+01  6.975145102212185e-01  -4.550081413871624e+01  6.975145102212185e-01  -4.550081413871624e+01  5.906076379451289e-01  46.4125233499145    
7.000000000000000e+00  6.111721849354480e-01  4.365488504368660e+01  6.726106922979304e-01  -4.820088356708254e+01  6.726106922979304e-01  -4.820088356708254e+01  6.200479775302385e-01  43.9570685552582    
7.500000000000001e+00  6.378957077540105e-01  4.123308092070938e+01  6.477872819832550e-01  -5.079267606473048e+01  6.477872819832550e-01  -5.079267606473048e+01  6.469516223565872e-01  41.5850004795504    
8.000000000000000e+00  6.625477654361788e-01  3.889791844908478e+01  6.231928491560756e-01  -5.330323976139592e+01  6.231928491560756e-01  -5.330323976139592e+01  6.717221537375766e-01  39.2975110011857    
8.500000000000000e+00  6.851324030821689e-01  3.664677988926353e+01  5.988965446542628e-01  -5.572469442627912e+01  5.988965446542628e-01  -5.572469442627912e+01  6.943792932406795e-01  37.0927877581887    
9.000000000000000e+00  7.057914277475129e-01  3.447742364466685e+01  5.749723904121569e-01  -5.806075722132154e+01  5.749723904121569e-01  -5.806075722132154e+01  7.150665822170548e-01  34.9687599201331    
9.500000000000000e+00  7.245232015388501e-01  3.238866404471587e+01  5.514914748578467e-01  -6.030115748460695e+01  5.514914748578467e-01  -6.030115748460695e+01  7.337958153041829e-01  32.92510986548      
1.000000000000000e+01  7.417357573025865e-01  3.037446477795607e+01  5.284798554442673e-01  -6.247710801535843e+01  5.284798554442673e-01  -6.247710801535843e+01  7.509536347435937e-01  30.9545050245507    
1.050000000000000e+01  7.581687903954352e-01  2.836686707186034e+01  5.051428605333380e-01  -6.466953190582285e+01  5.051428605333380e-01  -6.466953190582285e+01  7.672877072482203e-01  28.9897604142597    
1.100000000000000e+01  7.724125785418827e-01  2.649343078793733e+01  4.831506480064701e-01  -6.670341253766942e+01  4.831506480064701e-01  -6.670341253766942e+01  7.813999475896763e-01  27.1584719714213    
1.150000000000000e+01  7.851975312615173e-01  2.469110981365051e+01  4.617747434044200e-01  -6.865163573072275e+01  4.617747434044200e-01  -6.865163573072275e+01  7.940279065825101e-01  25.3984544244285    
1.200000000000000e+01  7.969428752274703e-01  2.294545584471300e+01  4.408929131446425e-01  -7.055649013765121e+01  4.408929131446425e-01  -7.055649013765121e+01  8.055730269932154e-01  23.6938417838105    
1.250000000000000e+01  8.075865540470609e-01  2.125840392173891e+01  4.205683570308413e-01  -7.240288625048470e+01  4.205683570308413e-01  -7.240288625048470e+01  8.159846186723836e-01  22.0473288803341    
1.300000000000000e+01  8.172167227359998e-01  1.962671025360637e+01  4.007980244803661e-01  -7.419437346901944e+01  4.007980244803661e-01  -7.419437346901944e+01  8.253523621485386e-01  20.4557073842991    
1.350000000000000e+01  8.257834652072351e-01  1.805326537096429e+01  3.816519294871979e-01  -7.591412342989624e+01  3.816519294871979e-01  -7.591412342989624e+01  8.336353411120881e-01  18.9226238702038    
1.400000000000000e+01  8.336247031729375e-01  1.652334655303725e+01  3.629711162151654e-01  -7.760502148044172e+01  3.629711162151654e-01  -7.760502148044172e+01  8.411575718740248e-01  17.4319471536033    
1.450000000000000e+01  8.406762528803504e-01  1.503989832715869e+01  3.448165494971566e-01  -7.925087036067858e+01  3.448165494971566e-01  -7.925087036067858e+01  8.478638096681874e-01  15.9873423920022    
1.500000000000000e+01  8.470004333105798e-01  1.360026322075818e+01  3.271750255706311e-01  -8.085473331225201e+01  3.271750255706311e-01  -8.085473331225201e+01  8.538175542347950e-01  14.58616560416      
1.550000000000000e+01  8.526542031939459e-01  1.220193213628214e+01  3.100322140407155e-01  -8.241958066045210e+01  3.100322140407155e-01  -8.241958066045210e+01  8.590768656318696e-01  13.2259172853267    
1.600000000000000e+01  8.575836143416808e-01  1.084912432108819e+01  2.934618327634263e-01  -8.392618831407367e+01  2.934618327634263e-01  -8.392618831407367e+01  8.635947716412633e-01  11.9115308088105    
1.650000000000000e+01  8.620502426107264e-01  9.526582158101339e+00  2.772730501698039e-01  -8.542064600132402e+01  2.772730501698039e-01  -8.542064600132402e+01  8.676217370272545e-01  10.6263490709019    
1.700000000000000e+01  8.659893892532388e-01  8.238651641440933e+00  2.615364672619946e-01  -8.688457717782592e+01  2.615364672619946e-01  -8.688457717782592e+01  8.711000529981202e-01  9.37541111935482    
1.750000000000000e+01  8.694406070531121e-01  6.983364246226233e+00  2.462363345057117e-01  -8.832079981987783e+01  2.462363345057117e-01  -8.832079981987783e+01  8.740700952231881e-01  8.15674584869513    