
!*************************************************************************
!! ASITIC Ver 10.20.99.0.0.0
!!  Data generated by the <2Port> command in <slow> mode.
!! Generated on Thu Apr 11 17:21:13 1974
!# Spiral Data:	Name = <TP_200>, Transformer
!# L1 = 200.00, L2 = 200.00, Origin = <111.00,119.00>
!# Sides =   4, Metal =   2, Exit Metal =   1
!# W =  8.00, S = 14.00, N =  3.00
!# Theta =  0.00, Phase =   1
!# Technolog File Data <BiCMOS.tek> @ <.>
!# Auto-Cell Mode:  <alpha> = 0.050000, <beta> = 0.800000
!# Metal Layers
!# Name=MSUB      Met=0  Lyr=  1  Mz=50.00  T=0.40  RS=0.04  Col=BLUE    
!# Name=M2        Met=1  Lyr=  2  Mz=47.00  T=0.80  RS=0.05  Col=GREEN   
!# Name=M3        Met=2  Lyr=  2  Mz=45.00  T=2.00  RS=0.02  Col=RED     
!# Substrate Layers
!# Lyr=    0  Eps=  12  Rho=1e+05  DZ=8.5e+02  T=8e+02
!# Lyr=    1  Eps=  12  Rho=1e+03  DZ=  52  T=   2
!# Lyr=    2  Eps=   4  Rho=1e+14  DZ=  50  T=  50
!*************************************************************************
# GHZ S MA S11 mag    S11 phase  S12 mag    S12 phase  S21 mag    S21 phase  S22 mag    S22 phase  
1.000000000000000e+00  1.002881646702903e-01  6.001984480694756e+01  9.348889176229387e-01  -8.697026925210849e+00  9.348889176229387e-01  -8.697026925210849e+00  1.035405176369484e-01  59.8531818724453    
1.500000000000000e+00  1.472472331979315e-01  6.670707651179883e+01  9.194334423588147e-01  -1.268304021456385e+01  9.194334423588147e-01  -1.268304021456385e+01  1.512277598422999e-01  66.3913965665935    
2.000000000000000e+00  1.978268763089908e-01  6.808571308467249e+01  9.020681392460594e-01  -1.644559414108734e+01  9.020681392460594e-01  -1.644559414108734e+01  2.024408285341242e-01  67.7959504981372    
2.500000000000000e+00  2.488952363403029e-01  6.711181601554782e+01  8.832305430812243e-01  -2.005589258425399e+01  8.832305430812243e-01  -2.005589258425399e+01  2.541528706336196e-01  66.896762951773     
3.000000000000000e+00  2.986047332775445e-01  6.512702844683217e+01  8.634083653222738e-01  -2.353852814702698e+01  8.634083653222738e-01  -2.353852814702698e+01  3.044519144435606e-01  64.9941666240218    
3.500000000000000e+00  3.462041971025407e-01  6.263565613541201e+01  8.423485166059296e-01  -2.691683058443227e+01  8.423485166059296e-01  -2.691683058443227e+01  3.526391734266847e-01  62.5844416610837    
4.000000000000000e+00  3.960449412230998e-01  5.968411881176432e+01  8.185479748027693e-01  -3.052632772481837e+01  8.185479748027693e-01  -3.052632772481837e+01  4.030314602012959e-01  59.7162769848596    
4.500000000000000e+00  4.385698505185123e-01  5.689863285711630e+01  7.953375739210093e-01  -3.372656004505804e+01  7.953375739210093e-01  -3.372656004505804e+01  4.460594023583199e-01  57.0029303627583    
5.000000000000000e+00  4.783840544416205e-01  5.412722106793083e+01  7.715183393409463e-01  -3.683142977872956e+01  7.715183393409463e-01  -3.683142977872956e+01  4.863075218580757e-01  54.2994691271183    
5.500000000000000e+00  5.154161813901829e-01  5.139759604890377e+01  7.471776298850246e-01  -3.983473523899890e+01  7.471776298850246e-01  -3.983473523899890e+01  5.237227169322995e-01  51.6345640452663    
6.000000000000000e+00  5.496019201858411e-01  4.872635249412100e+01  7.224291688576704e-01  -4.272674015008519e+01  7.224291688576704e-01  -4.272674015008519e+01  5.582569494242233e-01  49.025943342081     
6.500000000000000e+00  5.813023589679384e-01  4.613751559482583e+01  6.975645643462624e-01  -4.552734354202207e+01  6.975645643462624e-01  -4.552734354202207e+01  5.902365743386835e-01  46.4969276604328    
7.000000000000000e+00  6.105207297157709e-01  4.363099350313325e+01  6.726667113884659e-01  -4.822995261234732e+01  6.726667113884659e-01  -4.822995261234732e+01  6.196823972497812e-01  44.0483315551935    
7.500000000000001e+00  6.372433789610543e-01  4.120868747196511e+01  6.478487691631829e-01  -5.082451983282468e+01  6.478487691631829e-01  -5.082451983282468e+01  6.465962598056506e-01  41.6830200569968    
8.000000000000000e+00  6.619004219043929e-01  3.887285165706044e+01  6.232592147566038e-01  -5.333809392905551e+01  6.232592147566038e-01  -5.333809392905551e+01  6.713811888442369e-01  39.4022333451906    
8.500000000000000e+00  6.844957666096495e-01  3.662087478733373e+01  5.989668170577638e-01  -5.576281845059959e+01  5.989668170577638e-01  -5.576281845059959e+01  6.940570546884803e-01  37.2041551682503    
9.000000000000000e+00  7.051709189841706e-01  3.445053037948894e+01  5.750453636348656e-01  -5.810242581978140e+01  5.750453636348656e-01  -5.810242581978140e+01  7.147673061938179e-01  35.086719999677     
9.500000000000000e+00  7.239240289552581e-01  3.236062510573330e+01  5.515655674587588e-01  -6.034666655631263e+01  5.515655674587588e-01  -6.034666655631263e+01  7.335238523140875e-01  33.0495920953934    
1.000000000000000e+01  7.411626290630883e-01  3.034516627284887e+01  5.285536599241709e-01  -6.252675544363165e+01  5.285536599241709e-01  -6.252675544363165e+01  7.507127825975558e-01  31.0854773279758    
1.050000000000000e+01  7.576284440903517e-01  2.833612337666330e+01  5.052138269226588e-01  -6.472378821109196e+01  5.052138269226588e-01  -6.472378821109196e+01  7.670826426334567e-01  29.1270781511425    
1.100000000000000e+01  7.719070760420809e-01  2.646118080635353e+01  4.832177661324145e-01  -6.676247148879207e+01  4.832177661324145e-01  -6.676247148879207e+01  7.812336266444621e-01  27.3021752234112    
1.150000000000000e+01  7.847303709973475e-01  2.465725862375360e+01  4.618364844297176e-01  -6.871579584596816e+01  4.618364844297176e-01  -6.871579584596816e+01  7.939035856121849e-01  25.5485011984321    
1.200000000000000e+01  7.965180850326151e-01  2.290986677829883e+01  4.409469349802558e-01  -7.062617019604345e+01  4.409469349802558e-01  -7.062617019604345e+01  8.054944630152395e-01  23.8501551001936    
1.250000000000000e+01  8.072074734566902e-01  2.122096634185435e+01  4.206126481864221e-01  -7.247847183791080e+01  4.206126481864221e-01  -7.247847183791080e+01  8.159550556830413e-01  22.2098459268093    
1.300000000000000e+01  8.168864224272685e-01  1.958731654233603e+01  4.008305437819891e-01  -7.427626980489366e+01  4.008305437819891e-01  -7.427626980489366e+01  8.253748684016821e-01  20.6243628705183    
1.350000000000000e+01  8.255045275511369e-01  1.801181683486884e+01  3.816707445916446e-01  -7.600273099597371e+01  3.816707445916446e-01  -7.600273099597371e+01  8.337129894962589e-01  19.0973593137075    
1.400000000000000e+01  8.333999120561797e-01  1.647973527901943e+01  3.629740377340285e-01  -7.770081454433542e+01  3.629740377340285e-01  -7.770081454433542e+01  8.412928892721059e-01  17.6126836946947    
1.450000000000000e+01  8.405079402853404e-01  1.499402668976223e+01  3.448015303840659e-01  -7.935432749251913e+01  3.448015303840659e-01  -7.935432749251913e+01  8.480593209417637e-01  16.1740101757427    
1.500000000000000e+01  8.468907099983505e-01  1.355203742024858e+01  3.271400393573767e-01  -8.096636510407019e+01  3.271400393573767e-01  -8.096636510407019e+01  8.540756034357219e-01  14.7786944220536    
1.550000000000000e+01  8.526049718654196e-01  1.215126251024745e+01  3.099752639252740e-01  -8.253993506773446e+01  3.099752639252740e-01  -8.253993506773446e+01  8.593996185263035e-01  13.424237232557     
1.600000000000000e+01  8.575963670630771e-01  1.079590815394199e+01  2.933807620944033e-01  -8.405582306658118e+01  2.933807620944033e-01  -8.405582306658118e+01  8.639843139799011e-01  12.1155506846867    
1.650000000000000e+01  8.621267051604221e-01  9.470756120097466e+00  2.771661357143571e-01  -8.556023193209225e+01  2.771661357143571e-01  -8.556023193209225e+01  8.680797923163357e-01  10.8360229797889    
1.700000000000000e+01  8.661309216119487e-01  8.180140419693791e+00  2.614018447584124e-01  -8.703482016644953e+01  2.614018447584124e-01  -8.703482016644953e+01  8.716282803446705e-01  9.59067414481333    
1.750000000000000e+01  8.696484157502260e-01  6.922097918887693e+00  2.460721950398489e-01  -8.848248176821498e+01  2.460721950398489e-01  -8.848248176821498e+01  8.746699981877222e-01  8.37753607363435    