
!*************************************************************************
!! ASITIC Ver 10.20.99.0.0.0
!!  Data generated by the <2Port> command in <slow> mode.
!! Generated on Thu Apr 11 17:21:13 1974
!# Spiral Data:	Name = <TS_250>, Transformer
!# L1 = 250.00, L2 = 250.00, Origin = <100.00,100.00>
!# Sides =   4, Metal =   2, Exit Metal =   1
!# W = 10.00, S = 16.00, N =  3.00
!# Theta =  0.00, Phase =   1
!# Technolog File Data <BiCMOS.tek> @ <.>
!# Auto-Cell Mode:  <alpha> = 0.050000, <beta> = 0.800000
!# Metal Layers
!# Name=MSUB      Met=0  Lyr=  1  Mz=50.00  T=0.40  RS=0.04  Col=BLUE    
!# Name=M2        Met=1  Lyr=  2  Mz=47.00  T=0.80  RS=0.05  Col=GREEN   
!# Name=M3        Met=2  Lyr=  2  Mz=45.00  T=2.00  RS=0.02  Col=RED     
!# Substrate Layers
!# Lyr=    0  Eps=  12  Rho=1e+05  DZ=8.5e+02  T=8e+02
!# Lyr=    1  Eps=  12  Rho=1e+03  DZ=  52  T=   2
!# Lyr=    2  Eps=   4  Rho=1e+14  DZ=  50  T=  50
!*************************************************************************
# GHZ S MA S11 mag    S11 phase  S12 mag    S12 phase  S21 mag    S21 phase  S22 mag    S22 phase  
1.000000000000000e+00  1.250269462071636e-01  6.604999392098500e+01  9.236912941576242e-01  -1.135422898960324e+01  9.236912941576242e-01  -1.135422898960324e+01  1.293078722730351e-01  65.6950606301156    
1.500000000000000e+00  1.910053006238936e-01  6.925524371367419e+01  9.001717366002944e-01  -1.634547970709662e+01  9.001717366002944e-01  -1.634547970709662e+01  1.962800886126138e-01  68.8316626567624    
2.000000000000000e+00  2.584460286213093e-01  6.778692884510988e+01  8.746739283291991e-01  -2.104819712614736e+01  8.746739283291991e-01  -2.104819712614736e+01  2.646096783784539e-01  67.4456448475438    
2.500000000000000e+00  3.232349468345151e-01  6.475741794140092e+01  8.475303870165340e-01  -2.554981466062623e+01  8.475303870165340e-01  -2.554981466062623e+01  3.302130692604061e-01  64.5205342757386    
3.000000000000000e+00  3.839315725339112e-01  6.117459738527169e+01  8.185380960269305e-01  -2.988667528368689e+01  8.185380960269305e-01  -2.988667528368689e+01  3.916893362880342e-01  61.0384965685921    
3.500000000000000e+00  4.399807487260353e-01  5.746597573033414e+01  7.880929503252755e-01  -3.406071088951714e+01  7.880929503252755e-01  -3.406071088951714e+01  4.484266571694303e-01  57.4219236470875    
4.000000000000000e+00  4.955141304585207e-01  5.350446277516468e+01  7.541480469325499e-01  -3.839778696201731e+01  7.541480469325499e-01  -3.839778696201731e+01  5.046121077977193e-01  53.5494244191287    
4.500000000000000e+00  5.422713170395579e-01  4.989875536246966e+01  7.212447585250734e-01  -4.227232196198798e+01  7.212447585250734e-01  -4.227232196198798e+01  5.518862304506552e-01  50.0204387909088    
5.000000000000000e+00  5.843854376635814e-01  4.642092280764530e+01  6.878111505333930e-01  -4.597367266594659e+01  6.878111505333930e-01  -4.597367266594659e+01  5.944405357349118e-01  46.6145259390008    
5.500000000000000e+00  6.222978322649502e-01  4.309301629487536e+01  6.542862684984289e-01  -4.951820135427628e+01  6.542862684984289e-01  -4.951820135427628e+01  6.326870549943715e-01  43.3539666306296    
6.000000000000000e+00  6.561266809778057e-01  3.991213668643550e+01  6.208784062339905e-01  -5.289653685979162e+01  6.208784062339905e-01  -5.289653685979162e+01  6.667730084083221e-01  40.2374783049188    
6.500000000000000e+00  6.863646913020001e-01  3.688062762407400e+01  5.878853929259870e-01  -5.613027367649660e+01  5.878853929259870e-01  -5.613027367649660e+01  6.971694776975795e-01  37.2670897514349    
7.000000000000000e+00  7.132378240257206e-01  3.399112310858916e+01  5.554579409144581e-01  -5.921972067057698e+01  5.554579409144581e-01  -5.921972067057698e+01  7.241187118838271e-01  34.436310787618     
7.500000000000001e+00  7.369483994703866e-01  3.123813894998712e+01  5.237413942321701e-01  -6.216208097531772e+01  5.237413942321701e-01  -6.216208097531772e+01  7.478375616490841e-01  31.7405340733852    
8.000000000000000e+00  7.579811777714278e-01  2.861257474101003e+01  4.928297212562344e-01  -6.498576740850866e+01  4.928297212562344e-01  -6.498576740850866e+01  7.687947447883137e-01  29.1699062238908    
8.500000000000000e+00  7.765085665166277e-01  2.610727988067782e+01  4.627905864452307e-01  -6.768940694911588e+01  4.627905864452307e-01  -6.768940694911588e+01  7.871772765754467e-01  26.7179628641214    
9.000000000000000e+00  7.926888840337613e-01  2.371660024838465e+01  4.336871367528205e-01  -7.026939617616375e+01  4.336871367528205e-01  -7.026939617616375e+01  8.031559190515583e-01  24.3797537279136    
9.500000000000000e+00  8.069254449707403e-01  2.142914940226563e+01  4.055019617998063e-01  -7.275594128070924e+01  4.055019617998063e-01  -7.275594128070924e+01  8.171213348180330e-01  22.1429433668761    
1.000000000000000e+01  8.193352325035023e-01  1.923940590874876e+01  3.782559835924140e-01  -7.514588454076872e+01  3.782559835924140e-01  -7.514588454076872e+01  8.292025807937549e-01  20.0026140857345    
1.050000000000000e+01  8.304521326214879e-01  1.709281757750080e+01  3.512756499193355e-01  -7.751328407517001e+01  3.512756499193355e-01  -7.751328407517001e+01  8.399321535253084e-01  17.9045768942196    
1.100000000000000e+01  8.397115185167494e-01  1.507888626655230e+01  3.258757015883657e-01  -7.973174939821756e+01  3.258757015883657e-01  -7.973174939821756e+01  8.487565471196602e-01  15.9377459737883    
1.150000000000000e+01  8.476430886880818e-01  1.314339426540972e+01  3.013693468883861e-01  -8.187435956013721e+01  3.013693468883861e-01  -8.187435956013721e+01  8.562051176905062e-01  14.0482640685611    
1.200000000000000e+01  8.543000961038352e-01  1.128532267169066e+01  2.777891114316578e-01  -8.393015194871371e+01  2.777891114316578e-01  -8.393015194871371e+01  8.623391653677149e-01  12.235656369988     
1.250000000000000e+01  8.599604134258247e-01  9.490467068732761e+00  2.549855603256361e-01  -8.593874744097877e+01  2.549855603256361e-01  -8.593874744097877e+01  8.674277811774209e-01  10.4846817968904    
1.300000000000000e+01  8.646481919161744e-01  7.758434281949433e+00  2.329835800843283e-01  -8.789007231388685e+01  2.329835800843283e-01  -8.789007231388685e+01  8.715028719286713e-01  8.79545249968962    
1.350000000000000e+01  8.684568052705992e-01  6.084790232977026e+00  2.117496727991012e-01  -8.979031440744765e+01  2.117496727991012e-01  -8.979031440744765e+01  8.746597038507610e-01  7.16351973723329    
1.400000000000000e+01  8.714068331853858e-01  4.470057308268350e+00  1.913128596471172e-01  -9.162512332106441e+01  1.913128596471172e-01  -9.162512332106441e+01  8.769244910438478e-01  5.58988953525593    
1.450000000000000e+01  8.736990961411899e-01  2.901350532723591e+00  1.715164659589526e-01  -9.344126356596489e+01  1.715164659589526e-01  -9.344126356596489e+01  8.784914307627030e-01  4.06064090198402    
1.500000000000000e+01  8.759966846818985e-01  1.735809000659636e+00  1.579010481279608e-01  -9.536715944775450e+01  1.579010481279608e-01  -9.536715944775450e+01  8.807265971569370e-01  2.9403423157963     
1.550000000000000e+01  8.771694383994921e-01  2.572804450958153e-01  1.394593208507277e-01  -9.720279461015063e+01  1.394593208507277e-01  -9.720279461015063e+01  8.812268351223503e-01  1.50495641745401    
1.600000000000000e+01  8.775727354910706e-01  -5.275890590108460e-01  1.314501974327026e-01  -9.850484436532014e+01  1.314501974327026e-01  -9.850484436532014e+01  8.803905327037934e-01  0.681978755434985   
1.650000000000000e+01  8.778900137407253e-01  -1.906012676219052e+00  1.145537042723540e-01  -1.003554325820803e+02  1.145537042723540e-01  -1.003554325820803e+02  8.800534113482509e-01  -0.65466252691879   
1.700000000000000e+01  8.777532545150313e-01  -3.250766469018147e+00  9.818435294983703e-02  -1.022656804774595e+02  9.818435294983703e-02  -1.022656804774595e+02  8.792384146948401e-01  -1.9579185353124    
1.750000000000000e+01  8.771980874073571e-01  -4.564197863274333e+00  8.231855084329028e-02  -1.042878845450568e+02  8.231855084329028e-02  -1.042878845450568e+02  8.779817275068641e-01  -3.23014651497815   