
!*************************************************************************
!! ASITIC Ver 10.20.99.0.0.0
!!  Data generated by the <2Port> command in <slow> mode.
!! Generated on Thu Apr 11 17:21:13 1974
!# Spiral Data:	Name = <TP_180>, Transformer
!# L1 = 180.00, L2 = 180.00, Origin = <111.00,119.00>
!# Sides =   4, Metal =   2, Exit Metal =   1
!# W =  8.00, S = 14.00, N =  2.00
!# Theta =  0.00, Phase =   1
!# Technolog File Data <BiCMOS.tek> @ <.>
!# Auto-Cell Mode:  <alpha> = 0.050000, <beta> = 0.800000
!# Metal Layers
!# Name=MSUB      Met=0  Lyr=  1  Mz=50.00  T=0.40  RS=0.04  Col=BLUE    
!# Name=M2        Met=1  Lyr=  2  Mz=47.00  T=0.80  RS=0.05  Col=GREEN   
!# Name=M3        Met=2  Lyr=  2  Mz=45.00  T=2.00  RS=0.02  Col=RED     
!# Substrate Layers
!# Lyr=    0  Eps=  12  Rho=1e+05  DZ=8.5e+02  T=8e+02
!# Lyr=    1  Eps=  12  Rho=1e+03  DZ=  52  T=   2
!# Lyr=    2  Eps=   4  Rho=1e+14  DZ=  50  T=  50
!*************************************************************************
# GHZ S MA S11 mag    S11 phase  S12 mag    S12 phase  S21 mag    S21 phase  S22 mag    S22 phase  
1.000000000000000e+00  5.650105408777288e-02  5.573541039404119e+01  9.576038820521960e-01  -5.347188132229421e+00  9.576038820521960e-01  -5.347188132229421e+00  5.963855718898672e-02  55.8380806028857    
1.500000000000000e+00  8.021001897455640e-02  6.678573441024473e+01  9.497601750834195e-01  -7.857802411765219e+00  9.497601750834195e-01  -7.857802411765219e+00  8.414447424985017e-02  66.3191762260321    
2.000000000000000e+00  1.077912131309833e-01  7.172804462846247e+01  9.407868557528963e-01  -1.023532032113892e+01  9.407868557528963e-01  -1.023532032113892e+01  1.123314782164514e-01  71.0954219373345    
2.500000000000000e+00  1.375531461027388e-01  7.346520865114945e+01  9.311433892212931e-01  -1.252170625710564e+01  9.311433892212931e-01  -1.252170625710564e+01  1.426793416941271e-01  72.8392399252903    
3.000000000000000e+00  1.680589646326339e-01  7.358050188591183e+01  9.213127146241936e-01  -1.472782600893861e+01  9.213127146241936e-01  -1.472782600893861e+01  1.737064436987773e-01  73.01958373782      
3.500000000000000e+00  1.987461218385889e-01  7.276254474064294e+01  9.111114599450209e-01  -1.688729444064985e+01  9.111114599450209e-01  -1.688729444064985e+01  2.049378014409550e-01  72.2900595102508    
4.000000000000000e+00  2.329757449440056e-01  7.125384345384423e+01  8.998541525613485e-01  -1.925100880178450e+01  8.998541525613485e-01  -1.925100880178450e+01  2.396953293538065e-01  70.8915681588444    
4.500000000000000e+00  2.630485198121778e-01  6.964724857703561e+01  8.888672436766284e-01  -2.135926349206018e+01  8.888672436766284e-01  -2.135926349206018e+01  2.702910667007555e-01  69.3749715772339    
5.000000000000000e+00  2.924074366544545e-01  6.790733385440427e+01  8.775924443834922e-01  -2.343809854496831e+01  8.775924443834922e-01  -2.343809854496831e+01  3.001334982374759e-01  67.7214412120143    
5.500000000000000e+00  3.209422212157632e-01  6.608492521862725e+01  8.659199513580872e-01  -2.548864366159027e+01  8.659199513580872e-01  -2.548864366159027e+01  3.291369617561444e-01  65.9813081858014    
6.000000000000000e+00  3.485381490364887e-01  6.420889262085991e+01  8.537547764611225e-01  -2.750804605769079e+01  8.537547764611225e-01  -2.750804605769079e+01  3.572082009960954e-01  64.1840105453676    
6.500000000000000e+00  3.752754987020965e-01  6.233172516065361e+01  8.412822960443351e-01  -2.950132509870219e+01  8.412822960443351e-01  -2.950132509870219e+01  3.843786640121353e-01  62.3813130771445    
7.000000000000000e+00  4.010873566292325e-01  6.045652384842583e+01  8.284372367867552e-01  -3.146562989385598e+01  8.284372367867552e-01  -3.146562989385598e+01  4.106025284300339e-01  60.5771457110481    
7.500000000000001e+00  4.258710852406731e-01  5.858667488258745e+01  8.151828759452837e-01  -3.339454859771333e+01  8.151828759452837e-01  -3.339454859771333e+01  4.357958258932660e-01  58.7760213660119    
8.000000000000000e+00  4.498017648202303e-01  5.674424704036786e+01  8.016790210470248e-01  -3.529794833192410e+01  8.016790210470248e-01  -3.529794833192410e+01  4.600925657508336e-01  56.9990079048109    
8.500000000000000e+00  4.728002201533687e-01  5.492625339847793e+01  7.878976928506355e-01  -3.717038214111462e+01  7.878976928506355e-01  -3.717038214111462e+01  4.834322831375619e-01  55.2440626517764    
9.000000000000000e+00  4.948743748023748e-01  5.313584973653516e+01  7.738756612295117e-01  -3.901137323720756e+01  7.738756612295117e-01  -3.901137323720756e+01  5.058222142522553e-01  53.5146196518318    
9.500000000000000e+00  5.159264207012633e-01  5.137108269431677e+01  7.596052455370950e-01  -4.081312017310386e+01  7.596052455370950e-01  -4.081312017310386e+01  5.271815742609853e-01  51.8099173509653    
1.000000000000000e+01  5.361814392618469e-01  4.964190281936249e+01  7.452159815923690e-01  -4.258951995053422e+01  7.452159815923690e-01  -4.258951995053422e+01  5.477004340923222e-01  50.1382912192996    
1.050000000000000e+01  5.566415517204760e-01  4.787242198395164e+01  7.300332933869423e-01  -4.442047197445373e+01  7.300332933869423e-01  -4.442047197445373e+01  5.683972403386366e-01  48.425600747948     
1.100000000000000e+01  5.751621679329844e-01  4.620534299130843e+01  7.153738437435536e-01  -4.613516616642011e+01  7.153738437435536e-01  -4.613516616642011e+01  5.871279101488147e-01  46.8132087354992    
1.150000000000000e+01  5.926701732634586e-01  4.457226299490075e+01  7.006563579094088e-01  -4.780448183469931e+01  7.006563579094088e-01  -4.780448183469931e+01  6.048349290283596e-01  45.234662998918     
1.200000000000000e+01  6.095222513497861e-01  4.297098672822794e+01  6.859086157213299e-01  -4.945435154970047e+01  6.859086157213299e-01  -4.945435154970047e+01  6.218449462601211e-01  43.6858567479429    
1.250000000000000e+01  6.255799452250911e-01  4.140211332083818e+01  6.711580931996255e-01  -5.107268894769170e+01  6.711580931996255e-01  -5.107268894769170e+01  6.380348965762889e-01  42.168452152798     
1.300000000000000e+01  6.408688518307012e-01  3.986527918756585e+01  6.564309171883409e-01  -5.265992428579072e+01  6.564309171883409e-01  -5.265992428579072e+01  6.534307936158513e-01  40.6821624092638    
1.350000000000000e+01  6.552526602566408e-01  3.836275558027059e+01  6.417736420745126e-01  -5.420254876510214e+01  6.417736420745126e-01  -5.420254876510214e+01  6.679098726010881e-01  39.2304172417802    
1.400000000000000e+01  6.690795724875243e-01  3.688890189303491e+01  6.271674739210619e-01  -5.572847214057543e+01  6.271674739210619e-01  -5.572847214057543e+01  6.817947698621547e-01  37.8054985406333    
1.450000000000000e+01  6.822177829398772e-01  3.544544666471425e+01  6.126495514322451e-01  -5.722497742914113e+01  6.126495514322451e-01  -5.722497742914113e+01  6.949672180542668e-01  36.4102208329242    
1.500000000000000e+01  6.946940807450429e-01  3.403172412953055e+01  5.982371535974449e-01  -5.869272454339620e+01  5.982371535974449e-01  -5.869272454339620e+01  7.074545778416935e-01  35.043958323703     
1.550000000000000e+01  7.065350630721776e-01  3.264703068142028e+01  5.839455706645753e-01  -6.013240961774374e+01  5.839455706645753e-01  -6.013240961774374e+01  7.192840332610728e-01  33.7060411765947    
1.600000000000000e+01  7.176084400269627e-01  3.129553521438444e+01  5.698412787915829e-01  -6.152911042859922e+01  5.698412787915829e-01  -6.152911042859922e+01  7.303352380872844e-01  32.4018080740149    
1.650000000000000e+01  7.282558014426039e-01  2.996697541279280e+01  5.558342964105931e-01  -6.291430671262306e+01  5.558342964105931e-01  -6.291430671262306e+01  7.409276813223784e-01  31.1187791263439    
1.700000000000000e+01  7.383454054321688e-01  2.866519021468383e+01  5.419832222667762e-01  -6.427368275813002e+01  5.419832222667762e-01  -6.427368275813002e+01  7.509415541325822e-01  29.8619120112063    
1.750000000000000e+01  7.479018323084528e-01  2.738940819971532e+01  5.282965933262745e-01  -6.560801741883581e+01  5.282965933262745e-01  -6.560801741883581e+01  7.604020269244925e-01  28.6304514518313    