
!*************************************************************************
!! ASITIC Ver 10.20.99.0.0.0
!!  Data generated by the <2Port> command in <slow> mode.
!! Generated on Thu Apr 11 17:21:13 1974
!# Spiral Data:	Name = <TP_250>, Transformer
!# L1 = 250.00, L2 = 250.00, Origin = <113.00,123.00>
!# Sides =   4, Metal =   2, Exit Metal =   1
!# W = 10.00, S = 16.00, N =  3.00
!# Theta =  0.00, Phase =   1
!# Technolog File Data <BiCMOS.tek> @ <.>
!# Auto-Cell Mode:  <alpha> = 0.050000, <beta> = 0.800000
!# Metal Layers
!# Name=MSUB      Met=0  Lyr=  1  Mz=50.00  T=0.40  RS=0.04  Col=BLUE    
!# Name=M2        Met=1  Lyr=  2  Mz=47.00  T=0.80  RS=0.05  Col=GREEN   
!# Name=M3        Met=2  Lyr=  2  Mz=45.00  T=2.00  RS=0.02  Col=RED     
!# Substrate Layers
!# Lyr=    0  Eps=  12  Rho=1e+05  DZ=8.5e+02  T=8e+02
!# Lyr=    1  Eps=  12  Rho=1e+03  DZ=  52  T=   2
!# Lyr=    2  Eps=   4  Rho=1e+14  DZ=  50  T=  50
!*************************************************************************
# GHZ S MA S11 mag    S11 phase  S12 mag    S12 phase  S21 mag    S21 phase  S22 mag    S22 phase  
1.000000000000000e+00  1.249652173753693e-01  6.600812236557455e+01  9.237226094045873e-01  -1.135695328794177e+01  9.237226094045873e-01  -1.135695328794177e+01  1.292540980676334e-01  65.6826200179318    
1.500000000000000e+00  1.908578726631893e-01  6.922272652502508e+01  9.002004408273497e-01  -1.635087534336767e+01  9.002004408273497e-01  -1.635087534336767e+01  1.961706566744429e-01  68.8340914260871    
2.000000000000000e+00  2.582244039549705e-01  6.776321300816542e+01  8.746928984597689e-01  -2.105561582676548e+01  8.746928984597689e-01  -2.105561582676548e+01  2.644588675061299e-01  67.4608429019492    
2.500000000000000e+00  3.229553589383470e-01  6.473925468814780e+01  8.475410683009854e-01  -2.555884985907996e+01  8.475410683009854e-01  -2.555884985907996e+01  3.300354786063369e-01  64.5454557185164    
3.000000000000000e+00  3.836069821282137e-01  6.115966277266776e+01  8.185441529787104e-01  -2.989717141481858e+01  8.185441529787104e-01  -2.989717141481858e+01  3.914952320258290e-01  61.0712191802885    
3.500000000000000e+00  4.396215169716822e-01  5.745285295633531e+01  7.880977051196627e-01  -3.407268339843671e+01  7.880977051196627e-01  -3.407268339843671e+01  4.482236165592768e-01  57.4613824826595    
4.000000000000000e+00  4.951294414503336e-01  5.349244018041409e+01  7.541555118013733e-01  -3.841132511714088e+01  7.541555118013733e-01  -3.841132511714088e+01  5.044048381380408e-01  53.5950043594404    
4.500000000000000e+00  5.418698705615965e-01  4.988708019694823e+01  7.212548514613252e-01  -4.228767049049811e+01  7.212548514613252e-01  -4.228767049049811e+01  5.516822780614282e-01  50.0717787891669    
5.000000000000000e+00  5.839758385874354e-01  4.640906745091696e+01  6.878232789163599e-01  -4.599113465253985e+01  6.878232789163599e-01  -4.599113465253985e+01  5.942459280801298e-01  46.6712606729826    
5.500000000000000e+00  6.218865252392198e-01  4.308081291029886e+01  6.543015228587444e-01  -4.953798926465691e+01  6.543015228587444e-01  -4.953798926465691e+01  6.325062185754695e-01  43.4160514788376    
6.000000000000000e+00  6.557211984571745e-01  3.989932146302660e+01  6.208960165845391e-01  -5.291901909738542e+01  6.208960165845391e-01  -5.291901909738542e+01  6.666114995588879e-01  40.3047484208822    
6.500000000000000e+00  6.859706995108312e-01  3.686701935018122e+01  5.879046379503845e-01  -5.615573519385291e+01  5.879046379503845e-01  -5.615573519385291e+01  6.970311505758835e-01  37.3394584060463    
7.000000000000000e+00  7.128612056094129e-01  3.397654345784498e+01  5.554776012166686e-01  -5.924853527123110e+01  5.554776012166686e-01  -5.924853527123110e+01  7.240078434572265e-01  34.5136757739834    
7.500000000000001e+00  7.365945891448022e-01  3.122241806314192e+01  5.237599383538796e-01  -6.219465867075582e+01  5.237599383538796e-01  -6.219465867075582e+01  7.477582242143302e-01  31.8227904516342    
8.000000000000000e+00  7.576550626142140e-01  2.859556667670051e+01  4.928455781049434e-01  -6.502255398003076e+01  4.928455781049434e-01  -6.502255398003076e+01  7.687505208323239e-01  29.2569686383747    
8.500000000000000e+00  7.762146100800206e-01  2.608884045837968e+01  4.628019933462731e-01  -6.773089293543805e+01  4.628019933462731e-01  -6.773089293543805e+01  7.871715318942064e-01  26.8097403609489    
9.000000000000000e+00  7.924311151990208e-01  2.369658246829550e+01  4.336921253658723e-01  -7.031612170471563e+01  4.336921253658723e-01  -7.031612170471563e+01  8.031918020565707e-01  24.4761453636203    
9.500000000000000e+00  8.067074414187067e-01  2.140742929769444e+01  4.054987318961015e-01  -7.280850382447812e+01  4.054987318961015e-01  -7.280850382447812e+01  8.172015295371113e-01  22.2438718063172    
1.000000000000000e+01  8.191601945565515e-01  1.921585580464094e+01  3.782426025905435e-01  -7.520495159817722e+01  3.782426025905435e-01  -7.520495159817722e+01  8.293295724891375e-01  20.1079929456857    
1.050000000000000e+01  8.303240044665735e-01  1.706729878759228e+01  3.512499741993675e-01  -7.757973615616368e+01  3.512499741993675e-01  -7.757973615616368e+01  8.401086696897678e-01  18.0143046396056    
1.100000000000000e+01  8.396316977957713e-01  1.505129616705408e+01  3.258360095376652e-01  -7.980633106944666e+01  3.258360095376652e-01  -7.980633106944666e+01  8.489840498113866e-01  16.0517603344395    
1.150000000000000e+01  8.476137432812524e-01  1.311361972102589e+01  3.013137598822230e-01  -8.195805674953270e+01  3.013137598822230e-01  -8.195805674953270e+01  8.564853285787335e-01  14.1664868069256    
1.200000000000000e+01  8.543229177866807e-01  1.125325911613623e+01  2.777158385525185e-01  -8.402406503341572e+01  2.777158385525185e-01  -8.402406503341572e+01  8.626734649394094e-01  12.3580112194275    
1.250000000000000e+01  8.600372077978651e-01  9.456007166879166e+00  2.548927758162625e-01  -8.604427526385140e+01  2.548927758162625e-01  -8.604427526385140e+01  8.678175964869264e-01  10.6110989322797    
1.300000000000000e+01  8.647803390762711e-01  7.721480580057808e+00  2.328695868947674e-01  -8.800884350552022e+01  2.328695868947674e-01  -8.800884350552022e+01  8.719493118125747e-01  8.92586649528031    
1.350000000000000e+01  8.686454731393984e-01  6.045250933866862e+00  2.116128562324296e-01  -8.992432090527987e+01  2.116128562324296e-01  -8.992432090527987e+01  8.751637084097859e-01  7.2978705656524     
1.400000000000000e+01  8.716529207304696e-01  4.427834427987180e+00  1.911514753028811e-01  -9.177680572284933e+01  1.911514753028811e-01  -9.177680572284933e+01  8.774868953012873e-01  5.7281052568509     
1.450000000000000e+01  8.740034847477657e-01  2.856376544193468e+00  1.713293107525718e-01  -9.361382582333994e+01  1.713293107525718e-01  -9.361382582333994e+01  8.791128427743649e-01  4.20269182354292    
1.500000000000000e+01  8.761926974411346e-01  1.692262831315087e+00  1.577567452741728e-01  -9.551898692168479e+01  1.577567452741728e-01  -9.551898692168479e+01  8.813139990573624e-01  3.07181961911862    
1.550000000000000e+01  8.774143733572071e-01  2.110427162751074e-01  1.392936082646143e-01  -9.737622646472808e+01  1.392936082646143e-01  -9.737622646472808e+01  8.818695225774176e-01  1.63995675609537    
1.600000000000000e+01  8.778430587457140e-01  -5.750034735468413e-01  1.312782712137747e-01  -9.868694278497844e+01  1.312782712137747e-01  -9.868694278497844e+01  8.811144079431876e-01  0.819901558852163   
1.650000000000000e+01  8.782086314465282e-01  -1.956221581089095e+00  1.143590969725657e-01  -1.005654046912647e+02  1.143590969725657e-01  -1.005654046912647e+02  8.808336252684070e-01  -0.513516295679808  
1.700000000000000e+01  8.781205017786178e-01  -3.303835022007399e+00  9.796653341733662e-02  -1.025115652975319e+02  9.796653341733662e-02  -1.025115652975319e+02  8.800752128756058e-01  -1.81357096683261   
1.750000000000000e+01  8.776142441892366e-01  -4.620187053248412e+00  8.207738797560940e-02  -1.045821609499063e+02  8.207738797560940e-02  -1.045821609499063e+02  8.788753076289624e-01  -3.08261284458202   