
!*************************************************************************
!! ASITIC Ver 10.20.99.0.0.0
!!  Data generated by the <2Port> command in <slow> mode.
!! Generated on Thu Apr 11 17:21:13 1974
!# Spiral Data:	Name = <TP_180>, Transformer
!# L1 = 180.00, L2 = 180.00, Origin = <111.00,119.00>
!# Sides =   4, Metal =   4, Exit Metal =   3
!# W =  8.00, S = 14.00, N =  2.00
!# Theta =  0.00, Phase =   1
!# Technolog File Data <CMOS.tek> @ <.>
!# Auto-Cell Mode:  <alpha> = 0.050000, <beta> = 0.800000
!# Metal Layers
!# Name=M1        Met=0  Lyr=  1  Mz=48.70  T=0.50  RS=0.07  Col=YELLOW  
!# Name=M2        Met=1  Lyr=  1  Mz=47.60  T=0.50  RS=0.06  Col=LIGHTSKYBLUE1
!# Name=M3        Met=2  Lyr=  1  Mz=46.50  T=0.50  RS=0.06  Col=MEDIUM PURPLE
!# Name=M4        Met=3  Lyr=  1  Mz=45.50  T=0.50  RS=0.06  Col=LIGHT GREEN
!# Name=M5        Met=4  Lyr=  1  Mz=44.00  T=1.00  RS=0.03  Col=GREY    
!# Substrate Layers
!# Lyr=    0  Eps=  12  Rho=  10  DZ=7.5e+02  T=7e+02
!# Lyr=    1  Eps= 3.9  Rho=1e+14  DZ=  50  T=  50
!*************************************************************************
# GHZ S MA S11 mag    S11 phase  S12 mag    S12 phase  S21 mag    S21 phase  S22 mag    S22 phase  
1.000000000000000e+00  7.010534643044401e-02  4.163937110285725e+01  9.501242330974110e-01  -5.334300039302662e+00  9.501242330974110e-01  -5.334300039302662e+00  7.254809488416067e-02  43.200115773983     
1.500000000000000e+00  9.051783060230971e-02  5.016395407486806e+01  9.482722575792155e-01  -7.989698849809909e+00  9.482722575792155e-01  -7.989698849809909e+00  9.419496782161108e-02  51.6451525192588    
2.000000000000000e+00  1.129512744514428e-01  5.430910348251874e+01  9.456523334529990e-01  -1.063905568300608e+01  9.456523334529990e-01  -1.063905568300608e+01  1.178061678393039e-01  55.8142860046146    
2.500000000000000e+00  1.360907939906467e-01  5.610968715887773e+01  9.423579957650209e-01  -1.327150208538363e+01  9.423579957650209e-01  -1.327150208538363e+01  1.420881221211052e-01  57.6970769234189    
3.000000000000000e+00  1.592831747884016e-01  5.659552138121516e+01  9.385051803330627e-01  -1.587760304154704e+01  9.385051803330627e-01  -1.587760304154704e+01  1.663714356216498e-01  58.2927790905724    
3.500000000000000e+00  1.824213600886167e-01  5.626107387989736e+01  9.340232962526959e-01  -1.846690216399743e+01  9.340232962526959e-01  -1.846690216399743e+01  1.905768871078601e-01  58.1001195547173    
4.000000000000000e+00  2.051408389477011e-01  5.543111611054806e+01  9.291042464346285e-01  -2.102465168478079e+01  9.291042464346285e-01  -2.102465168478079e+01  2.142986879722898e-01  57.4188939264113    
4.500000000000000e+00  2.275120904118291e-01  5.424590132862789e+01  9.236600133011335e-01  -2.356127320220696e+01  9.236600133011335e-01  -2.356127320220696e+01  2.376361064442280e-01  56.3994614184218    
5.000000000000000e+00  2.492777564419388e-01  5.284543123719356e+01  9.178933119305083e-01  -2.606306529960680e+01  9.178933119305083e-01  -2.606306529960680e+01  2.602932741939109e-01  55.1653665238651    
5.500000000000000e+00  2.705456721045632e-01  5.127070688642891e+01  9.117112526490054e-01  -2.854002976812749e+01  9.117112526490054e-01  -2.854002976812749e+01  2.824055851372599e-01  53.7680836889838    
6.000000000000000e+00  2.911312048411177e-01  4.959758760302488e+01  9.053087072043245e-01  -3.098080831564992e+01  9.053087072043245e-01  -3.098080831564992e+01  3.037537114234790e-01  52.2704455949564    
6.500000000000000e+00  3.110807056706624e-01  4.784611977400817e+01  8.986664588436467e-01  -3.338984624168122e+01  8.986664588436467e-01  -3.338984624168122e+01  3.243958913746555e-01  50.6971973158215    
7.000000000000000e+00  3.304432973033846e-01  4.602732434059180e+01  8.917508602368169e-01  -3.577171619807532e+01  8.917508602368169e-01  -3.577171619807532e+01  3.443917324008155e-01  49.0641631783848    
7.500000000000001e+00  3.490716058114115e-01  4.418445781073438e+01  8.847611559133758e-01  -3.811596296687410e+01  8.847611559133758e-01  -3.811596296687410e+01  3.635651959634523e-01  47.4033334754126    
8.000000000000000e+00  3.670291005070672e-01  4.231811371170813e+01  8.776648496216226e-01  -4.042752564886597e+01  8.776648496216226e-01  -4.042752564886597e+01  3.819911355306866e-01  45.7201304415306    
8.500000000000000e+00  3.843372933843570e-01  4.042940027590677e+01  8.704445274747999e-01  -4.270885068116863e+01  8.704445274747999e-01  -4.270885068116863e+01  3.997000027279413e-01  44.0205904183754    
9.000000000000000e+00  4.009527949707563e-01  3.854336381157520e+01  8.632482622111366e-01  -4.495521609657116e+01  8.632482622111366e-01  -4.495521609657116e+01  4.166260812614303e-01  42.3192520601075    
9.500000000000000e+00  4.169068069074294e-01  3.665710507917468e+01  8.560560069314990e-01  -4.716942738295766e+01  8.560560069314990e-01  -4.716942738295766e+01  4.328106315473048e-01  40.6180177788688    
1.000000000000000e+01  4.322087204660289e-01  3.477506078573187e+01  8.488993751098569e-01  -4.935192184955422e+01  8.488993751098569e-01  -4.935192184955422e+01  4.482625859537093e-01  38.9211501742825    
1.050000000000000e+01  4.469113500667493e-01  3.289126421031791e+01  8.417363519740657e-01  -5.150702477499331e+01  8.417363519740657e-01  -5.150702477499331e+01  4.630394699147939e-01  37.2276024368192    
1.100000000000000e+01  4.615661624050207e-01  3.103595551473600e+01  8.347548800968718e-01  -5.367122483566386e+01  8.347548800968718e-01  -5.367122483566386e+01  4.776877419929677e-01  35.5523696327291    
1.150000000000000e+01  4.750084473103071e-01  2.918275545285632e+01  8.278656083788680e-01  -5.576405707184835e+01  8.278656083788680e-01  -5.576405707184835e+01  4.910366119259275e-01  33.8839893634685    
1.200000000000000e+01  4.877575628395211e-01  2.734036939325265e+01  8.211031732102306e-01  -5.782227421039862e+01  8.211031732102306e-01  -5.782227421039862e+01  5.036159191573638e-01  32.2316881103162    
1.250000000000000e+01  5.000177308352384e-01  2.551551749315964e+01  8.145094112528533e-01  -5.985751616297127e+01  8.145094112528533e-01  -5.985751616297127e+01  5.156212452563856e-01  30.5911046903804    
1.300000000000000e+01  5.117143541859962e-01  2.370594445510925e+01  8.080904706568479e-01  -6.186542795915721e+01  8.080904706568479e-01  -6.186542795915721e+01  5.269834819706681e-01  28.9652952312103    
1.350000000000000e+01  5.228649898935060e-01  2.191206547413265e+01  8.018620542849446e-01  -6.384695713772334e+01  8.018620542849446e-01  -6.384695713772334e+01  5.377208245480963e-01  27.3545977402162    
1.400000000000000e+01  5.333978816686754e-01  2.013211789841338e+01  7.958298581185739e-01  -6.579771010042482e+01  7.958298581185739e-01  -6.579771010042482e+01  5.477616365751110e-01  25.7626427355315    
1.450000000000000e+01  5.435071481976874e-01  1.837018974194365e+01  7.900234199196535e-01  -6.772925906264229e+01  7.900234199196535e-01  -6.772925906264229e+01  5.573008313737973e-01  24.1826928599044    
1.500000000000000e+01  5.531231845126683e-01  1.662400372615175e+01  7.844442023009931e-01  -6.963746032734306e+01  7.844442023009931e-01  -6.963746032734306e+01  5.662700596150447e-01  22.6176963721166    
1.550000000000000e+01  5.622629878008549e-01  1.489328748508050e+01  7.791013971392703e-01  -7.152336236310393e+01  7.791013971392703e-01  -7.152336236310393e+01  5.746871269724027e-01  21.0673175368686    
1.600000000000000e+01  5.708547940134179e-01  1.317685945054326e+01  7.740020502589064e-01  -7.338247241926364e+01  7.740020502589064e-01  -7.338247241926364e+01  5.824765019189068e-01  19.5356443837114    
1.650000000000000e+01  5.790897430237227e-01  1.147602754132472e+01  7.691553925684900e-01  -7.522681465678951e+01  7.691553925684900e-01  -7.522681465678951e+01  5.898381353672737e-01  18.0134120891642    
1.700000000000000e+01  5.868964621278314e-01  9.789303867449515e+00  7.645653761357527e-01  -7.705205272877630e+01  7.645653761357527e-01  -7.705205272877630e+01  5.966980178056779e-01  16.5042543418593    
1.750000000000000e+01  5.942896263028012e-01  8.116105442568706e+00  7.602366926905795e-01  -7.885925047574354e+01  7.602366926905795e-01  -7.885925047574354e+01  6.030716336467147e-01  15.0075294398577    