
!*************************************************************************
!! ASITIC Ver 10.20.99.0.0.0
!!  Data generated by the <2Port> command in <slow> mode.
!! Generated on Thu Apr 11 17:21:13 1974
!# Spiral Data:	Name = <TS_200>, Transformer
!# L1 = 200.00, L2 = 200.00, Origin = <100.00,100.00>
!# Sides =   4, Metal =   4, Exit Metal =   3
!# W =  8.00, S = 14.00, N =  3.00
!# Theta =  0.00, Phase =   1
!# Technolog File Data <CMOS.tek> @ <.>
!# Auto-Cell Mode:  <alpha> = 0.050000, <beta> = 0.800000
!# Metal Layers
!# Name=M1        Met=0  Lyr=  1  Mz=48.70  T=0.50  RS=0.07  Col=YELLOW  
!# Name=M2        Met=1  Lyr=  1  Mz=47.60  T=0.50  RS=0.06  Col=LIGHTSKYBLUE1
!# Name=M3        Met=2  Lyr=  1  Mz=46.50  T=0.50  RS=0.06  Col=MEDIUM PURPLE
!# Name=M4        Met=3  Lyr=  1  Mz=45.50  T=0.50  RS=0.06  Col=LIGHT GREEN
!# Name=M5        Met=4  Lyr=  1  Mz=44.00  T=1.00  RS=0.03  Col=GREY    
!# Substrate Layers
!# Lyr=    0  Eps=  12  Rho=  10  DZ=7.5e+02  T=7e+02
!# Lyr=    1  Eps= 3.9  Rho=1e+14  DZ=  50  T=  50
!*************************************************************************
# GHZ S MA S11 mag    S11 phase  S12 mag    S12 phase  S21 mag    S21 phase  S22 mag    S22 phase  
1.000000000000000e+00  1.154554490178469e-01  4.522957110573824e+01  9.267262983330534e-01  -8.717102815196935e+00  9.267262983330534e-01  -8.717102815196935e+00  1.183418807149401e-01  46.277723009437     
1.500000000000000e+00  1.546337629667161e-01  5.107211654030639e+01  9.213371613704463e-01  -1.302300563785922e+01  9.213371613704463e-01  -1.302300563785922e+01  1.588314029256522e-01  52.1444405761379    
2.000000000000000e+00  1.954628233342879e-01  5.262309232875854e+01  9.139665344259372e-01  -1.727507411258464e+01  9.139665344259372e-01  -1.727507411258464e+01  2.008858094796451e-01  53.8090803947342    
2.500000000000000e+00  2.359277964004781e-01  5.212852143550754e+01  9.049372374601221e-01  -2.145160499956618e+01  9.049372374601221e-01  -2.145160499956618e+01  2.424921090612569e-01  53.4671349069771    
3.000000000000000e+00  2.750855917118194e-01  5.058245965963780e+01  8.946133923683857e-01  -2.553652309142575e+01  8.946133923683857e-01  -2.553652309142575e+01  2.826807962010803e-01  52.0887211601885    
3.500000000000000e+00  3.126157066514176e-01  4.842766335186339e+01  8.831060698193328e-01  -2.953036121132179e+01  8.831060698193328e-01  -2.953036121132179e+01  3.211435573971345e-01  50.1195049937408    
4.000000000000000e+00  3.481236359801572e-01  4.595100027621200e+01  8.708693260463355e-01  -3.341840642780263e+01  8.708693260463355e-01  -3.341840642780263e+01  3.574497697208685e-01  47.8306329377659    
4.500000000000000e+00  3.816023304978696e-01  4.326942732818728e+01  8.579740638965067e-01  -3.720592270011095e+01  8.579740638965067e-01  -3.720592270011095e+01  3.916080373394354e-01  45.3463670056403    
5.000000000000000e+00  4.128797202464990e-01  4.049999306560725e+01  8.448411498778373e-01  -4.088336715868878e+01  8.448411498778373e-01  -4.088336715868878e+01  4.234206950472753e-01  42.7730492868201    
5.500000000000000e+00  4.420581536342371e-01  3.767397583510957e+01  8.315002171639809e-01  -4.445841520036402e+01  8.315002171639809e-01  -4.445841520036402e+01  4.530057546216278e-01  40.1495174411324    
6.000000000000000e+00  4.691044939299583e-01  3.484953467482917e+01  8.182973364090333e-01  -4.792684911151397e+01  8.182973364090333e-01  -4.792684911151397e+01  4.803127179745543e-01  37.5249855755252    
6.500000000000000e+00  4.941323175578086e-01  3.203908163522413e+01  8.053031406302367e-01  -5.129487333196366e+01  8.053031406302367e-01  -5.129487333196366e+01  5.054639349522471e-01  34.9153227303525    
7.000000000000000e+00  5.172561984796784e-01  2.924828807044540e+01  7.925621377634435e-01  -5.456881711186104e+01  7.925621377634435e-01  -5.456881711186104e+01  5.285792068405843e-01  32.3298444032721    
7.500000000000001e+00  5.385213854425517e-01  2.650515523324254e+01  7.803387781846910e-01  -5.774787972278851e+01  7.803387781846910e-01  -5.774787972278851e+01  5.496969185473045e-01  29.7884242123029    
8.000000000000000e+00  5.580650074625523e-01  2.380584065735275e+01  7.686359540021946e-01  -6.083971424183103e+01  7.686359540021946e-01  -6.083971424183103e+01  5.689615474393309e-01  27.2907869057711    
8.500000000000000e+00  5.759798993426958e-01  2.114800447777303e+01  7.574733097728823e-01  -6.384931338129405e+01  7.574733097728823e-01  -6.384931338129405e+01  5.864691318548371e-01  24.8382545128023    
9.000000000000000e+00  5.923981066886298e-01  1.854280281481184e+01  7.469889184034739e-01  -6.678210537966588e+01  7.469889184034739e-01  -6.678210537966588e+01  6.023521171999914e-01  22.4342839800349    
9.500000000000000e+00  6.074108229501174e-01  1.598455690995436e+01  7.371736210177413e-01  -6.964347724797689e+01  7.371736210177413e-01  -6.964347724797689e+01  6.167062844372996e-01  20.0767299067837    
1.000000000000000e+01  6.211149322667191e-01  1.347185387850064e+01  7.280521720061571e-01  -7.243874198911942e+01  7.280521720061571e-01  -7.243874198911942e+01  6.296312395358652e-01  17.7640519603947    
1.050000000000000e+01  6.336002301479792e-01  1.099698224531436e+01  7.195876153292819e-01  -7.517439049460353e+01  7.195876153292819e-01  -7.517439049460353e+01  6.412132101809430e-01  15.4921678090299    
1.100000000000000e+01  6.454914865517875e-01  8.561044198100770e+00  7.118543194115515e-01  -7.789787349470670e+01  7.118543194115515e-01  -7.789787349470670e+01  6.520936580938275e-01  13.2519430021881    
1.150000000000000e+01  6.557879881873103e-01  6.169964283879911e+00  7.048891470761822e-01  -8.052662074075508e+01  7.048891470761822e-01  -8.052662074075508e+01  6.612614933262029e-01  11.0582455786209    
1.200000000000000e+01  6.650004475269163e-01  3.815186888860636e+00  6.986576818234196e-01  -8.310213845406760e+01  6.986576818234196e-01  -8.310213845406760e+01  6.692270739281166e-01  8.90378813494743    
1.250000000000000e+01  6.733816127326301e-01  1.491697450703892e+00  6.931331666191781e-01  -8.564303225558710e+01  6.931331666191781e-01  -8.564303225558710e+01  6.762564637881208e-01  6.77554708284818    
1.300000000000000e+01  6.808933399125986e-01  -8.027045599651732e-01  6.883194698771053e-01  -8.814679563233113e+01  6.883194698771053e-01  -8.814679563233113e+01  6.823079517772686e-01  4.67512079997977    
1.350000000000000e+01  6.875854270076446e-01  -3.071099105867160e+00  6.842078138828439e-01  -9.061765849824580e+01  6.842078138828439e-01  -9.061765849824580e+01  6.874326776812933e-01  2.59933971453478    
1.400000000000000e+01  6.934186204859283e-01  -5.315017079566446e+00  6.807969926478157e-01  -9.305328073222887e+01  6.807969926478157e-01  -9.305328073222887e+01  6.915814070107008e-01  0.550139983141421   
1.450000000000000e+01  6.985965153982994e-01  -7.540298783693050e+00  6.780579050992174e-01  -9.547025394028343e+01  6.780579050992174e-01  -9.547025394028343e+01  6.949796190355398e-01  -1.4854319449812    
1.500000000000000e+01  7.030689947822905e-01  -9.748536526540317e+00  6.759881392664426e-01  -9.786598313553394e+01  6.759881392664426e-01  -9.786598313553394e+01  6.975681894883204e-01  -3.50559359470809   
1.550000000000000e+01  7.068634475887550e-01  -1.194258330990640e+01  6.745758674275760e-01  -1.002440280755981e+02  6.745758674275760e-01  -1.002440280755981e+02  6.993751616618572e-01  -5.51328841125417   
1.600000000000000e+01  7.099282280338378e-01  -1.412287561783124e+01  6.738156410913463e-01  -1.026016586934193e+02  6.738156410913463e-01  -1.026016586934193e+02  7.003350397901589e-01  -7.50538542245813   
1.650000000000000e+01  7.124302980269339e-01  -1.629657906904073e+01  6.736808904042536e-01  -1.049543964122982e+02  6.736808904042536e-01  -1.049543964122982e+02  7.006426926838235e-01  -9.49639482725316   
1.700000000000000e+01  7.143090055343615e-01  -1.846415280597113e+01  6.741672077809294e-01  -1.072992911355542e+02  6.741672077809294e-01  -1.072992911355542e+02  7.002246305413554e-01  -11.4832825066891   
1.750000000000000e+01  7.155742908314108e-01  -2.062811910851730e+01  6.752624241330445e-01  -1.096393687320873e+02  6.752624241330445e-01  -1.096393687320873e+02  6.990909973215672e-01  -13.4686668432563   