
!*************************************************************************
!! ASITIC Ver 10.20.99.0.0.0
!!  Data generated by the <2Port> command in <slow> mode.
!! Generated on Thu Apr 11 17:21:13 1974
!# Spiral Data:	Name = <TS_180>, Transformer
!# L1 = 180.00, L2 = 180.00, Origin = <100.00,100.00>
!# Sides =   4, Metal =   2, Exit Metal =   1
!# W =  8.00, S = 14.00, N =  2.00
!# Theta =  0.00, Phase =   1
!# Technolog File Data <BiCMOS.tek> @ <.>
!# Auto-Cell Mode:  <alpha> = 0.050000, <beta> = 0.800000
!# Metal Layers
!# Name=MSUB      Met=0  Lyr=  1  Mz=50.00  T=0.40  RS=0.04  Col=BLUE    
!# Name=M2        Met=1  Lyr=  2  Mz=47.00  T=0.80  RS=0.05  Col=GREEN   
!# Name=M3        Met=2  Lyr=  2  Mz=45.00  T=2.00  RS=0.02  Col=RED     
!# Substrate Layers
!# Lyr=    0  Eps=  12  Rho=1e+05  DZ=8.5e+02  T=8e+02
!# Lyr=    1  Eps=  12  Rho=1e+03  DZ=  52  T=   2
!# Lyr=    2  Eps=   4  Rho=1e+14  DZ=  50  T=  50
!*************************************************************************
# GHZ S MA S11 mag    S11 phase  S12 mag    S12 phase  S21 mag    S21 phase  S22 mag    S22 phase  
1.000000000000000e+00  5.649716418303689e-02  5.581747099795803e+01  9.575742385047092e-01  -5.346030004918843e+00  9.575742385047092e-01  -5.346030004918843e+00  5.964836422260397e-02  55.8695991457303    
1.500000000000000e+00  8.026833378943286e-02  6.689373998698376e+01  9.497124954329380e-01  -7.854795104376813e+00  9.497124954329380e-01  -7.854795104376813e+00  8.419798134810323e-02  66.3512972332051    
2.000000000000000e+00  1.079412480002329e-01  7.183521824047962e+01  9.407303244743758e-01  -1.023003603397926e+01  9.407303244743758e-01  -1.023003603397926e+01  1.124421548032580e-01  71.113942368926     
2.500000000000000e+00  1.378022685518939e-01  7.356178592682096e+01  9.310864385952646e-01  -1.251414621060379e+01  9.310864385952646e-01  -1.251414621060379e+01  1.428466991762930e-01  72.8401631583209    
3.000000000000000e+00  1.684040817950692e-01  7.366537390590304e+01  9.212602060451782e-01  -1.471820509439299e+01  9.212602060451782e-01  -1.471820509439299e+01  1.739244138030313e-01  73.003592431477     
3.500000000000000e+00  1.991801535228637e-01  7.283726725756372e+01  9.110649795157039e-01  -1.687585431770155e+01  9.110649795157039e-01  -1.687585431770155e+01  2.051992465205751e-01  72.2590784503796    
4.000000000000000e+00  2.334942661198989e-01  7.131942783816453e+01  8.998121880013293e-01  -1.923815393639324e+01  8.998121880013293e-01  -1.923815393639324e+01  2.399991474495988e-01  70.847514689012     
4.500000000000000e+00  2.636381585424993e-01  6.970695425989304e+01  8.888299649342351e-01  -2.134469813816781e+01  8.888299649342351e-01  -2.134469813816781e+01  2.706239784182267e-01  69.3194085997381    
5.000000000000000e+00  2.930654514212539e-01  6.796245767487856e+01  8.775575562469803e-01  -2.342210062482243e+01  8.775575562469803e-01  -2.342210062482243e+01  3.004947228344480e-01  67.6552519195639    
5.500000000000000e+00  3.216628938387424e-01  6.613660261656032e+01  8.658857496519501e-01  -2.547122767365755e+01  8.658857496519501e-01  -2.547122767365755e+01  3.295229390690014e-01  65.9052292906186    
6.000000000000000e+00  3.493153183332853e-01  6.425795410267708e+01  8.537193718930791e-01  -2.748914896881050e+01  8.537193718930791e-01  -2.748914896881050e+01  3.576150608033246e-01  64.0985202441126    
6.500000000000000e+00  3.761047708424777e-01  6.237889952159369e+01  8.412448365890957e-01  -2.948092463541413e+01  8.412448365890957e-01  -2.948092463541413e+01  3.848040054587445e-01  62.2868115797988    
7.000000000000000e+00  4.019637937105980e-01  6.050234173620847e+01  8.283967889375197e-01  -3.144364999975691e+01  8.283967889375197e-01  -3.144364999975691e+01  4.110434476208346e-01  60.4738799809343    
7.500000000000001e+00  4.267894514564868e-01  5.863157775449242e+01  8.151388611859763e-01  -3.337088457629524e+01  8.151388611859763e-01  -3.337088457629524e+01  4.362490618294000e-01  58.6641882321644    
8.000000000000000e+00  4.507576135949287e-01  5.678855949256251e+01  8.016310332371308e-01  -3.527250468217877e+01  8.016310332371308e-01  -3.527250468217877e+01  4.605554415917065e-01  56.8787009390355    
8.500000000000000e+00  4.737887854161195e-01  5.497025760533237e+01  7.878456338728839e-01  -3.714304290712285e+01  7.878456338728839e-01  -3.714304290712285e+01  4.839017250731346e-01  55.1153634926302    
9.000000000000000e+00  4.958909155549839e-01  5.317978377064880e+01  7.738196758323290e-01  -3.898201461621812e+01  7.738196758323290e-01  -3.898201461621812e+01  5.062950426511073e-01  53.3775863133317    
9.500000000000000e+00  5.169658733703868e-01  5.141517472620395e+01  7.595458163615576e-01  -4.078160233714980e+01  7.595458163615576e-01  -4.078160233714980e+01  5.276541535354728e-01  51.6646243989758    
1.000000000000000e+01  5.372394603725723e-01  4.968631220431071e+01  7.451535852320743e-01  -4.255571739936976e+01  7.451535852320743e-01  -4.255571739936976e+01  5.481696934977989e-01  49.9847439780311    
1.050000000000000e+01  5.577127074754782e-01  4.791722343238668e+01  7.299682260986486e-01  -4.438426180811239e+01  7.299682260986486e-01  -4.438426180811239e+01  5.688607695081496e-01  48.2638547957767    
1.100000000000000e+01  5.762425153904144e-01  4.625077340704709e+01  7.153074905632201e-01  -4.609638902769770e+01  7.153074905632201e-01  -4.609638902769770e+01  5.875810482452085e-01  46.6432651271188    
1.150000000000000e+01  5.937556858821635e-01  4.461834219855783e+01  7.005884828349032e-01  -4.776305014729532e+01  7.005884828349032e-01  -4.776305014729532e+01  6.052743924759371e-01  45.0564394354374    
1.200000000000000e+01  6.106080462535513e-01  4.301796631162139e+01  6.858417567743759e-01  -4.941006927688367e+01  6.858417567743759e-01  -4.941006927688367e+01  6.222667297182751e-01  43.4995036203384    
1.250000000000000e+01  6.266617391577591e-01  4.145011587125907e+01  6.710935793374675e-01  -5.102541587622004e+01  6.710935793374675e-01  -5.102541587622004e+01  6.384353562579591e-01  41.9740054774889    
1.300000000000000e+01  6.419424832971005e-01  3.991442195907322e+01  6.563701728086341e-01  -5.260952202348303e+01  6.563701728086341e-01  -5.260952202348303e+01  6.538062963181792e-01  40.4796622382976    
1.350000000000000e+01  6.563125079354143e-01  3.841335688634695e+01  6.417203412911530e-01  -5.414874024694176e+01  6.417203412911530e-01  -5.414874024694176e+01  6.682549777902197e-01  39.0201169407098    
1.400000000000000e+01  6.701233863762668e-01  3.694086497932584e+01  6.271210540683632e-01  -5.567126591247058e+01  6.271210540683632e-01  -5.567126591247058e+01  6.821077826055013e-01  37.5872386000802    
1.450000000000000e+01  6.832418280721931e-01  3.549887690589619e+01  6.126116234658467e-01  -5.716424525824608e+01  6.126116234658467e-01  -5.716424525824608e+01  6.952446517466724e-01  36.1840541023142    
1.500000000000000e+01  6.956947769713026e-01  3.408672362262489e+01  5.982093622613345e-01  -5.862834283703648e+01  5.982093622613345e-01  -5.862834283703648e+01  7.076930271919266e-01  34.8099415575492    
1.550000000000000e+01  7.075089889482602e-01  3.270369833204290e+01  5.839295811585873e-01  -6.006425997399949e+01  5.839295811585873e-01  -6.006425997399949e+01  7.194801881410657e-01  33.4642346427048    
1.600000000000000e+01  7.185522340938640e-01  3.135399804381869e+01  5.698390175768355e-01  -6.145707141193298e+01  5.698390175768355e-01  -6.145707141193298e+01  7.304854789947522e-01  32.1523161026777    
1.650000000000000e+01  7.291664810489858e-01  3.002729565522560e+01  5.558471950981749e-01  -6.283828075670822e+01  5.558471950981749e-01  -6.283828075670822e+01  7.410293312910022e-01  30.8616286653471    
1.700000000000000e+01  7.392200334117516e-01  2.872745696227584e+01  5.420129376432609e-01  -6.419356984869123e+01  5.420129376432609e-01  -6.419356984869123e+01  7.509916543004869e-01  29.597170897213     
1.750000000000000e+01  7.487376299919580e-01  2.745370705218352e+01  5.283447596192868e-01  -6.552372433107766e+01  5.283447596192868e-01  -6.552372433107766e+01  7.603977508340626e-01  28.3581889199164    