
!*************************************************************************
!! ASITIC Ver 10.20.99.0.0.0
!!  Data generated by the <2Port> command in <slow> mode.
!! Generated on Thu Apr 11 17:21:13 1974
!# Spiral Data:	Name = <TS_180>, Transformer
!# L1 = 180.00, L2 = 180.00, Origin = <100.00,100.00>
!# Sides =   4, Metal =   4, Exit Metal =   3
!# W =  8.00, S = 14.00, N =  2.00
!# Theta =  0.00, Phase =   1
!# Technolog File Data <CMOS.tek> @ <.>
!# Auto-Cell Mode:  <alpha> = 0.050000, <beta> = 0.800000
!# Metal Layers
!# Name=M1        Met=0  Lyr=  1  Mz=48.70  T=0.50  RS=0.07  Col=YELLOW  
!# Name=M2        Met=1  Lyr=  1  Mz=47.60  T=0.50  RS=0.06  Col=LIGHTSKYBLUE1
!# Name=M3        Met=2  Lyr=  1  Mz=46.50  T=0.50  RS=0.06  Col=MEDIUM PURPLE
!# Name=M4        Met=3  Lyr=  1  Mz=45.50  T=0.50  RS=0.06  Col=LIGHT GREEN
!# Name=M5        Met=4  Lyr=  1  Mz=44.00  T=1.00  RS=0.03  Col=GREY    
!# Substrate Layers
!# Lyr=    0  Eps=  12  Rho=  10  DZ=7.5e+02  T=7e+02
!# Lyr=    1  Eps= 3.9  Rho=1e+14  DZ=  50  T=  50
!*************************************************************************
# GHZ S MA S11 mag    S11 phase  S12 mag    S12 phase  S21 mag    S21 phase  S22 mag    S22 phase  
1.000000000000000e+00  7.010519864298502e-02  4.163951480655364e+01  9.501241968290175e-01  -5.334215953933231e+00  9.501241968290175e-01  -5.334215953933231e+00  7.254768935859982e-02  43.199719932055     
1.500000000000000e+00  9.051769213621347e-02  5.016417032190798e+01  9.482721983360348e-01  -7.989570639377789e+00  9.482721983360348e-01  -7.989570639377789e+00  9.419423864311448e-02  51.6447382754976    
2.000000000000000e+00  1.129567631227149e-01  5.431074814450466e+01  9.456524187078392e-01  -1.063925596575153e+01  9.456524187078392e-01  -1.063925596575153e+01  1.178106410115827e-01  55.8151518461706    
2.500000000000000e+00  1.360963000093314e-01  5.611063855462812e+01  9.423578148355702e-01  -1.327168739969783e+01  9.423578148355702e-01  -1.327168739969783e+01  1.420928177235500e-01  57.6976514402904    
3.000000000000000e+00  1.592899056645257e-01  5.659636722510363e+01  9.385048858669158e-01  -1.587782764927563e+01  9.385048858669158e-01  -1.587782764927563e+01  1.663771867529670e-01  58.293233181688     
3.500000000000000e+00  1.824236975359495e-01  5.626153382004242e+01  9.340234081643947e-01  -1.846682361372477e+01  9.340234081643947e-01  -1.846682361372477e+01  1.905781552221955e-01  58.1002237023037    
4.000000000000000e+00  2.051435417344305e-01  5.543159019566166e+01  9.291043794076552e-01  -2.102456486197084e+01  9.291043794076552e-01  -2.102456486197084e+01  2.143001914784775e-01  57.4189874603679    
4.500000000000000e+00  2.275150154678237e-01  5.424623453585957e+01  9.236595896179726e-01  -2.356116467342541e+01  9.236595896179726e-01  -2.356116467342541e+01  2.376377392770918e-01  56.3994055853079    
5.000000000000000e+00  2.492809485494053e-01  5.284576894530304e+01  9.178927978451618e-01  -2.606294403249329e+01  9.178927978451618e-01  -2.606294403249329e+01  2.602950764272668e-01  55.1652884260843    
5.500000000000000e+00  2.705490802914948e-01  5.127104448189683e+01  9.117106141485404e-01  -2.853989176412461e+01  9.117106141485404e-01  -2.853989176412461e+01  2.824074969034248e-01  53.7679721520631    
6.000000000000000e+00  2.911348289164148e-01  4.959793363642304e+01  9.053079657102381e-01  -3.098065655572644e+01  9.053079657102381e-01  -3.098065655572644e+01  3.037557711133716e-01  52.270313641822     
6.500000000000000e+00  3.110845224397916e-01  4.784647573210398e+01  8.986656108095954e-01  -3.338968049680858e+01  8.986656108095954e-01  -3.338968049680858e+01  3.243980929369303e-01  50.6970458178459    
7.000000000000000e+00  3.304472822509539e-01  4.602769146554449e+01  8.917499029852407e-01  -3.577153622180617e+01  8.917499029852407e-01  -3.577153622180617e+01  3.443940695939482e-01  49.0639928939598    
7.500000000000001e+00  3.490757359228928e-01  4.418483700427667e+01  8.847600876603748e-01  -3.811576856938231e+01  8.847600876603748e-01  -3.811576856938231e+01  3.635676637694575e-01  47.4031449772181    
8.000000000000000e+00  3.670333518413405e-01  4.231850573297167e+01  8.776636693312976e-01  -4.042731663234584e+01  8.776636693312976e-01  -4.042731663234584e+01  3.819937289218676e-01  45.7199242347104    
8.500000000000000e+00  3.843416411103024e-01  4.042980579130717e+01  8.704432349374052e-01  -4.270862683643179e+01  8.704432349374052e-01  -4.270862683643179e+01  3.997027166357402e-01  44.0203669482017    
9.000000000000000e+00  4.009572160315402e-01  3.854378323050273e+01  8.632468577311943e-01  -4.495497728154285e+01  8.632468577311943e-01  -4.495497728154285e+01  4.166289119988241e-01  42.3190116533743    
9.500000000000000e+00  4.169112776351543e-01  3.665753875633443e+01  8.560544914979661e-01  -4.716917345065159e+01  8.560544914979661e-01  -4.716917345065159e+01  4.328135755009679e-01  40.6177607187115    
1.000000000000000e+01  4.322132174451209e-01  3.477550897382509e+01  8.488977502742781e-01  -4.935165267246572e+01  8.488977502742781e-01  -4.935165267246572e+01  4.482656400263118e-01  38.9208766834271    
1.050000000000000e+01  4.469158488609830e-01  3.289172711291126e+01  8.417346199545380e-01  -5.150674020522296e+01  8.417346199545380e-01  -5.150674020522296e+01  4.630426308098258e-01  37.2273127127508    
1.100000000000000e+01  4.615688329076525e-01  3.103639427704021e+01  8.347529249395570e-01  -5.367081998059298e+01  8.347529249395570e-01  -5.367081998059298e+01  4.776894343487738e-01  35.5521334486333    
1.150000000000000e+01  4.750110383935182e-01  2.918321618604608e+01  8.278635884496928e-01  -5.576363327846167e+01  8.278635884496928e-01  -5.576363327846167e+01  4.910383694319009e-01  33.883748009571     
1.200000000000000e+01  4.877668121125546e-01  2.734042890383591e+01  8.210968569304287e-01  -5.782228316747504e+01  8.210968569304287e-01  -5.782228316747504e+01  5.036244281164605e-01  32.2310196357282    
1.250000000000000e+01  5.000268857467572e-01  2.551559054177751e+01  8.145029121090489e-01  -5.985751158848861e+01  8.145029121090489e-01  -5.985751158848861e+01  5.156298322887303e-01  30.5904230775047    
1.300000000000000e+01  5.117233914567435e-01  2.370603139111591e+01  8.080838016607949e-01  -6.186540958577402e+01  8.080838016607949e-01  -6.186540958577402e+01  5.269921431916844e-01  28.9646009508532    
1.350000000000000e+01  5.228738873907655e-01  2.191216648578780e+01  8.018552281627040e-01  -6.384692475452613e+01  8.018552281627040e-01  -6.384692475452613e+01  5.377295572749353e-01  27.3538911222697    
1.400000000000000e+01  5.334031336008397e-01  2.013264291008614e+01  7.958270958544231e-01  -6.579740602697213e+01  7.958270958544231e-01  -6.579740602697213e+01  5.477666064866623e-01  25.7620924878357    
1.450000000000000e+01  5.435122077047843e-01  1.837072525036858e+01  7.900205704926525e-01  -6.772894059223023e+01  7.900205704926525e-01  -6.772894059223023e+01  5.573058830018220e-01  24.1821200451482    
1.500000000000000e+01  5.531280272217003e-01  1.662454946219420e+01  7.844412734869228e-01  -6.963712740817181e+01  7.844412734869228e-01  -6.963712740817181e+01  5.662751909618461e-01  22.6171009248328    
1.550000000000000e+01  5.622675899849803e-01  1.489384310211001e+01  7.790983969838970e-01  -7.152301497912988e+01  7.790983969838970e-01  -7.152301497912988e+01  5.746923367219364e-01  21.0666993289546    
1.600000000000000e+01  5.708581114941033e-01  1.317749417597751e+01  7.739995387533867e-01  -7.338202823629656e+01  7.739995387533867e-01  -7.338202823629656e+01  5.824810414887595e-01  19.5352010669589    
1.650000000000000e+01  5.790928300165424e-01  1.147667222271277e+01  7.691528139801266e-01  -7.522635556520800e+01  7.691528139801266e-01  -7.522635556520800e+01  5.898428014383346e-01  18.0129497383301    
1.700000000000000e+01  5.868992998563984e-01  9.789957814824783e+00  7.645627363685272e-01  -7.705157877078226e+01  7.645627363685272e-01  -7.705157877078226e+01  5.967028127613312e-01  16.5037725176418    
1.750000000000000e+01  5.942921962769934e-01  8.116767902345764e+00  7.602339979358561e-01  -7.885876170730468e+01  7.602339979358561e-01  -7.885876170730468e+01  6.030765601979502e-01  15.0070276527764    