
!*************************************************************************
!! ASITIC Ver 10.20.99.0.0.0
!!  Data generated by the <2Port> command in <slow> mode.
!! Generated on Thu Apr 11 17:21:13 1974
!# Spiral Data:	Name = <TS_250>, Transformer
!# L1 = 250.00, L2 = 250.00, Origin = <100.00,100.00>
!# Sides =   4, Metal =   4, Exit Metal =   3
!# W = 10.00, S = 16.00, N =  3.00
!# Theta =  0.00, Phase =   1
!# Technolog File Data <CMOS.tek> @ <.>
!# Auto-Cell Mode:  <alpha> = 0.050000, <beta> = 0.800000
!# Metal Layers
!# Name=M1        Met=0  Lyr=  1  Mz=48.70  T=0.50  RS=0.07  Col=YELLOW  
!# Name=M2        Met=1  Lyr=  1  Mz=47.60  T=0.50  RS=0.06  Col=LIGHTSKYBLUE1
!# Name=M3        Met=2  Lyr=  1  Mz=46.50  T=0.50  RS=0.06  Col=MEDIUM PURPLE
!# Name=M4        Met=3  Lyr=  1  Mz=45.50  T=0.50  RS=0.06  Col=LIGHT GREEN
!# Name=M5        Met=4  Lyr=  1  Mz=44.00  T=1.00  RS=0.03  Col=GREY    
!# Substrate Layers
!# Lyr=    0  Eps=  12  Rho=  10  DZ=7.5e+02  T=7e+02
!# Lyr=    1  Eps= 3.9  Rho=1e+14  DZ=  50  T=  50
!*************************************************************************
# GHZ S MA S11 mag    S11 phase  S12 mag    S12 phase  S21 mag    S21 phase  S22 mag    S22 phase  
1.000000000000000e+00  1.354686707996189e-01  4.823456074319100e+01  9.237908447719148e-01  -1.158459832457011e+01  9.237908447719148e-01  -1.158459832457011e+01  1.395536545315737e-01  49.5609866816881    
1.500000000000000e+00  1.861993110727568e-01  5.144400323019502e+01  9.153419854483550e-01  -1.727049430231789e+01  9.153419854483550e-01  -1.727049430231789e+01  1.921656504987296e-01  52.9186048715899    
2.000000000000000e+00  2.367885986123953e-01  5.077293665010171e+01  9.042850559711579e-01  -2.283208236848473e+01  9.042850559711579e-01  -2.283208236848473e+01  2.444359691736832e-01  52.4714180804379    
2.500000000000000e+00  2.853998159084856e-01  4.840126301490694e+01  8.910682987957035e-01  -2.825274567328116e+01  8.910682987957035e-01  -2.825274567328116e+01  2.945215734770064e-01  50.3688889049704    
3.000000000000000e+00  3.310891944325974e-01  4.522883929282600e+01  8.763414734850944e-01  -3.351116371306549e+01  8.763414734850944e-01  -3.351116371306549e+01  3.414362512151688e-01  47.4852442598514    
3.500000000000000e+00  3.734122907309098e-01  4.167722996178706e+01  8.607283807306642e-01  -3.859453471283535e+01  8.607283807306642e-01  -3.859453471283535e+01  3.847051293970451e-01  44.229260095205     
4.000000000000000e+00  4.123327828483272e-01  3.793518347468260e+01  8.445687322241756e-01  -4.350712764738897e+01  8.445687322241756e-01  -4.350712764738897e+01  4.242976176489830e-01  40.7936026904316    
4.500000000000000e+00  4.478189853691249e-01  3.413120195438765e+01  8.283601450094787e-01  -4.824702451381403e+01  8.283601450094787e-01  -4.824702451381403e+01  4.601641975209615e-01  37.2991482744387    
5.000000000000000e+00  4.799509591357907e-01  3.033901419670347e+01  8.125149940609783e-01  -5.281635059644289e+01  8.125149940609783e-01  -5.281635059644289e+01  4.923803472862445e-01  33.8141812721018    
5.500000000000000e+00  5.089647691661092e-01  2.658011980223813e+01  7.971795689376079e-01  -5.722837699320166e+01  7.971795689376079e-01  -5.722837699320166e+01  5.211946270104747e-01  30.3663353455594    
6.000000000000000e+00  5.350193777991239e-01  2.288983396689679e+01  7.826877800713342e-01  -6.148796487237925e+01  7.826877800713342e-01  -6.148796487237925e+01  5.467648912270286e-01  26.9826584905335    
6.500000000000000e+00  5.583740074535575e-01  1.926512511948279e+01  7.690825870319111e-01  -6.561022112837270e+01  7.690825870319111e-01  -6.561022112837270e+01  5.693605399906705e-01  23.6663770304716    
7.000000000000000e+00  5.792112946901773e-01  1.572222678825128e+01  7.565872547664757e-01  -6.960206695305841e+01  7.565872547664757e-01  -6.960206695305841e+01  5.891725108944765e-01  20.4261690169204    
7.500000000000001e+00  5.977603699584105e-01  1.225452277956347e+01  7.452224761933518e-01  -7.347715164863915e+01  7.452224761933518e-01  -7.347715164863915e+01  6.064389983772273e-01  17.2581574571046    
8.000000000000000e+00  6.142227316266200e-01  8.853722250972561e+00  7.349878631886754e-01  -7.724867071606681e+01  7.349878631886754e-01  -7.724867071606681e+01  6.213632668561097e-01  14.1570167808121    
8.500000000000000e+00  6.287574068146732e-01  5.525754297663524e+00  7.260032918913649e-01  -8.092386432580456e+01  7.260032918913649e-01  -8.092386432580456e+01  6.341234616684021e-01  11.1213076634469    
9.000000000000000e+00  6.415143242587659e-01  2.257473583577294e+00  7.182127406483654e-01  -8.451500662071551e+01  7.182127406483654e-01  -8.451500662071551e+01  6.448646372502984e-01  8.14408942723152    
9.500000000000000e+00  6.526688462046708e-01  -9.529520688235092e-01  7.116425785369672e-01  -8.803301232924944e+01  7.116425785369672e-01  -8.803301232924944e+01  6.537836300953501e-01  5.21640926841405    
1.000000000000000e+01  6.623236233828017e-01  -4.114163044781774e+00  7.062625523195485e-01  -9.148727085644403e+01  7.062625523195485e-01  -9.148727085644403e+01  6.609840014430058e-01  2.33234272873984    
1.050000000000000e+01  6.705738317306229e-01  -7.236206429181893e+00  7.020278289828719e-01  -9.488849206079405e+01  7.020278289828719e-01  -9.488849206079405e+01  6.665535527714233e-01  -0.515512224873502  
1.100000000000000e+01  6.779065396579118e-01  -1.032938971886645e+01  6.990288607979130e-01  -9.827749587852199e+01  6.990288607979130e-01  -9.827749587852199e+01  6.710141711439120e-01  -3.34751885325111   
1.150000000000000e+01  6.836006028197850e-01  -1.338332582404224e+01  6.971038420564128e-01  -1.015943154348759e+02  6.971038420564128e-01  -1.015943154348759e+02  6.736334248313055e-01  -6.14448865364808   
1.200000000000000e+01  6.880449094724133e-01  -1.641195944109298e+01  6.962722808528815e-01  -1.048768481502048e+02  6.962722808528815e-01  -1.048768481502048e+02  6.747960769787301e-01  -8.92072286071049   
1.250000000000000e+01  6.913948735923839e-01  -1.942375290658686e+01  6.964988961938785e-01  -1.081410664822426e+02  6.964988961938785e-01  -1.081410664822426e+02  6.746901703246159e-01  -11.6920184706358   
1.300000000000000e+01  6.936203011005700e-01  -2.242300704606508e+01  6.977546645167904e-01  -1.113895656919148e+02  6.977546645167904e-01  -1.113895656919148e+02  6.732802738099537e-01  -14.4601373190109   
1.350000000000000e+01  6.946855938805417e-01  -2.541314328652766e+01  7.000054121881373e-01  -1.146249990734242e+02  7.000054121881373e-01  -1.146249990734242e+02  6.705206527076285e-01  -17.2260249363756   
1.400000000000000e+01  6.946984944603657e-01  -2.840254037399651e+01  7.032178620145529e-01  -1.178612056543198e+02  7.032178620145529e-01  -1.178612056543198e+02  6.665608926880513e-01  -20.0054755175849   
1.450000000000000e+01  6.936027374880679e-01  -3.139421593280973e+01  7.073564913252463e-01  -1.211001176472114e+02  7.073564913252463e-01  -1.211001176472114e+02  6.613375720854565e-01  -22.7992681345613   
1.500000000000000e+01  6.832881529129545e-01  -3.450359265877923e+01  7.202493042545699e-01  -1.244442171152969e+02  7.202493042545699e-01  -1.244442171152969e+02  6.461470403836203e-01  -25.2415044776496   
1.550000000000000e+01  6.800905326154986e-01  -3.754841135965516e+01  7.263552584321427e-01  -1.277291635219419e+02  7.263552584321427e-01  -1.277291635219419e+02  6.379908326915491e-01  -27.9969624662668   
1.600000000000000e+01  6.570892617531257e-01  -4.043120541676764e+01  7.444227991785388e-01  -1.309859792922753e+02  7.444227991785388e-01  -1.309859792922753e+02  6.140100510242567e-01  -31.182800403413    
1.650000000000000e+01  6.504258023988575e-01  -4.353007703097621e+01  7.524965084188215e-01  -1.343371547359139e+02  7.524965084188215e-01  -1.343371547359139e+02  6.021719917905336e-01  -33.9660802664343   
1.700000000000000e+01  6.426765247132888e-01  -4.665285650879319e+01  7.611715645951291e-01  -1.377135704928225e+02  7.611715645951291e-01  -1.377135704928225e+02  5.889206663437122e-01  -36.7633419237085   
1.750000000000000e+01  6.339766914048691e-01  -4.980622355245485e+01  7.703944220212122e-01  -1.411222119692196e+02  7.703944220212122e-01  -1.411222119692196e+02  5.743678185720701e-01  -39.5810228607422   