
!*************************************************************************
!! ASITIC Ver 10.20.99.0.0.0
!!  Data generated by the <2Port> command in <slow> mode.
!! Generated on Thu Apr 11 17:21:13 1974
!# Spiral Data:	Name = <TP_200>, Transformer
!# L1 = 200.00, L2 = 200.00, Origin = <111.00,119.00>
!# Sides =   4, Metal =   4, Exit Metal =   3
!# W =  8.00, S = 14.00, N =  3.00
!# Theta =  0.00, Phase =   1
!# Technolog File Data <CMOS.tek> @ <.>
!# Auto-Cell Mode:  <alpha> = 0.050000, <beta> = 0.800000
!# Metal Layers
!# Name=M1        Met=0  Lyr=  1  Mz=48.70  T=0.50  RS=0.07  Col=YELLOW  
!# Name=M2        Met=1  Lyr=  1  Mz=47.60  T=0.50  RS=0.06  Col=LIGHTSKYBLUE1
!# Name=M3        Met=2  Lyr=  1  Mz=46.50  T=0.50  RS=0.06  Col=MEDIUM PURPLE
!# Name=M4        Met=3  Lyr=  1  Mz=45.50  T=0.50  RS=0.06  Col=LIGHT GREEN
!# Name=M5        Met=4  Lyr=  1  Mz=44.00  T=1.00  RS=0.03  Col=GREY    
!# Substrate Layers
!# Lyr=    0  Eps=  12  Rho=  10  DZ=7.5e+02  T=7e+02
!# Lyr=    1  Eps= 3.9  Rho=1e+14  DZ=  50  T=  50
!*************************************************************************
# GHZ S MA S11 mag    S11 phase  S12 mag    S12 phase  S21 mag    S21 phase  S22 mag    S22 phase  
1.000000000000000e+00  1.154499644301188e-01  4.522759185601328e+01  9.267263980349068e-01  -8.716775423949425e+00  9.267263980349068e-01  -8.716775423949425e+00  1.183366885913867e-01  46.2759890861797    
1.500000000000000e+00  1.546246479986169e-01  5.107048208311884e+01  9.213374267259158e-01  -1.302251121800858e+01  9.213374267259158e-01  -1.302251121800858e+01  1.588227621780973e-01  52.1430556882868    
2.000000000000000e+00  1.954582116778310e-01  5.262262578165582e+01  9.139673325329319e-01  -1.727499105188397e+01  9.139673325329319e-01  -1.727499105188397e+01  2.008822828808929e-01  53.8090731475157    
2.500000000000000e+00  2.359256502943522e-01  5.212842044651891e+01  9.049381829481358e-01  -2.145170421698448e+01  9.049381829481358e-01  -2.145170421698448e+01  2.424909888726674e-01  53.4673096783234    
3.000000000000000e+00  2.750832705756617e-01  5.058237081719951e+01  8.946145678069872e-01  -2.553665379839993e+01  8.946145678069872e-01  -2.553665379839993e+01  2.826796849453421e-01  52.0889334674938    
3.500000000000000e+00  3.126125097008416e-01  4.842731174481640e+01  8.831062804912799e-01  -2.953044445232809e+01  8.831062804912799e-01  -2.953044445232809e+01  3.211414873405407e-01  50.1194626763411    
4.000000000000000e+00  3.481200210696820e-01  4.595064426982009e+01  8.708696776422743e-01  -3.341849831830847e+01  8.708696776422743e-01  -3.341849831830847e+01  3.574473723950580e-01  47.8306164548327    
4.500000000000000e+00  3.815992219024377e-01  4.326913419600349e+01  8.579749062719234e-01  -3.720608504748704e+01  8.579749062719234e-01  -3.720608504748704e+01  3.916061614296833e-01  45.3464382321848    
5.000000000000000e+00  4.128764424861990e-01  4.049968396904924e+01  8.448421455588403e-01  -4.088354929611193e+01  8.448421455588403e-01  -4.088354929611193e+01  4.234186723676007e-01  42.7731364608629    
5.500000000000000e+00  4.420547388190185e-01  3.767365358846330e+01  8.315014055628781e-01  -4.445861779976292e+01  8.315014055628781e-01  -4.445861779976292e+01  4.530035981612377e-01  40.1496282417357    
6.000000000000000e+00  4.691010032327238e-01  3.484919362037341e+01  8.182986787436193e-01  -4.792707239523957e+01  8.182986787436193e-01  -4.792707239523957e+01  4.803104460941657e-01  37.5251105908914    
6.500000000000000e+00  4.941287926684649e-01  3.203872085627607e+01  8.053046337986420e-01  -5.129511745826437e+01  8.053046337986420e-01  -5.129511745826437e+01  5.054615577441904e-01  34.915461261369     
7.000000000000000e+00  5.172526803116683e-01  2.924790685630584e+01  7.925637771490674e-01  -5.456908219041900e+01  7.925637771490674e-01  -5.456908219041900e+01  5.285767330674309e-01  32.3299959002606    
7.500000000000001e+00  5.385179112242443e-01  2.650475321459642e+01  7.803405584758639e-01  -5.774816572224115e+01  7.803405584758639e-01  -5.774816572224115e+01  5.496943543270474e-01  29.7885883327167    
8.000000000000000e+00  5.580616135539261e-01  2.380541760802921e+01  7.686378689193926e-01  -6.084002108398516e+01  7.686378689193926e-01  -6.084002108398516e+01  5.689588977364144e-01  27.2909634234924    
8.500000000000000e+00  5.759766211895241e-01  2.114756029773998e+01  7.574753520924358e-01  -6.384964094898720e+01  7.574753520924358e-01  -6.384964094898720e+01  5.864664005742223e-01  24.8384433218492    
9.000000000000000e+00  5.923949767573623e-01  1.854233766814641e+01  7.469910809213097e-01  -6.678245343088017e+01  7.469910809213097e-01  -6.678245343088017e+01  6.023493062155787e-01  22.4344851165294    
9.500000000000000e+00  6.074078730349908e-01  1.598407106060047e+01  7.371758958284779e-01  -6.964384551070297e+01  7.371758958284779e-01  -6.964384551070297e+01  6.167033948516737e-01  20.0769435107107    
1.000000000000000e+01  6.211121929614533e-01  1.347134773213540e+01  7.280545508058073e-01  -7.243913013909480e+01  7.280545508058073e-01  -7.243913013909480e+01  6.296282714752145e-01  17.7642782813946    
1.050000000000000e+01  6.335977320958360e-01  1.099645630665477e+01  7.195900890745879e-01  -7.517479820207714e+01  7.195900890745879e-01  -7.517479820207714e+01  6.412101634643894e-01  15.49240719418      
1.100000000000000e+01  6.454888965612274e-01  8.560558979785300e+00  7.118577142824826e-01  -7.789827914824542e+01  7.118577142824826e-01  -7.789827914824542e+01  6.520899270069394e-01  13.2521769776899    
1.150000000000000e+01  6.557856759495324e-01  6.169460794983424e+00  7.048926510687726e-01  -8.052704620425123e+01  7.048926510687726e-01  -8.052704620425123e+01  6.612576686905973e-01  11.0584915170942    
1.200000000000000e+01  6.649998749899392e-01  3.814491266403632e+00  6.986593737260384e-01  -8.310268581108163e+01  6.986593737260384e-01  -8.310268581108163e+01  6.692245031423780e-01  8.90372482667767    
1.250000000000000e+01  6.733812795311505e-01  1.490985236986854e+00  6.931349628728236e-01  -8.564359757058099e+01  6.931349628728236e-01  -8.564359757058099e+01  6.762537274685743e-01  6.77548961519552    
1.300000000000000e+01  6.808932672095076e-01  -8.034323041682918e-01  6.883213638202479e-01  -8.814737866515868e+01  6.883213638202479e-01  -8.814737866515868e+01  6.823050453641166e-01  4.67506981637802    
1.350000000000000e+01  6.875856357501622e-01  -3.071841210885635e+00  6.842097980251224e-01  -9.061825901268448e+01  6.842097980251224e-01  -9.061825901268448e+01  6.874295963208100e-01  2.59929593371698    
1.400000000000000e+01  6.934171327626077e-01  -5.315518854124711e+00  6.808008081565539e-01  -9.305362906460262e+01  6.808008081565539e-01  -9.305362906460262e+01  6.915763905924498e-01  0.550697486156426   
1.450000000000000e+01  6.985956024013050e-01  -7.540807656764332e+00  6.780616784456923e-01  -9.547061603656452e+01  6.780616784456923e-01  -9.547061603656452e+01  6.949746075239149e-01  -1.4848496540559    
1.500000000000000e+01  7.030686890531190e-01  -9.749050649432874e+00  6.759918494288043e-01  -9.786635800561146e+01  6.759918494288043e-01  -9.786635800561146e+01  6.975631834469989e-01  -3.50498517108711   
1.550000000000000e+01  7.068637823821117e-01  -1.194310060626281e+01  6.745794928835260e-01  -1.002444146537207e+02  6.745794928835260e-01  -1.002444146537207e+02  6.993701619966135e-01  -5.51265231752664   
1.600000000000000e+01  7.099301412465733e-01  -1.412356224694200e+01  6.738182876133345e-01  -1.026022544629584e+02  6.738182876133345e-01  -1.026022544629584e+02  7.003310166740748e-01  -7.50497061546389   
1.650000000000000e+01  7.124327741492916e-01  -1.629726800910749e+01  6.736834888967183e-01  -1.049550054782118e+02  6.736834888967183e-01  -1.049550054782118e+02  7.006385505879682e-01  -9.49595394086576   
1.700000000000000e+01  7.143120761035484e-01  -1.846484150458143e+01  6.741697400904046e-01  -1.072999128845357e+02  6.741697400904046e-01  -1.072999128845357e+02  7.002203678917307e-01  -11.482813525798    
1.750000000000000e+01  7.155779888428724e-01  -2.062880477995942e+01  6.752648708338770e-01  -1.096400025152885e+02  6.752648708338770e-01  -1.096400025152885e+02  6.990866131984492e-01  -13.4681675569796   