
!*************************************************************************
!! ASITIC Ver 10.20.99.0.0.0
!!  Data generated by the <2Port> command in <slow> mode.
!! Generated on Thu Apr 11 17:21:13 1974
!# Spiral Data:	Name = <W1>, Wire
!# L1 = 50.00, Origin = <100.00,100.00>
!# Sides =   1, Metal =   0, Exit Metal =  -1
!# W =  5.00, S =  0.00, N =  0.25
!# Theta =  0.00, Phase =   1
!# Technolog File Data <BiCMOS.tek> @ <.>
!# Auto-Cell Mode:  <alpha> = 0.050000, <beta> = 0.800000
!# Metal Layers
!# Name=MSUB      Met=0  Lyr=  1  Mz=50.00  T=0.40  RS=0.04  Col=BLUE    
!# Name=M2        Met=1  Lyr=  2  Mz=47.00  T=0.80  RS=0.05  Col=GREEN   
!# Name=M3        Met=2  Lyr=  2  Mz=45.00  T=2.00  RS=0.02  Col=RED     
!# Substrate Layers
!# Lyr=    0  Eps=  12  Rho=1e+05  DZ=8.5e+02  T=8e+02
!# Lyr=    1  Eps=  12  Rho=1e+03  DZ=  52  T=   2
!# Lyr=    2  Eps=   4  Rho=1e+14  DZ=  50  T=  50
!*************************************************************************
# GHZ S MA S11 mag    S11 phase  S12 mag    S12 phase  S21 mag    S21 phase  S22 mag    S22 phase  
1.000000000000000e+00  8.778270275057366e-02  -1.788291056708781e+02  9.508255317623163e-01  -2.510909770063281e-01  9.508255317623163e-01  -2.510909770063281e-01  4.189031317315570e-02  179.524027938728    
1.500000000000000e+00  8.788004844745975e-02  -1.782478722894743e+02  9.507919225053665e-01  -3.765437805203208e-01  9.507919225053665e-01  -3.765437805203208e-01  4.193495446269514e-02  179.283993250047    
2.000000000000000e+00  8.800951615583254e-02  -1.776708639247130e+02  9.507390867878636e-01  -5.018335261648520e-01  9.507390867878636e-01  -5.018335261648520e-01  4.199075948913321e-02  179.042690010508    
2.500000000000000e+00  8.817939905722277e-02  -1.771005885304982e+02  9.506757913065575e-01  -6.269892191662745e-01  9.506757913065575e-01  -6.269892191662745e-01  4.206701114466791e-02  178.797897193659    
3.000000000000000e+00  8.838543277232788e-02  -1.765381281641303e+02  9.505989046269319e-01  -7.519466445152663e-01  9.505989046269319e-01  -7.519466445152663e-01  4.215984371170590e-02  178.549548599283    
3.500000000000000e+00  8.861774514499182e-02  -1.759816724676868e+02  9.504997809008482e-01  -8.764266198616383e-01  9.504997809008482e-01  -8.764266198616383e-01  4.225914215971884e-02  178.302630109099    
4.000000000000000e+00  8.889066837356449e-02  -1.754378523809063e+02  9.503940102938924e-01  -1.000806507959331e+00  9.503940102938924e-01  -1.000806507959331e+00  4.238159129873972e-02  178.046959757338    
4.500000000000000e+00  8.919636151538363e-02  -1.749054921707517e+02  9.502753370962351e-01  -1.124870632573026e+00  9.502753370962351e-01  -1.124870632573026e+00  4.251958906557415e-02  177.786282120339    
5.000000000000000e+00  8.953357042411610e-02  -1.743856545969356e+02  9.501441759936590e-01  -1.248587660615303e+00  9.501441759936590e-01  -1.248587660615303e+00  4.267286080462920e-02  177.520131057967    
5.500000000000000e+00  8.989081673986259e-02  -1.738777413262933e+02  9.499910579537842e-01  -1.371860319043418e+00  9.499910579537842e-01  -1.371860319043418e+00  4.283018148030636e-02  177.249084847114    
6.000000000000000e+00  9.028538564176904e-02  -1.733850165745351e+02  9.498346570382927e-01  -1.494755876131505e+00  9.498346570382927e-01  -1.494755876131505e+00  4.301126318874202e-02  176.971649636747    
6.500000000000000e+00  9.070719198009813e-02  -1.729072231319016e+02  9.496671078643457e-01  -1.617218178316264e+00  9.496671078643457e-01  -1.617218178316264e+00  4.320658524615445e-02  176.687795333448    
7.000000000000000e+00  9.115472381451706e-02  -1.724449689672575e+02  9.494889265511252e-01  -1.739226387942493e+00  9.494889265511252e-01  -1.739226387942493e+00  4.341581084204606e-02  176.397261296875    
7.500000000000001e+00  9.162643693389784e-02  -1.719987496187256e+02  9.493006383037794e-01  -1.860762399765516e+00  9.493006383037794e-01  -1.860762399765516e+00  4.363859116157216e-02  176.099839830403    
8.000000000000000e+00  9.211139459767433e-02  -1.715597711082304e+02  9.490915642433395e-01  -1.981061293548435e+00  9.490915642433395e-01  -1.981061293548435e+00  4.386131489863761e-02  175.812035857694    
8.500000000000000e+00  9.262602174106582e-02  -1.711457118650409e+02  9.488835603262906e-01  -2.101529324454251e+00  9.488835603262906e-01  -2.101529324454251e+00  4.410874616080999e-02  175.502013174302    
9.000000000000000e+00  9.316016333579684e-02  -1.707485093821728e+02  9.486670276122542e-01  -2.221483019925413e+00  9.486670276122542e-01  -2.221483019925413e+00  4.436861101986708e-02  175.184828139015    
9.500000000000000e+00  9.371227902944911e-02  -1.703682601236742e+02  9.484424887620974e-01  -2.340914559998318e+00  9.484424887620974e-01  -2.340914559998318e+00  4.464054274577461e-02  174.86046703331     
1.000000000000000e+01  9.428085527058644e-02  -1.700049757879513e+02  9.482104558595007e-01  -2.459818318940335e+00  9.482104558595007e-01  -2.459818318940335e+00  4.492417524937550e-02  174.528961373814    
1.050000000000000e+01  9.486441400865640e-02  -1.696585908568912e+02  9.479714279516612e-01  -2.578190707176951e+00  9.479714279516612e-01  -2.578190707176951e+00  4.521914537643031e-02  174.190384998254    
1.100000000000000e+01  9.544921553225280e-02  -1.693277751289469e+02  9.477140022761175e-01  -2.696069646288889e+00  9.477140022761175e-01  -2.696069646288889e+00  4.551212814490961e-02  173.842252293466    
1.150000000000000e+01  9.605773896829264e-02  -1.690143557964410e+02  9.474616026692504e-01  -2.813354876347519e+00  9.474616026692504e-01  -2.813354876347519e+00  4.582777361958804e-02  173.490184392547    
1.200000000000000e+01  9.667709452234048e-02  -1.687172382633978e+02  9.472035987594274e-01  -2.930107039682816e+00  9.472035987594274e-01  -2.930107039682816e+00  4.615368676841059e-02  173.131501502483    
1.250000000000000e+01  9.730600843095071e-02  -1.684361267971771e+02  9.469404209990850e-01  -3.046329120614564e+00  9.469404209990850e-01  -3.046329120614564e+00  4.648953437871019e-02  172.766410117903    
1.300000000000000e+01  9.794326762079424e-02  -1.681706861700325e+02  9.466724801420674e-01  -3.162025329614770e+00  9.466724801420674e-01  -3.162025329614770e+00  4.683499404345910e-02  172.395141599096    
1.350000000000000e+01  9.858772157615035e-02  -1.679205483871020e+02  9.464001668910242e-01  -3.277200957146718e+00  9.464001668910242e-01  -3.277200957146718e+00  4.718975505664506e-02  172.017948536568    
1.400000000000000e+01  9.923828333107482e-02  -1.676853189438655e+02  9.461238517728291e-01  -3.391862235604751e+00  9.461238517728291e-01  -3.391862235604751e+00  4.755351908045134e-02  171.635101233285    
1.450000000000000e+01  9.989392968641474e-02  -1.674645825789131e+02  9.458438852116697e-01  -3.506016209839695e+00  9.458438852116697e-01  -3.506016209839695e+00  4.792600060034472e-02  171.246884346047    
1.500000000000000e+01  1.005465603444980e-01  -1.672477479911735e+02  9.455496212083004e-01  -3.618783494445311e+00  9.455496212083004e-01  -3.618783494445311e+00  4.829244630443919e-02  170.870427808534    
1.550000000000000e+01  1.012092715194642e-01  -1.670542548122091e+02  9.452627703819790e-01  -3.731904407868132e+00  9.452627703819790e-01  -3.731904407868132e+00  4.868072935473483e-02  170.472909145176    
1.600000000000000e+01  1.018743679085237e-01  -1.668739311928643e+02  9.449731904689060e-01  -3.844542211259918e+00  9.449731904689060e-01  -3.844542211259918e+00  4.907692751882020e-02  170.070917547322    
1.650000000000000e+01  1.025410714128248e-01  -1.667063256477033e+02  9.446811551020105e-01  -3.956706059408963e+00  9.446811551020105e-01  -3.956706059408963e+00  4.948080726356388e-02  169.664765879947    
1.700000000000000e+01  1.032086607668061e-01  -1.665509869004208e+02  9.443869202578511e-01  -4.068405407327516e+00  9.443869202578511e-01  -4.068405407327516e+00  4.989214777345245e-02  169.2547679324      
1.750000000000000e+01  1.038764691256740e-01  -1.664074666359753e+02  9.440907249711055e-01  -4.179649935433924e+00  9.440907249711055e-01  -4.179649935433924e+00  5.031074056610563e-02  168.841236432511    