
!*************************************************************************
!! ASITIC Ver 10.20.99.0.0.0
!!  Data generated by the <2Port> command in <slow> mode.
!! Generated on Thu Apr 11 17:21:13 1974
!# Spiral Data:	Name = <W1>, Wire
!# L1 = 50.00, Origin = <100.00,100.00>
!# Sides =   1, Metal =   0, Exit Metal =  -1
!# W =  5.00, S =  0.00, N =  0.25
!# Theta =  0.00, Phase =   1
!# Technolog File Data <CMOS.tek> @ <.>
!# Auto-Cell Mode:  <alpha> = 0.050000, <beta> = 0.800000
!# Metal Layers
!# Name=M1        Met=0  Lyr=  1  Mz=48.70  T=0.50  RS=0.07  Col=YELLOW  
!# Name=M2        Met=1  Lyr=  1  Mz=47.60  T=0.50  RS=0.06  Col=LIGHTSKYBLUE1
!# Name=M3        Met=2  Lyr=  1  Mz=46.50  T=0.50  RS=0.06  Col=MEDIUM PURPLE
!# Name=M4        Met=3  Lyr=  1  Mz=45.50  T=0.50  RS=0.06  Col=LIGHT GREEN
!# Name=M5        Met=4  Lyr=  1  Mz=44.00  T=1.00  RS=0.03  Col=GREY    
!# Substrate Layers
!# Lyr=    0  Eps=  12  Rho=  10  DZ=7.5e+02  T=7e+02
!# Lyr=    1  Eps= 3.9  Rho=1e+14  DZ=  50  T=  50
!*************************************************************************
# GHZ S MA S11 mag    S11 phase  S12 mag    S12 phase  S21 mag    S21 phase  S22 mag    S22 phase  
1.000000000000000e+00  6.526278016339805e-03  -8.504543832121112e+00  9.935417486288194e-01  -2.122503901874355e-01  9.935417486288194e-01  -2.122503901874355e-01  6.481141734041417e-03  5.28318430151623    
1.500000000000000e+00  6.612423425940156e-03  -1.264977795878563e+01  9.935396753466260e-01  -3.183550242783147e-01  9.935396753466260e-01  -3.183550242783147e-01  6.511653735457557e-03  7.8985225986761     
2.000000000000000e+00  6.730061511463587e-03  -1.667143358719228e+01  9.935378895299171e-01  -4.244702604877764e-01  9.935378895299171e-01  -4.244702604877764e-01  6.553064018108359e-03  10.4901117848795    
2.500000000000000e+00  6.881262284157964e-03  -2.054635041026961e+01  9.935331079674582e-01  -5.304872156528238e-01  9.935331079674582e-01  -5.304872156528238e-01  6.607975085194781e-03  13.0285749017185    
3.000000000000000e+00  7.059477295009099e-03  -2.423871227460259e+01  9.935292315733485e-01  -6.365711563833323e-01  9.935292315733485e-01  -6.365711563833323e-01  6.672844926034614e-03  15.5378114259545    
3.500000000000000e+00  7.264477929563529e-03  -2.774023913318428e+01  9.935246706494825e-01  -7.426478567774024e-01  9.935246706494825e-01  -7.426478567774024e-01  6.748673935733904e-03  17.9978436732692    
4.000000000000000e+00  7.496135707912976e-03  -3.102350464271616e+01  9.935163568589886e-01  -8.487831349980420e-01  9.935163568589886e-01  -8.487831349980420e-01  6.838372850610704e-03  20.403123850482     
4.500000000000000e+00  7.748661621696153e-03  -3.412225490490871e+01  9.935096605785884e-01  -9.548433754464276e-01  9.935096605785884e-01  -9.548433754464276e-01  6.935691212909818e-03  22.745380411413     
5.000000000000000e+00  8.021548115102006e-03  -3.702305549398104e+01  9.935022293746926e-01  -1.060890810265323e+00  9.935022293746926e-01  -1.060890810265323e+00  7.042771763539997e-03  25.0235541025335    
5.500000000000000e+00  8.312805078156764e-03  -3.973226986322960e+01  9.934940799785883e-01  -1.166924276137052e+00  9.934940799785883e-01  -1.166924276137052e+00  7.159148673612981e-03  27.2349067696894    
6.000000000000000e+00  8.626946838741873e-03  -4.226530916811218e+01  9.934811280055776e-01  -1.272656575174292e+00  9.934811280055776e-01  -1.272656575174292e+00  7.285469349268209e-03  29.327724086572     
6.500000000000000e+00  8.950470515401838e-03  -4.461703754588481e+01  9.934709245448816e-01  -1.378626321375921e+00  9.934709245448816e-01  -1.378626321375921e+00  7.419060688839358e-03  31.3948712407543    
7.000000000000000e+00  9.287327606787927e-03  -4.680725933090164e+01  9.934600187392798e-01  -1.484577175711067e+00  9.934600187392798e-01  -1.484577175711067e+00  7.560492802098149e-03  33.3918186276453    
7.500000000000001e+00  9.636136185896050e-03  -4.884742899645195e+01  9.934484342165207e-01  -1.590508224821970e+00  9.934484342165207e-01  -1.590508224821970e+00  7.709299618342316e-03  35.3189233617288    
8.000000000000000e+00  9.995659986215164e-03  -5.074886961825595e+01  9.934361954581533e-01  -1.696418657343913e+00  9.934361954581533e-01  -1.696418657343913e+00  7.865029398847194e-03  37.1770793652489    
8.500000000000000e+00  1.036502855291605e-02  -5.248864965140595e+01  9.934183948252862e-01  -1.802517349181483e+00  9.934183948252862e-01  -1.802517349181483e+00  8.033369174142171e-03  38.965427461757     
9.000000000000000e+00  1.074290309961525e-02  -5.414347275021098e+01  9.934043778294041e-01  -1.908388434020941e+00  9.934043778294041e-01  -1.908388434020941e+00  8.202106948904683e-03  40.6866568501975    
9.500000000000000e+00  1.112855679898554e-02  -5.569060859630656e+01  9.933897629614248e-01  -2.014235887929205e+00  9.933897629614248e-01  -2.014235887929205e+00  8.376504606409331e-03  42.3437525376239    
1.000000000000000e+01  1.152121741978600e-02  -5.713905763842674e+01  9.933745778984526e-01  -2.120059304719182e+00  9.933745778984526e-01  -2.120059304719182e+00  8.556189240321468e-03  43.9389306986786    
1.050000000000000e+01  1.192019902257344e-02  -5.849711116002269e+01  9.933588504112633e-01  -2.225858386194563e+00  9.933588504112633e-01  -2.225858386194563e+00  8.740811587697697e-03  45.4745505589611    
1.100000000000000e+01  1.233118263389890e-02  -5.976387037546427e+01  9.933377591931191e-01  -2.331379258656113e+00  9.933377591931191e-01  -2.331379258656113e+00  8.930101393849031e-03  46.9110357180409    
1.150000000000000e+01  1.274148618375085e-02  -6.096223394916320e+01  9.933206435796715e-01  -2.437110194683039e+00  9.933206435796715e-01  -2.437110194683039e+00  9.123488425501579e-03  48.3326357996734    
1.200000000000000e+01  1.315648153997021e-02  -6.209107964608791e+01  9.933030599582826e-01  -2.542815816552452e+00  9.933030599582826e-01  -2.542815816552452e+00  9.320883377693646e-03  49.702177092068     
1.250000000000000e+01  1.357573520900973e-02  -6.315615294399154e+01  9.932850357941873e-01  -2.648496243691224e+00  9.932850357941873e-01  -2.648496243691224e+00  9.522028987860141e-03  51.0221487807417    
1.300000000000000e+01  1.399885863284840e-02  -6.416267045371876e+01  9.932665979902253e-01  -2.754151688173291e+00  9.932665979902253e-01  -2.754151688173291e+00  9.726689285527302e-03  52.2949944977044    
1.350000000000000e+01  1.442550261899894e-02  -6.511536581029182e+01  9.932477727935496e-01  -2.859782449635405e+00  9.932477727935496e-01  -2.859782449635405e+00  9.934648562288137e-03  53.5230942201558    
1.400000000000000e+01  1.485535248667567e-02  -6.601853363686126e+01  9.932285857131846e-01  -2.965388909945767e+00  9.932285857131846e-01  -2.965388909945767e+00  1.014571028016257e-02  54.7087507155117    
1.450000000000000e+01  1.528932262503373e-02  -6.685330415512395e+01  9.932030544993556e-01  -3.071056359891618e+00  9.932030544993556e-01  -3.071056359891618e+00  1.036425425636747e-02  55.8310182859042    
1.500000000000000e+01  1.572488778637322e-02  -6.766827681968445e+01  9.931828698530697e-01  -3.176611387195686e+00  9.931828698530697e-01  -3.176611387195686e+00  1.058104389739730e-02  56.9365330305143    
1.550000000000000e+01  1.616288827131618e-02  -6.844438138286165e+01  9.931623899049585e-01  -3.282143243870093e+00  9.931623899049585e-01  -3.282143243870093e+00  1.080043434730891e-02  58.0060013728214    
1.600000000000000e+01  1.660311025924918e-02  -6.918453806695049e+01  9.931416368263836e-01  -3.387652597803232e+00  9.931416368263836e-01  -3.387652597803232e+00  1.102229468131968e-02  59.0413518067143    
1.650000000000000e+01  1.704535819820299e-02  -6.989140377054490e+01  9.931206317653877e-01  -3.493140171163865e+00  9.931206317653877e-01  -3.493140171163865e+00  1.124650766793367e-02  60.0444124153215    
1.700000000000000e+01  1.748945271773646e-02  -7.056739821700597e+01  9.930993948250627e-01  -3.598606734787297e+00  9.930993948250627e-01  -3.598606734787297e+00  1.147296874749789e-02  61.0169119850163    
1.750000000000000e+01  1.793522881253086e-02  -7.121472748041298e+01  9.930779450501757e-01  -3.704053102718448e+00  9.930779450501757e-01  -3.704053102718448e+00  1.170158505966481e-02  61.9604821090468    