
!*************************************************************************
!! ASITIC Ver 10.20.99.0.0.0
!!  Data generated by the <2Port> command in <slow> mode.
!! Generated on Thu Apr 11 17:21:13 1974
!# Spiral Data:	Name = <W4>, Wire
!# L1 = 150.00, Origin = <50.00,50.00>
!# Sides =   1, Metal =   2, Exit Metal =  -1
!# W = 12.00, S =  0.00, N =  0.25
!# Theta =  0.00, Phase =   1
!# Technolog File Data <BiCMOS.tek> @ <.>
!# Auto-Cell Mode:  <alpha> = 0.050000, <beta> = 0.800000
!# Metal Layers
!# Name=MSUB      Met=0  Lyr=  1  Mz=50.00  T=0.40  RS=0.04  Col=BLUE    
!# Name=M2        Met=1  Lyr=  2  Mz=47.00  T=0.80  RS=0.05  Col=GREEN   
!# Name=M3        Met=2  Lyr=  2  Mz=45.00  T=2.00  RS=0.02  Col=RED     
!# Substrate Layers
!# Lyr=    0  Eps=  12  Rho=1e+05  DZ=8.5e+02  T=8e+02
!# Lyr=    1  Eps=  12  Rho=1e+03  DZ=  52  T=   2
!# Lyr=    2  Eps=   4  Rho=1e+14  DZ=  50  T=  50
!*************************************************************************
# GHZ S MA S11 mag    S11 phase  S12 mag    S12 phase  S21 mag    S21 phase  S22 mag    S22 phase  
1.000000000000000e+00  2.290756492416629e-03  -3.239263108548195e+01  9.971836461892067e-01  -6.152826744553899e-01  9.971836461892067e-01  -6.152826744553899e-01  3.543213872873006e-03  51.3559387412907    
1.500000000000000e+00  2.125985646001592e-03  -5.349083438685138e+01  9.967915386697431e-01  -9.185652817122295e-01  9.967915386697431e-01  -9.185652817122295e-01  4.615886868525793e-03  65.9919301722141    
2.000000000000000e+00  2.077102313658530e-03  -7.966040564393722e+01  9.962689589755360e-01  -1.217041165086892e+00  9.962689589755360e-01  -1.217041165086892e+00  5.914837988909610e-03  75.9908739758397    
2.500000000000000e+00  2.308594667423861e-03  -1.078851415040950e+02  9.956444877427229e-01  -1.509845114103668e+00  9.956444877427229e-01  -1.509845114103668e+00  7.406081372352866e-03  83.119531474797     
3.000000000000000e+00  2.889366751162775e-03  -1.318657449401342e+02  9.949328288083955e-01  -1.796262510606928e+00  9.949328288083955e-01  -1.796262510606928e+00  9.070602104502442e-03  88.2624709677499    
3.500000000000000e+00  3.757884988809326e-03  -1.497669256593062e+02  9.941623939066793e-01  -2.076418608150576e+00  9.941623939066793e-01  -2.076418608150576e+00  1.089811372777871e-02  92.0390945122864    
4.000000000000000e+00  4.745001186322204e-03  -1.673081562701159e+02  9.933702666368193e-01  -2.371994463763903e+00  9.933702666368193e-01  -2.371994463763903e+00  1.324990732017485e-02  94.7241014141482    
4.500000000000000e+00  6.036900236232662e-03  -1.769238197305899e+02  9.925459262222157e-01  -2.642385040584057e+00  9.925459262222157e-01  -2.642385040584057e+00  1.539388584344129e-02  96.7001167051388    
5.000000000000000e+00  7.440204695753619e-03  1.754737818991186e+02  9.917154562203676e-01  -2.907432951868465e+00  9.917154562203676e-01  -2.907432951868465e+00  1.765157970839903e-02  98.1218998422904    
5.500000000000000e+00  8.936013572243693e-03  1.691729390576246e+02  9.908962210984396e-01  -3.167969666604167e+00  9.908962210984396e-01  -3.167969666604167e+00  2.001252080463543e-02  99.1358103869566    
6.000000000000000e+00  1.049079691267144e-02  1.638639275573557e+02  9.900839637522119e-01  -3.423698724086120e+00  9.900839637522119e-01  -3.423698724086120e+00  2.244420155957079e-02  99.8116563712594    
6.500000000000000e+00  1.210553660072629e-02  1.592150223408736e+02  9.892970819701403e-01  -3.676139348025082e+00  9.892970819701403e-01  -3.676139348025082e+00  2.495160798116094e-02  100.251940264381    
7.000000000000000e+00  1.376150657872164e-02  1.551091546030289e+02  9.885332184418660e-01  -3.925359859846481e+00  9.885332184418660e-01  -3.925359859846481e+00  2.751357705247279e-02  100.502470970259    
7.500000000000001e+00  1.543752408801597e-02  1.514636308810988e+02  9.877867128628325e-01  -4.171161407304877e+00  9.877867128628325e-01  -4.171161407304877e+00  3.010636094129659e-02  100.598690470497    
8.000000000000000e+00  1.714886756677371e-02  1.481431923862316e+02  9.870728035347417e-01  -4.415262075550818e+00  9.870728035347417e-01  -4.415262075550818e+00  3.274642121249175e-02  100.594429746917    
8.500000000000000e+00  1.886636230852244e-02  1.451391574480875e+02  9.863766559257749e-01  -4.656727516589052e+00  9.863766559257749e-01  -4.656727516589052e+00  3.540081911670225e-02  100.498500321916    
9.000000000000000e+00  2.061017579174196e-02  1.423670359123591e+02  9.857122158048638e-01  -4.897222359406376e+00  9.857122158048638e-01  -4.897222359406376e+00  3.808982938756075e-02  100.347643424639    
9.500000000000000e+00  2.235145778456546e-02  1.398267987069507e+02  9.850633443862861e-01  -5.135669293154248e+00  9.850633443862861e-01  -5.135669293154248e+00  4.078207025179206e-02  100.142441559842    
1.000000000000000e+01  2.411367515318423e-02  1.374613343299462e+02  9.844433883581946e-01  -5.373683795547166e+00  9.844433883581946e-01  -5.373683795547166e+00  4.350062661581727e-02  99.9090949478416    
1.050000000000000e+01  2.599341042842689e-02  1.349881595926488e+02  9.838465798734497e-01  -5.620383264417480e+00  9.838465798734497e-01  -5.620383264417480e+00  4.639496814972129e-02  99.6096804933597    
1.100000000000000e+01  2.775592192537641e-02  1.329644775753712e+02  9.832549039317666e-01  -5.856153592448356e+00  9.832549039317666e-01  -5.856153592448356e+00  4.911886688907719e-02  99.3256710939374    
1.150000000000000e+01  2.954058716868871e-02  1.310522750529627e+02  9.826879566168421e-01  -6.092407582368724e+00  9.826879566168421e-01  -6.092407582368724e+00  5.186889299878391e-02  99.0341718478984    
1.200000000000000e+01  3.132778469681783e-02  1.292566199618043e+02  9.821355705666401e-01  -6.328185038625395e+00  9.821355705666401e-01  -6.328185038625395e+00  5.462318532006621e-02  98.7339510721047    
1.250000000000000e+01  3.309514236372010e-02  1.275777751857388e+02  9.815867474258139e-01  -6.562388852020380e+00  9.815867474258139e-01  -6.562388852020380e+00  5.735802896229675e-02  98.4231168766091    
1.300000000000000e+01  3.488413057362174e-02  1.259804124208599e+02  9.810581679236494e-01  -6.797407627722289e+00  9.810581679236494e-01  -6.797407627722289e+00  6.011618598226338e-02  98.1145019192221    
1.350000000000000e+01  3.667405973701588e-02  1.244685440851400e+02  9.805395055349102e-01  -7.032179803521986e+00  9.805395055349102e-01  -7.032179803521986e+00  6.287566171236506e-02  97.8048977348282    
1.400000000000000e+01  3.844143182021063e-02  1.230432006352369e+02  9.800197645664321e-01  -7.265496677319382e+00  9.800197645664321e-01  -7.265496677319382e+00  6.561216064027782e-02  97.4909903684869    
1.450000000000000e+01  4.023128282675634e-02  1.216790091769970e+02  9.795166189241095e-01  -7.499852410163698e+00  9.795166189241095e-01  -7.499852410163698e+00  6.837148518899597e-02  97.183381179356     
1.500000000000000e+01  4.202151105324663e-02  1.203793477804655e+02  9.790196978356720e-01  -7.734083962894910e+00  9.790196978356720e-01  -7.734083962894910e+00  7.113074600175380e-02  96.8781463340883    
1.550000000000000e+01  4.378654335878072e-02  1.191469496762714e+02  9.785185278839237e-01  -7.966811283405020e+00  9.785185278839237e-01  -7.966811283405020e+00  7.386348418558936e-02  96.5720259900778    
1.600000000000000e+01  4.557614268476904e-02  1.179600287305822e+02  9.780307130450309e-01  -8.200803918818123e+00  9.780307130450309e-01  -8.200803918818123e+00  7.662074040642743e-02  96.2731186794776    
1.650000000000000e+01  4.736600039339790e-02  1.168229206418086e+02  9.775463060664924e-01  -8.434734652212567e+00  9.775463060664924e-01  -8.434734652212567e+00  7.937731217936174e-02  95.977886876562     
1.700000000000000e+01  4.915612507843694e-02  1.157316960887665e+02  9.770645312457898e-01  -8.668616274717527e+00  9.770645312457898e-01  -8.668616274717527e+00  8.213308826435127e-02  95.6865142923638    
1.750000000000000e+01  5.091814611066766e-02  1.146892319756041e+02  9.765748341475347e-01  -8.900895378835674e+00  9.765748341475347e-01  -8.900895378835674e+00  8.485901740425060e-02  95.395622546386     