
!*************************************************************************
!! ASITIC Ver 10.20.99.0.0.0
!!  Data generated by the <2Port> command in <slow> mode.
!! Generated on Thu Apr 11 17:21:13 1974
!# Spiral Data:	Name = <W2>, Wire
!# L1 = 100.00, Origin = < 0.00, 0.00>
!# Sides =   1, Metal =   4, Exit Metal =  -1
!# W = 10.00, S =  0.00, N =  0.25
!# Theta =  0.00, Phase =   1
!# Technolog File Data <CMOS.tek> @ <.>
!# Auto-Cell Mode:  <alpha> = 0.050000, <beta> = 0.800000
!# Metal Layers
!# Name=M1        Met=0  Lyr=  1  Mz=48.70  T=0.50  RS=0.07  Col=YELLOW  
!# Name=M2        Met=1  Lyr=  1  Mz=47.60  T=0.50  RS=0.06  Col=LIGHTSKYBLUE1
!# Name=M3        Met=2  Lyr=  1  Mz=46.50  T=0.50  RS=0.06  Col=MEDIUM PURPLE
!# Name=M4        Met=3  Lyr=  1  Mz=45.50  T=0.50  RS=0.06  Col=LIGHT GREEN
!# Name=M5        Met=4  Lyr=  1  Mz=44.00  T=1.00  RS=0.03  Col=GREY    
!# Substrate Layers
!# Lyr=    0  Eps=  12  Rho=  10  DZ=7.5e+02  T=7e+02
!# Lyr=    1  Eps= 3.9  Rho=1e+14  DZ=  50  T=  50
!*************************************************************************
# GHZ S MA S11 mag    S11 phase  S12 mag    S12 phase  S21 mag    S21 phase  S22 mag    S22 phase  
1.000000000000000e+00  3.391032908576855e-03  2.735318104505379e+01  9.969926547044350e-01  -3.245829197379609e-01  9.969926547044350e-01  -3.245829197379609e-01  4.196911902965981e-03  44.2177614427501    
1.500000000000000e+00  3.833070322944070e-03  3.753632079578442e+01  9.969707052735479e-01  -4.867785327348660e-01  9.969707052735479e-01  -4.867785327348660e-01  5.333267954513317e-03  55.3728393258657    
2.000000000000000e+00  4.372558350735719e-03  4.530029712155004e+01  9.969424753575508e-01  -6.487174938997048e-01  9.969424753575508e-01  -6.487174938997048e-01  6.598061989933410e-03  62.3720068651707    
2.500000000000000e+00  4.976394713742670e-03  5.112004135154120e+01  9.969045184160374e-01  -8.102783422946651e-01  9.969045184160374e-01  -8.102783422946651e-01  7.926994994679843e-03  66.9882376419066    
3.000000000000000e+00  5.621793560598869e-03  5.555244200501223e+01  9.968604086546000e-01  -9.716279696014876e-01  9.968604086546000e-01  -9.716279696014876e-01  9.291102050439108e-03  70.2193637469896    
3.500000000000000e+00  6.291827501935865e-03  5.899872167917874e+01  9.968140928766833e-01  -1.132702719312529e+00  9.968140928766833e-01  -1.132702719312529e+00  1.067322846464322e-02  72.5976088087722    
4.000000000000000e+00  6.979947054383842e-03  6.168493732884448e+01  9.967604679474716e-01  -1.293484084979497e+00  9.967604679474716e-01  -1.293484084979497e+00  1.206646609805503e-02  74.3873105689543    
4.500000000000000e+00  7.679043903021732e-03  6.383701748937992e+01  9.967038332590008e-01  -1.454031433376105e+00  9.967038332590008e-01  -1.454031433376105e+00  1.346575576383290e-02  75.788029956251     
5.000000000000000e+00  8.383010798550332e-03  6.560502236839673e+01  9.966478978968916e-01  -1.614289944374158e+00  9.966478978968916e-01  -1.614289944374158e+00  1.486649226903624e-02  76.9222445978984    
5.500000000000000e+00  9.092736416021954e-03  6.704698437269789e+01  9.965869315371227e-01  -1.774330068228186e+00  9.965869315371227e-01  -1.774330068228186e+00  1.626928531191150e-02  77.840186839326     
6.000000000000000e+00  9.804103398841555e-03  6.826945258072895e+01  9.965275980897463e-01  -1.934164499497286e+00  9.965275980897463e-01  -1.934164499497286e+00  1.767174960104001e-02  78.614774265649     
6.500000000000000e+00  1.051910141351128e-02  6.928694496845334e+01  9.964636381008888e-01  -2.093855535747060e+00  9.964636381008888e-01  -2.093855535747060e+00  1.907526941375533e-02  79.2599009509639    
7.000000000000000e+00  1.123389657909608e-02  7.017001571983779e+01  9.964018552289164e-01  -2.253365551080806e+00  9.964018552289164e-01  -2.253365551080806e+00  2.047740324645280e-02  79.8207298166702    
7.500000000000001e+00  1.194973667845233e-02  7.093048005378044e+01  9.963391844651458e-01  -2.412747523101897e+00  9.963391844651458e-01  -2.412747523101897e+00  2.187916739068363e-02  80.3060925160693    
8.000000000000000e+00  1.266829908230329e-02  7.157334175054685e+01  9.962716477134381e-01  -2.572065648770987e+00  9.962716477134381e-01  -2.572065648770987e+00  2.328188416448847e-02  80.7203919073944    
8.500000000000000e+00  1.338558429249860e-02  7.214691225748888e+01  9.962068550258916e-01  -2.731236542613116e+00  9.962068550258916e-01  -2.731236542613116e+00  2.468277597900471e-02  81.0928046935543    
9.000000000000000e+00  1.410109231141897e-02  7.263330615875931e+01  9.961380536108784e-01  -2.890136862125625e+00  9.961380536108784e-01  -2.890136862125625e+00  2.608043414089285e-02  81.4148969794426    
9.500000000000000e+00  1.481922046120958e-02  7.307368260260732e+01  9.960710985601662e-01  -3.049137213616931e+00  9.960710985601662e-01  -3.049137213616931e+00  2.748035061082282e-02  81.708217312211     
1.000000000000000e+01  1.553780757586983e-02  7.346143992483661e+01  9.960031360559259e-01  -3.208074041814320e+00  9.960031360559259e-01  -3.208074041814320e+00  2.887995371982736e-02  81.9706215585167    
1.050000000000000e+01  1.625822810703506e-02  7.379001811269897e+01  9.959300689871724e-01  -3.366981046089487e+00  9.959300689871724e-01  -3.366981046089487e+00  3.028015955694370e-02  82.1988247127364    
1.100000000000000e+01  1.702532700685180e-02  7.423219984205240e+01  9.958893761670859e-01  -3.529024422345624e+00  9.958893761670859e-01  -3.529024422345624e+00  3.173184573102115e-02  82.4747473009695    
1.150000000000000e+01  1.774853540565398e-02  7.450104142543601e+01  9.958198557493559e-01  -3.688017182770560e+00  9.958198557493559e-01  -3.688017182770560e+00  3.313425112301201e-02  82.667808341211     
1.200000000000000e+01  1.846195187666731e-02  7.471612895027621e+01  9.957442584963477e-01  -3.846307744426329e+00  9.957442584963477e-01  -3.846307744426329e+00  3.452544579154566e-02  82.8331048272113    
1.250000000000000e+01  1.918556796525388e-02  7.492571687715473e+01  9.956720110797378e-01  -4.005198946643282e+00  9.956720110797378e-01  -4.005198946643282e+00  3.592706477042703e-02  82.9922162969512    
1.300000000000000e+01  1.990968987600486e-02  7.511048371844223e+01  9.955984854501444e-01  -4.164063041633901e+00  9.955984854501444e-01  -4.164063041633901e+00  3.732864119612154e-02  83.1371786110082    
1.350000000000000e+01  2.062344394851044e-02  7.525205062227738e+01  9.955184326487253e-01  -4.322203845353633e+00  9.955184326487253e-01  -4.322203845353633e+00  3.871848916536266e-02  83.260371480817     
1.400000000000000e+01  2.134802919059113e-02  7.539423061461498e+01  9.954419604992890e-01  -4.480988018857760e+00  9.954419604992890e-01  -4.480988018857760e+00  4.011944858586682e-02  83.3812124963656    
1.450000000000000e+01  2.207314356440491e-02  7.551823960775616e+01  9.953641025362169e-01  -4.639753232520217e+00  9.953641025362169e-01  -4.639753232520217e+00  4.152042869325061e-02  83.49179526623      
1.500000000000000e+01  2.278727253704992e-02  7.560706911695429e+01  9.952796850153323e-01  -4.797770726045679e+00  9.952796850153323e-01  -4.797770726045679e+00  4.290912682078355e-02  83.5850608767855    
1.550000000000000e+01  2.351294870237033e-02  7.569939731119041e+01  9.951987252086235e-01  -4.956472219111816e+00  9.951987252086235e-01  -4.956472219111816e+00  4.430964703842680e-02  83.6778536350396    
1.600000000000000e+01  2.423919089280402e-02  7.577799631999744e+01  9.951162930016817e-01  -5.115160636293345e+00  9.951162930016817e-01  -5.115160636293345e+00  4.571024278359131e-02  83.7629524762256    
1.650000000000000e+01  2.496601566858839e-02  7.584401471093331e+01  9.950323636145342e-01  -5.273837728507806e+00  9.950323636145342e-01  -5.273837728507806e+00  4.711093340445037e-02  83.8410150852014    
1.700000000000000e+01  2.568048042647095e-02  7.588083196521082e+01  9.949413838988076e-01  -5.431692103937508e+00  9.949413838988076e-01  -5.431692103937508e+00  4.849794823727321e-02  83.9051306378815    
1.750000000000000e+01  2.640798972838266e-02  7.592453737488107e+01  9.948541738355248e-01  -5.590319296325689e+00  9.948541738355248e-01  -5.590319296325689e+00  4.989832538254692e-02  83.9707703422713    