
!*************************************************************************
!! ASITIC Ver 10.20.99.0.0.0
!!  Data generated by the <2Port> command in <slow> mode.
!! Generated on Thu Apr 11 17:21:13 1974
!# Spiral Data:	Name = <W3>, Wire
!# L1 = 100.00, Origin = <100.00,100.00>
!# Sides =   1, Metal =   1, Exit Metal =  -1
!# W =  8.00, S =  0.00, N =  0.25
!# Theta =  0.00, Phase =   1
!# Technolog File Data <BiCMOS.tek> @ <.>
!# Auto-Cell Mode:  <alpha> = 0.050000, <beta> = 0.800000
!# Metal Layers
!# Name=MSUB      Met=0  Lyr=  1  Mz=50.00  T=0.40  RS=0.04  Col=BLUE    
!# Name=M2        Met=1  Lyr=  2  Mz=47.00  T=0.80  RS=0.05  Col=GREEN   
!# Name=M3        Met=2  Lyr=  2  Mz=45.00  T=2.00  RS=0.02  Col=RED     
!# Substrate Layers
!# Lyr=    0  Eps=  12  Rho=1e+05  DZ=8.5e+02  T=8e+02
!# Lyr=    1  Eps=  12  Rho=1e+03  DZ=  52  T=   2
!# Lyr=    2  Eps=   4  Rho=1e+14  DZ=  50  T=  50
!*************************************************************************
# GHZ S MA S11 mag    S11 phase  S12 mag    S12 phase  S21 mag    S21 phase  S22 mag    S22 phase  
1.000000000000000e+00  6.019833640095675e-03  -9.120803027425838e+00  9.936512128653046e-01  -4.196414297240662e-01  9.936512128653046e-01  -4.196414297240662e-01  6.337033323592363e-03  16.6273922273518    
1.500000000000000e+00  5.788223988205035e-03  -1.378587762378671e+01  9.934794710125344e-01  -6.280234729161865e-01  9.934794710125344e-01  -6.280234729161865e-01  6.513824364521852e-03  24.9438925868577    
2.000000000000000e+00  5.468831055603890e-03  -1.860247479123933e+01  9.932483064375375e-01  -8.347965063499835e-01  9.932483064375375e-01  -8.347965063499835e-01  6.785203301928956e-03  33.1685454448582    
2.500000000000000e+00  5.075990658921449e-03  -2.366434317734963e+01  9.929570171348814e-01  -1.039429150611857e+00  9.929570171348814e-01  -1.039429150611857e+00  7.173185248133939e-03  41.0875460012714    
3.000000000000000e+00  4.609476396087856e-03  -2.912401061449877e+01  9.926214155346105e-01  -1.241782205369310e+00  9.926214155346105e-01  -1.241782205369310e+00  7.685975312160602e-03  48.5655265724028    
3.500000000000000e+00  4.090170773775479e-03  -3.521965214615066e+01  9.922400036240832e-01  -1.441437224124903e+00  9.922400036240832e-01  -1.441437224124903e+00  8.333692553721682e-03  55.3599753130088    
4.000000000000000e+00  3.522101014826823e-03  -4.242068013439786e+01  9.918305787568857e-01  -1.638486298287358e+00  9.918305787568857e-01  -1.638486298287358e+00  9.111972274787919e-03  61.4321558567809    
4.500000000000000e+00  2.939218943339478e-03  -5.154587805928936e+01  9.913909401328347e-01  -1.832453152103249e+00  9.913909401328347e-01  -1.832453152103249e+00  1.001193189357558e-02  66.6690507603237    
5.000000000000000e+00  2.363169423163590e-03  -6.416689490816937e+01  9.909377571093683e-01  -2.024016399658333e+00  9.909377571093683e-01  -2.024016399658333e+00  1.102842827157827e-02  71.1770394765633    
5.500000000000000e+00  1.874286427429935e-03  -8.317611787824471e+01  9.904728380543233e-01  -2.212978788415558e+00  9.904728380543233e-01  -2.212978788415558e+00  1.214628291900182e-02  74.9806590574134    
6.000000000000000e+00  1.611984940763180e-03  -1.109276065431027e+02  9.899948971090773e-01  -2.399699118326873e+00  9.899948971090773e-01  -2.399699118326873e+00  1.335746004958785e-02  78.1385217461089    
6.500000000000000e+00  1.740706990962370e-03  -1.418728218255958e+02  9.895206139943149e-01  -2.583905959192967e+00  9.895206139943149e-01  -2.583905959192967e+00  1.463931735921281e-02  80.7855412901223    
7.000000000000000e+00  2.219934930538812e-03  -1.650783663503263e+02  9.890478924277880e-01  -2.766001415102560e+00  9.890478924277880e-01  -2.766001415102560e+00  1.598563927219749e-02  82.9829180823125    
7.500000000000001e+00  2.891773807048339e-03  -1.798598978274921e+02  9.885734985930732e-01  -2.945981286157253e+00  9.885734985930732e-01  -2.945981286157253e+00  1.738349049389427e-02  84.7837338908773    
8.000000000000000e+00  3.669258317622145e-03  1.702939621753627e+02  9.881109467533168e-01  -3.124397172553491e+00  9.881109467533168e-01  -3.124397172553491e+00  1.882945444135380e-02  86.2931038615785    
8.500000000000000e+00  4.502455656125299e-03  1.632755202416244e+02  9.876563464976998e-01  -3.301263017573336e+00  9.876563464976998e-01  -3.301263017573336e+00  2.031377108865741e-02  87.5440888561775    
9.000000000000000e+00  5.369518958164858e-03  1.579256617642325e+02  9.872107035117695e-01  -3.476750755710247e+00  9.872107035117695e-01  -3.476750755710247e+00  2.183014774609119e-02  88.5812578128306    
9.500000000000000e+00  6.252855292187933e-03  1.535885584983064e+02  9.867672869177074e-01  -3.651134325504573e+00  9.867672869177074e-01  -3.651134325504573e+00  2.337518966717160e-02  89.4231238709885    
1.000000000000000e+01  7.157164383906647e-03  1.500111197589004e+02  9.863404225489238e-01  -3.824320433821660e+00  9.863404225489238e-01  -3.824320433821660e+00  2.494037659026547e-02  90.136139539757     
1.050000000000000e+01  8.072389519031473e-03  1.469429312904028e+02  9.859233966381035e-01  -3.996561835282214e+00  9.859233966381035e-01  -3.996561835282214e+00  2.652415527879451e-02  90.7272217819073    
1.100000000000000e+01  8.995563662917519e-03  1.442546537174806e+02  9.855160388536063e-01  -4.167975176160039e+00  9.855160388536063e-01  -4.167975176160039e+00  2.812344489978438e-02  91.2167211323869    
1.150000000000000e+01  9.918612861567077e-03  1.418370948115830e+02  9.851108817350557e-01  -4.338655621602743e+00  9.851108817350557e-01  -4.338655621602743e+00  2.973512719447416e-02  91.6073781555235    
1.200000000000000e+01  1.085165209512828e-02  1.396774953159990e+02  9.847213465139402e-01  -4.508699296953315e+00  9.847213465139402e-01  -4.508699296953315e+00  3.135793336752345e-02  91.9407545387042    
1.250000000000000e+01  1.178794260267298e-02  1.377095216558782e+02  9.843402703938610e-01  -4.678188330865705e+00  9.843402703938610e-01  -4.678188330865705e+00  3.298982671761459e-02  92.2143690884019    
1.300000000000000e+01  1.272667868118006e-02  1.359013803998404e+02  9.839671347575041e-01  -4.847192300416565e+00  9.839671347575041e-01  -4.847192300416565e+00  3.462937010783972e-02  92.4375966781561    
1.350000000000000e+01  1.366226752257562e-02  1.342053823632319e+02  9.835940195207052e-01  -5.015816573409968e+00  9.835940195207052e-01  -5.015816573409968e+00  3.627554961143580e-02  92.6062683224238    
1.400000000000000e+01  1.460401924480390e-02  1.326496483034879e+02  9.832347199714915e-01  -5.184016068805751e+00  9.832347199714915e-01  -5.184016068805751e+00  3.792685390523012e-02  92.7506108358265    
1.450000000000000e+01  1.554687601534447e-02  1.311952974622371e+02  9.828817273986319e-01  -5.351888355015618e+00  9.828817273986319e-01  -5.351888355015618e+00  3.958285114674291e-02  92.8641869461917    
1.500000000000000e+01  1.649062252109753e-02  1.298300207343366e+02  9.825345145812293e-01  -5.519472669864195e+00  9.825345145812293e-01  -5.519472669864195e+00  4.124289018630448e-02  92.9514998134516    
1.550000000000000e+01  1.743511454977796e-02  1.285436535646148e+02  9.821925731593444e-01  -5.686802874459657e+00  9.821925731593444e-01  -5.686802874459657e+00  4.290643896403509e-02  93.0163260146201    
1.600000000000000e+01  1.837614041058087e-02  1.273058603166219e+02  9.818475392103206e-01  -5.853998196974649e+00  9.818475392103206e-01  -5.853998196974649e+00  4.457384708229057e-02  93.0513450652564    
1.650000000000000e+01  1.932169424168091e-02  1.261532724946545e+02  9.815143317386436e-01  -6.020897896511308e+00  9.815143317386436e-01  -6.020897896511308e+00  4.624303600445151e-02  93.0801403520993    
1.700000000000000e+01  2.026782980599806e-02  1.250576798452348e+02  9.811850080050614e-01  -6.187619064006986e+00  9.811850080050614e-01  -6.187619064006986e+00  4.791465184640555e-02  93.0945729229585    
1.750000000000000e+01  2.121455329326818e-02  1.240137591907229e+02  9.808591593940412e-01  -6.354180369324512e+00  9.808591593940412e-01  -6.354180369324512e+00  4.958846134901777e-02  93.0965656555977    