
!*************************************************************************
!! ASITIC Ver 10.20.99.0.0.0
!!  Data generated by the <2Port> command in <slow> mode.
!! Generated on Thu Apr 11 17:21:13 1974
!# Spiral Data:	Name = <W6>, Wire
!# L1 = 300.00, Origin = <50.00,200.00>
!# Sides =   1, Metal =   2, Exit Metal =  -1
!# W = 12.00, S =  0.00, N =  0.25
!# Theta =  0.00, Phase =   1
!# Technolog File Data <BiCMOS.tek> @ <.>
!# Auto-Cell Mode:  <alpha> = 0.050000, <beta> = 0.800000
!# Metal Layers
!# Name=MSUB      Met=0  Lyr=  1  Mz=50.00  T=0.40  RS=0.04  Col=BLUE    
!# Name=M2        Met=1  Lyr=  2  Mz=47.00  T=0.80  RS=0.05  Col=GREEN   
!# Name=M3        Met=2  Lyr=  2  Mz=45.00  T=2.00  RS=0.02  Col=RED     
!# Substrate Layers
!# Lyr=    0  Eps=  12  Rho=1e+05  DZ=8.5e+02  T=8e+02
!# Lyr=    1  Eps=  12  Rho=1e+03  DZ=  52  T=   2
!# Lyr=    2  Eps=   4  Rho=1e+14  DZ=  50  T=  50
!*************************************************************************
# GHZ S MA S11 mag    S11 phase  S12 mag    S12 phase  S21 mag    S21 phase  S22 mag    S22 phase  
1.000000000000000e+00  3.457267929538956e-03  1.077718462522665e+01  9.940958244429965e-01  -1.359205307532955e+00  9.940958244429965e-01  -1.359205307532955e+00  9.342901036042812e-03  63.5069839707395    
1.500000000000000e+00  2.183929396122029e-03  4.378706322661240e+01  9.929934692614112e-01  -2.023951310129341e+00  9.929934692614112e-01  -2.023951310129341e+00  1.324098344493380e-02  75.8077142940887    
2.000000000000000e+00  3.027543490998605e-03  1.039441729921007e+02  9.915620078842772e-01  -2.672964533680438e+00  9.915620078842772e-01  -2.672964533680438e+00  1.773964761849865e-02  83.2392859896995    
2.500000000000000e+00  6.022459603377755e-03  1.238040989508395e+02  9.899002691743659e-01  -3.304392233709291e+00  9.899002691743659e-01  -3.304392233709291e+00  2.275727550611484e-02  88.031527496173     
3.000000000000000e+00  9.827729258444396e-03  1.282969156312801e+02  9.880730335576680e-01  -3.917432687352497e+00  9.880730335576680e-01  -3.917432687352497e+00  2.822422314645591e-02  91.1324234635366    
3.500000000000000e+00  1.412172833482551e-02  1.285808369588846e+02  9.861623380879019e-01  -4.513596689316857e+00  9.861623380879019e-01  -4.513596689316857e+00  3.408342755330555e-02  93.1220439565075    
4.000000000000000e+00  1.934615973273673e-02  1.258949308049071e+02  9.842370004752954e-01  -5.138094214751471e+00  9.842370004752954e-01  -5.138094214751471e+00  4.102458504302543e-02  94.2358685861347    
4.500000000000000e+00  2.431108986448655e-02  1.242326543468671e+02  9.823122561197634e-01  -5.710552341622152e+00  9.823122561197634e-01  -5.710552341622152e+00  4.754332178485569e-02  94.8992763311074    
5.000000000000000e+00  2.945546935060245e-02  1.222656570236279e+02  9.804229040602784e-01  -6.271766316654748e+00  9.804229040602784e-01  -6.271766316654748e+00  5.425525974611417e-02  95.1849419569924    
5.500000000000000e+00  3.474570613438147e-02  1.201791939900105e+02  9.785930744413852e-01  -6.824938502532227e+00  9.785930744413852e-01  -6.824938502532227e+00  6.113258864079452e-02  95.209594095975     
6.000000000000000e+00  4.009783519357079e-02  1.180742600730469e+02  9.768044835390604e-01  -7.369915514929684e+00  9.768044835390604e-01  -7.369915514929684e+00  6.809698177541114e-02  95.0332848063498    
6.500000000000000e+00  4.552102248349386e-02  1.160063274995551e+02  9.750817445719222e-01  -7.910093122921646e+00  9.750817445719222e-01  -7.910093122921646e+00  7.515231783333289e-02  94.730725528124     
7.000000000000000e+00  5.097222196324652e-02  1.140008668624456e+02  9.734092910668631e-01  -8.445839798418648e+00  9.734092910668631e-01  -8.445839798418648e+00  8.225592625822400e-02  94.3336495126916    
7.500000000000001e+00  5.640535833743021e-02  1.120705346347208e+02  9.717672543438869e-01  -8.976715907920241e+00  9.717672543438869e-01  -8.976715907920241e+00  8.936075637344601e-02  93.8646963477963    
8.000000000000000e+00  6.186274807480578e-02  1.102201402719046e+02  9.701754049383403e-01  -9.506256765710798e+00  9.701754049383403e-01  -9.506256765710798e+00  9.650393950559971e-02  93.358199431623     
8.500000000000000e+00  6.728022275510469e-02  1.084493151631410e+02  9.685999039222537e-01  -1.003228924445373e+01  9.685999039222537e-01  -1.003228924445373e+01  1.036213904778042e-01  92.817046252257     
9.000000000000000e+00  7.270800917358126e-02  1.067573087374845e+02  9.670603345590795e-01  -1.055813473852506e+01  9.670603345590795e-01  -1.055813473852506e+01  1.107586166689315e-01  92.2635261221907    
9.500000000000000e+00  7.808527138331521e-02  1.051384015238965e+02  9.655235210121573e-01  -1.108126051552006e+01  9.655235210121573e-01  -1.108126051552006e+01  1.178548902011187e-01  91.6948959347287    
1.000000000000000e+01  8.346680466236725e-02  1.035905888471641e+02  9.640095714482270e-01  -1.160487385469247e+01  9.640095714482270e-01  -1.160487385469247e+01  1.249610141118144e-01  91.1265789143801    
1.050000000000000e+01  8.912122900484779e-02  1.020159947089217e+02  9.624799543616303e-01  -1.214688544719096e+01  9.624799543616303e-01  -1.214688544719096e+01  1.323779305953112e-01  90.5280909497938    
1.100000000000000e+01  9.442750496235600e-02  1.005954079239564e+02  9.609502479329078e-01  -1.266797595443972e+01  9.609502479329078e-01  -1.266797595443972e+01  1.394177593691767e-01  89.9560285817027    
1.150000000000000e+01  9.974625964097056e-02  9.923057737001355e+01  9.594292414896629e-01  -1.319064646710929e+01  9.594292414896629e-01  -1.319064646710929e+01  1.464716451804075e-01  89.3922128693801    
1.200000000000000e+01  1.050388169510474e-01  9.791720986514360e+01  9.578988252940641e-01  -1.371287609856336e+01  9.578988252940641e-01  -1.371287609856336e+01  1.534999341075396e-01  88.8338065640154    
1.250000000000000e+01  1.102589250411714e-01  9.665144865632668e+01  9.563414117749713e-01  -1.423212586325336e+01  9.563414117749713e-01  -1.423212586325336e+01  1.604549146239796e-01  88.2784779206619    
1.300000000000000e+01  1.338424031294319e-01  8.810011269891206e+01  9.558375130733680e-01  -1.473227781068229e+01  9.558375130733680e-01  -1.473227781068229e+01  1.604956073352405e-01  85.0327108319045    
1.350000000000000e+01  1.396149671288517e-01  8.723162530105854e+01  9.543461095742215e-01  -1.525194183970733e+01  9.543461095742215e-01  -1.525194183970733e+01  1.670812384712731e-01  84.4370051021072    
1.400000000000000e+01  1.453104475394281e-01  8.637779783225122e+01  9.528226987012111e-01  -1.576845731665807e+01  9.528226987012111e-01  -1.576845731665807e+01  1.735886911460960e-01  83.8443912169024    
1.450000000000000e+01  1.510211652633024e-01  8.554235763723132e+01  9.512935706619009e-01  -1.628703717184924e+01  9.512935706619009e-01  -1.628703717184924e+01  1.801099684092695e-01  83.2609956675026    
1.500000000000000e+01  1.567020950153645e-01  8.472228805531790e+01  9.497431711918987e-01  -1.680509437383735e+01  9.497431711918987e-01  -1.680509437383735e+01  1.865995578904099e-01  82.6837878816666    
1.550000000000000e+01  1.623021529623167e-01  8.391529135894953e+01  9.481572926847647e-01  -1.731963629362178e+01  9.481572926847647e-01  -1.731963629362178e+01  1.930056208308952e-01  82.1105155745829    
1.600000000000000e+01  1.679215398008708e-01  8.312366229548567e+01  9.465601887664244e-01  -1.783639980092093e+01  9.465601887664244e-01  -1.783639980092093e+01  1.994285954874352e-01  81.5454943973008    
1.650000000000000e+01  1.735112631778497e-01  8.234514317612411e+01  9.449382976071954e-01  -1.835251711796876e+01  9.449382976071954e-01  -1.835251711796876e+01  2.058188252409513e-01  80.9863446316794    
1.700000000000000e+01  1.790713461427196e-01  8.157903696269415e+01  9.432908182553802e-01  -1.886794375974313e+01  9.432908182553802e-01  -1.886794375974313e+01  2.121759801036825e-01  80.4329034453467    
1.750000000000000e+01  1.845460373550545e-01  8.082349886592800e+01  9.416050574515685e-01  -1.937936859012069e+01  9.416050574515685e-01  -1.937936859012069e+01  2.184434409581933e-01  79.88331296838      