
!*************************************************************************
!! ASITIC Ver 10.20.99.0.0.0
!!  Data generated by the <2Port> command in <slow> mode.
!! Generated on Thu Apr 11 17:21:13 1974
!# Spiral Data:	Name = <W2>, Wire
!# L1 = 100.00, Origin = < 0.00, 0.00>
!# Sides =   1, Metal =   2, Exit Metal =  -1
!# W = 10.00, S =  0.00, N =  0.25
!# Theta =  0.00, Phase =   1
!# Technolog File Data <BiCMOS.tek> @ <.>
!# Auto-Cell Mode:  <alpha> = 0.050000, <beta> = 0.800000
!# Metal Layers
!# Name=MSUB      Met=0  Lyr=  1  Mz=50.00  T=0.40  RS=0.04  Col=BLUE    
!# Name=M2        Met=1  Lyr=  2  Mz=47.00  T=0.80  RS=0.05  Col=GREEN   
!# Name=M3        Met=2  Lyr=  2  Mz=45.00  T=2.00  RS=0.02  Col=RED     
!# Substrate Layers
!# Lyr=    0  Eps=  12  Rho=1e+05  DZ=8.5e+02  T=8e+02
!# Lyr=    1  Eps=  12  Rho=1e+03  DZ=  52  T=   2
!# Lyr=    2  Eps=   4  Rho=1e+14  DZ=  50  T=  50
!*************************************************************************
# GHZ S MA S11 mag    S11 phase  S12 mag    S12 phase  S21 mag    S21 phase  S22 mag    S22 phase  
1.000000000000000e+00  2.170409332474281e-03  2.935896833341254e+01  9.979245483278897e-01  -3.299962823448696e-01  9.979245483278897e-01  -3.299962823448696e-01  3.273822664061275e-03  53.4448229443317    
1.500000000000000e+00  2.391819532526554e-03  4.234133764697638e+01  9.978225574394275e-01  -4.941465334624366e-01  9.978225574394275e-01  -4.941465334624366e-01  4.382262478044834e-03  64.3403273758919    
2.000000000000000e+00  2.700165173609883e-03  5.368872187357569e+01  9.976826941357106e-01  -6.573634160647090e-01  9.976826941357106e-01  -6.573634160647090e-01  5.584517911412325e-03  70.9095109675041    
2.500000000000000e+00  3.091308896458026e-03  6.342184792459170e+01  9.975133934139765e-01  -8.194577786086882e-01  9.975133934139765e-01  -8.194577786086882e-01  6.837893876474300e-03  75.3226380731019    
3.000000000000000e+00  3.563980908961969e-03  7.147385763036220e+01  9.973104883922713e-01  -9.800969153016049e-01  9.973104883922713e-01  -9.800969153016049e-01  8.125854001959724e-03  78.4613165988653    
3.500000000000000e+00  4.115935630204640e-03  7.819936473134811e+01  9.970879105601593e-01  -1.139454054905559e+00  9.970879105601593e-01  -1.139454054905559e+00  9.444600147754648e-03  80.8794514726952    
4.000000000000000e+00  5.032861058280967e-03  8.396156051575197e+01  9.968413411666913e-01  -1.314021285575968e+00  9.968413411666913e-01  -1.314021285575968e+00  1.107968894155938e-02  82.9426914699713    
4.500000000000000e+00  5.768798553766482e-03  8.819151764111436e+01  9.965849221125356e-01  -1.472552455062175e+00  9.965849221125356e-01  -1.472552455062175e+00  1.248885669948743e-02  84.4649477371338    
5.000000000000000e+00  6.562040672620268e-03  9.156288018346788e+01  9.963097167571595e-01  -1.629222512162434e+00  9.963097167571595e-01  -1.629222512162434e+00  1.391669636943146e-02  85.6960978853022    
5.500000000000000e+00  7.423222639033566e-03  9.432239112354263e+01  9.960301960145398e-01  -1.784961038278658e+00  9.960301960145398e-01  -1.784961038278658e+00  1.537716305114190e-02  86.7490265778642    
6.000000000000000e+00  8.330809221081995e-03  9.649737632468512e+01  9.957368997415554e-01  -1.938934234115587e+00  9.957368997415554e-01  -1.938934234115587e+00  1.685451613049241e-02  87.6130136293115    
6.500000000000000e+00  9.296514633091113e-03  9.825996373932060e+01  9.954439429095413e-01  -2.092109669201785e+00  9.954439429095413e-01  -2.092109669201785e+00  1.836294668540183e-02  88.3618922484229    
7.000000000000000e+00  1.030729704545296e-02  9.965385374908908e+01  9.951474426721281e-01  -2.244136796315859e+00  9.951474426721281e-01  -2.244136796315859e+00  1.989399157183754e-02  88.9955273646853    
7.500000000000001e+00  1.134603496598678e-02  1.007240596515065e+02  9.948419710993857e-01  -2.394459232713722e+00  9.948419710993857e-01  -2.394459232713722e+00  2.143505627425458e-02  89.5132425001418    
8.000000000000000e+00  1.243139667446529e-02  1.015703504568576e+02  9.945418320827035e-01  -2.544354640056936e+00  9.945418320827035e-01  -2.544354640056936e+00  2.300565298271491e-02  89.9653147162215    
8.500000000000000e+00  1.354827324629402e-02  1.022144447993586e+02  9.942417852164074e-01  -2.693326841254668e+00  9.942417852164074e-01  -2.693326841254668e+00  2.459422209698591e-02  90.3455739594629    
9.000000000000000e+00  1.467950806502511e-02  1.026767615150931e+02  9.939351813498968e-01  -2.840763727434119e+00  9.939351813498968e-01  -2.840763727434119e+00  2.618698165019704e-02  90.6485590331744    
9.500000000000000e+00  1.584754023042202e-02  1.030197167581991e+02  9.936368301011379e-01  -2.988050335649629e+00  9.936368301011379e-01  -2.988050335649629e+00  2.780589486792120e-02  90.9131797786273    
1.000000000000000e+01  1.703711455836865e-02  1.032509914113798e+02  9.933403356283639e-01  -3.134622546194944e+00  9.933403356283639e-01  -3.134622546194944e+00  2.943836479624717e-02  91.1313581350302    
1.050000000000000e+01  1.835300169186503e-02  1.032777899082750e+02  9.930407764581050e-01  -3.287039560302094e+00  9.930407764581050e-01  -3.287039560302094e+00  3.119619330902188e-02  91.288311133288     
1.100000000000000e+01  1.958355732215512e-02  1.033400231459269e+02  9.927477604523700e-01  -3.432706095454856e+00  9.927477604523700e-01  -3.432706095454856e+00  3.285790531228671e-02  91.4289161015129    
1.150000000000000e+01  2.082886631379098e-02  1.033402338770860e+02  9.924570865872285e-01  -3.577831637955255e+00  9.924570865872285e-01  -3.577831637955255e+00  3.452965151036445e-02  91.5390274592059    
1.200000000000000e+01  2.206702879050901e-02  1.032809289101881e+02  9.921601077764385e-01  -3.721402307468028e+00  9.921601077764385e-01  -3.721402307468028e+00  3.619137092430970e-02  91.6105876055212    
1.250000000000000e+01  2.333573008942523e-02  1.031878264393731e+02  9.918736630725261e-01  -3.865523239904266e+00  9.918736630725261e-01  -3.865523239904266e+00  3.787922519249978e-02  91.670818284655     
1.300000000000000e+01  2.461464782533166e-02  1.030598629780503e+02  9.915894945804874e-01  -4.009232960594305e+00  9.915894945804874e-01  -4.009232960594305e+00  3.957446120768875e-02  91.7107070112247    
1.350000000000000e+01  2.590265000339875e-02  1.029031369473473e+02  9.913075022294516e-01  -4.152567004261892e+00  9.913075022294516e-01  -4.152567004261892e+00  4.127637634153050e-02  91.7327660279685    
1.400000000000000e+01  2.717633566471052e-02  1.027157204605912e+02  9.910182177097941e-01  -4.294372457730463e+00  9.910182177097941e-01  -4.294372457730463e+00  4.296298137311648e-02  91.7286250855852    
1.450000000000000e+01  2.847857007163830e-02  1.025157510011625e+02  9.907397628759241e-01  -4.436988295873025e+00  9.907397628759241e-01  -4.436988295873025e+00  4.467535185306833e-02  91.7212562518208    
1.500000000000000e+01  2.978728264387083e-02  1.022997340488769e+02  9.904630728831525e-01  -4.579313899342397e+00  9.904630728831525e-01  -4.579313899342397e+00  4.639269390692499e-02  91.7017691658863    
1.550000000000000e+01  3.110181888917293e-02  1.020705707645454e+02  9.901879921134843e-01  -4.721372373444257e+00  9.901879921134843e-01  -4.721372373444257e+00  4.811455892412264e-02  91.671592477539     
1.600000000000000e+01  3.239665293494431e-02  1.018256314396565e+02  9.899049242177946e-01  -4.861847981590524e+00  9.899049242177946e-01  -4.861847981590524e+00  4.981648293850524e-02  91.6231108891548    
1.650000000000000e+01  3.372012648286217e-02  1.015769952508930e+02  9.896322233566809e-01  -5.003374489291790e+00  9.896322233566809e-01  -5.003374489291790e+00  5.154518355980474e-02  91.5751296808397    
1.700000000000000e+01  3.504788952861405e-02  1.013213446092716e+02  9.893606608245389e-01  -5.144689101663421e+00  9.893606608245389e-01  -5.144689101663421e+00  5.327730710481991e-02  91.5197437257939    
1.750000000000000e+01  3.637954883999905e-02  1.010600966222948e+02  9.890900837102785e-01  -5.285806845307012e+00  9.890900837102785e-01  -5.285806845307012e+00  5.501256120232412e-02  91.4577853838924    