
!*************************************************************************
!! ASITIC Ver 10.20.99.0.0.0
!!  Data generated by the <2Port> command in <slow> mode.
!! Generated on Thu Apr 11 17:21:13 1974
!# Spiral Data:	Name = <W5>, Wire
!# L1 = 200.00, Origin = <150.00,150.00>
!# Sides =   1, Metal =   1, Exit Metal =  -1
!# W =  8.00, S =  0.00, N =  0.25
!# Theta =  0.00, Phase =   1
!# Technolog File Data <BiCMOS.tek> @ <.>
!# Auto-Cell Mode:  <alpha> = 0.050000, <beta> = 0.800000
!# Metal Layers
!# Name=MSUB      Met=0  Lyr=  1  Mz=50.00  T=0.40  RS=0.04  Col=BLUE    
!# Name=M2        Met=1  Lyr=  2  Mz=47.00  T=0.80  RS=0.05  Col=GREEN   
!# Name=M3        Met=2  Lyr=  2  Mz=45.00  T=2.00  RS=0.02  Col=RED     
!# Substrate Layers
!# Lyr=    0  Eps=  12  Rho=1e+05  DZ=8.5e+02  T=8e+02
!# Lyr=    1  Eps=  12  Rho=1e+03  DZ=  52  T=   2
!# Lyr=    2  Eps=   4  Rho=1e+14  DZ=  50  T=  50
!*************************************************************************
# GHZ S MA S11 mag    S11 phase  S12 mag    S12 phase  S21 mag    S21 phase  S22 mag    S22 phase  
1.000000000000000e+00  1.148809274885589e-02  -3.006640333721513e-01  9.871961627300881e-01  -9.275959816622119e-01  9.871961627300881e-01  -9.275959816622119e-01  1.306088051592949e-02  24.3360792298127    
1.500000000000000e+00  1.047740024350327e-02  8.010717638097672e-01  9.866384984141706e-01  -1.385008239940137e+00  9.866384984141706e-01  -1.385008239940137e+00  1.402676643350038e-02  35.774934644591     
2.000000000000000e+00  9.167523453220489e-03  3.875124562350567e+00  9.859018010074811e-01  -1.835893490512729e+00  9.859018010074811e-01  -1.835893490512729e+00  1.546153136352040e-02  46.2246183107063    
2.500000000000000e+00  7.717102935070745e-03  1.049872563154403e+01  9.850051932604594e-01  -2.278869086179763e+00  9.850051932604594e-01  -2.278869086179763e+00  1.739484690949914e-02  55.2896888981001    
3.000000000000000e+00  6.385725593163504e-03  2.332332156319298e+01  9.839994185746866e-01  -2.713015630153246e+00  9.839994185746866e-01  -2.713015630153246e+00  1.979647469372967e-02  62.8539623881271    
3.500000000000000e+00  5.689309744340627e-03  4.434919181779686e+01  9.828997986189167e-01  -3.137465014576558e+00  9.828997986189167e-01  -3.137465014576558e+00  2.261809094270010e-02  68.9122709343989    
4.000000000000000e+00  6.187442707115340e-03  6.867909264930329e+01  9.817558518754633e-01  -3.553878040041050e+00  9.817558518754633e-01  -3.553878040041050e+00  2.581502005411097e-02  73.7145378917391    
4.500000000000000e+00  7.871185767028676e-03  8.647874485075647e+01  9.805725120341376e-01  -3.962437969104870e+00  9.805725120341376e-01  -3.962437969104870e+00  2.932621075915098e-02  77.4218359326409    
5.000000000000000e+00  1.028444595955753e-02  9.674735279258402e+01  9.793898791278174e-01  -4.363362148404439e+00  9.793898791278174e-01  -4.363362148404439e+00  3.308055281853960e-02  80.2850310272382    
5.500000000000000e+00  1.310253884065615e-02  1.022721178491596e+02  9.782133139055043e-01  -4.757759366827366e+00  9.782133139055043e-01  -4.757759366827366e+00  3.703467588402276e-02  82.4703698218586    
6.000000000000000e+00  1.614717040222504e-02  1.051237759706582e+02  9.770399754169719e-01  -5.146395308718851e+00  9.770399754169719e-01  -5.146395308718851e+00  4.114539834312170e-02  84.1090336926869    
6.500000000000000e+00  1.933738789119528e-02  1.065360546508858e+02  9.759002799599940e-01  -5.530226888151302e+00  9.759002799599940e-01  -5.530226888151302e+00  4.537821992668858e-02  85.3554561787547    
7.000000000000000e+00  2.261706284167706e-02  1.070749192583238e+02  9.747865313480023e-01  -5.909961672914061e+00  9.747865313480023e-01  -5.909961672914061e+00  4.970507700417506e-02  86.2837486127077    
7.500000000000001e+00  2.594560796570512e-02  1.070580641404525e+02  9.736873970564431e-01  -6.286079942538761e+00  9.736873970564431e-01  -6.286079942538761e+00  5.409991892931960e-02  86.95095488658      
8.000000000000000e+00  2.931561548703767e-02  1.067328045037095e+02  9.726264636481132e-01  -6.659500868056611e+00  9.726264636481132e-01  -6.659500868056611e+00  5.855039233924754e-02  87.4386071131531    
8.500000000000000e+00  3.270555528482048e-02  1.061963414092367e+02  9.715910517882184e-01  -7.030576396766011e+00  9.715910517882184e-01  -7.030576396766011e+00  6.303989792386730e-02  87.7751945139896    
9.000000000000000e+00  3.610493178405883e-02  1.055256583200593e+02  9.705790909024808e-01  -7.399726721082087e+00  9.705790909024808e-01  -7.399726721082087e+00  6.755729447846930e-02  87.9930306987158    
9.500000000000000e+00  3.949925809278422e-02  1.047530268672281e+02  9.695744051982687e-01  -7.767168703801023e+00  9.695744051982687e-01  -7.767168703801023e+00  7.209102500829447e-02  88.1059899385835    
1.000000000000000e+01  4.289660961101997e-02  1.039472177974985e+02  9.686006299743601e-01  -8.133419096111993e+00  9.686006299743601e-01  -8.133419096111993e+00  7.663931481626934e-02  88.1556760057665    
1.050000000000000e+01  4.628715858235508e-02  1.031125015169872e+02  9.676424094425424e-01  -8.498616328495567e+00  9.676424094425424e-01  -8.498616328495567e+00  8.119484375040566e-02  88.1463016886877    
1.100000000000000e+01  4.966845803434958e-02  1.022639987136144e+02  9.666970605719282e-01  -8.862952367338702e+00  9.666970605719282e-01  -8.862952367338702e+00  8.575363018053252e-02  88.0897852676295    
1.150000000000000e+01  5.303271704641694e-02  1.013977449630163e+02  9.657477965921599e-01  -9.226486880348579e+00  9.657477965921599e-01  -9.226486880348579e+00  9.031016507676264e-02  87.9862445550036    
1.200000000000000e+01  5.639071245318442e-02  1.005493022156388e+02  9.648197042504356e-01  -9.589504575952411e+00  9.648197042504356e-01  -9.589504575952411e+00  9.486648898018016e-02  87.861542956578     
1.250000000000000e+01  5.973638487030842e-02  9.970903817905052e+01  9.638972093182665e-01  -9.952037506421844e+00  9.638972093182665e-01  -9.952037506421844e+00  9.941899471160683e-02  87.7124262894231    
1.300000000000000e+01  6.306956703281713e-02  9.888005544204616e+01  9.629782273609230e-01  -1.031416377866121e+01  9.629782273609230e-01  -1.031416377866121e+01  1.039664071288072e-01  87.5436025070246    
1.350000000000000e+01  6.638616770152084e-02  9.805184889094819e+01  9.620461274286487e-01  -1.067595312253765e+01  9.620461274286487e-01  -1.067595312253765e+01  1.085069905152555e-01  87.350764097695     
1.400000000000000e+01  6.969427281523256e-02  9.725054967669986e+01  9.611278194403691e-01  -1.103741238179547e+01  9.611278194403691e-01  -1.103741238179547e+01  1.130412103953210e-01  87.1530045616221    
1.450000000000000e+01  7.299053932955692e-02  9.646426963533627e+01  9.602077898281171e-01  -1.139860742341058e+01  9.602077898281171e-01  -1.139860742341058e+01  1.175682367508589e-01  86.9447784240204    
1.500000000000000e+01  7.627539783064848e-02  9.569321633448871e+01  9.592846129965446e-01  -1.175956470706881e+01  9.592846129965446e-01  -1.175956470706881e+01  1.220877469789119e-01  86.7280591045894    
1.550000000000000e+01  7.954932380181558e-02  9.493731691432004e+01  9.583570034659556e-01  -1.212030317275548e+01  9.583570034659556e-01  -1.212030317275548e+01  1.265995299090726e-01  86.5044467427959    
1.600000000000000e+01  8.281017225530779e-02  9.418524586915089e+01  9.574080493757949e-01  -1.248091747321298e+01  9.574080493757949e-01  -1.248091747321298e+01  1.311037934211544e-01  86.2680245394751    
1.650000000000000e+01  8.606335374591115e-02  9.345870745298068e+01  9.564675150323585e-01  -1.284123276895224e+01  9.564675150323585e-01  -1.284123276895224e+01  1.355994007256350e-01  86.0342199684521    
1.700000000000000e+01  8.930708736193539e-02  9.274616891120564e+01  9.555194139976266e-01  -1.320135270883151e+01  9.555194139976266e-01  -1.320135270883151e+01  1.400870283600141e-01  85.7967509306649    
1.750000000000000e+01  9.254185730796764e-02  9.204709429739084e+01  9.545629120233500e-01  -1.356127799378331e+01  9.545629120233500e-01  -1.356127799378331e+01  1.445666720071119e-01  85.5563261190006    