
!*************************************************************************
!! ASITIC Ver 10.20.99.0.0.0
!!  Data generated by the <2Port> command in <slow> mode.
!! Generated on Thu Apr 11 17:21:13 1974
!# Spiral Data:	Name = <W5>, Wire
!# L1 = 200.00, Origin = <150.00,150.00>
!# Sides =   1, Metal =   2, Exit Metal =  -1
!# W =  8.00, S =  0.00, N =  0.25
!# Theta =  0.00, Phase =   1
!# Technolog File Data <CMOS.tek> @ <.>
!# Auto-Cell Mode:  <alpha> = 0.050000, <beta> = 0.800000
!# Metal Layers
!# Name=M1        Met=0  Lyr=  1  Mz=48.70  T=0.50  RS=0.07  Col=YELLOW  
!# Name=M2        Met=1  Lyr=  1  Mz=47.60  T=0.50  RS=0.06  Col=LIGHTSKYBLUE1
!# Name=M3        Met=2  Lyr=  1  Mz=46.50  T=0.50  RS=0.06  Col=MEDIUM PURPLE
!# Name=M4        Met=3  Lyr=  1  Mz=45.50  T=0.50  RS=0.06  Col=LIGHT GREEN
!# Name=M5        Met=4  Lyr=  1  Mz=44.00  T=1.00  RS=0.03  Col=GREY    
!# Substrate Layers
!# Lyr=    0  Eps=  12  Rho=  10  DZ=7.5e+02  T=7e+02
!# Lyr=    1  Eps= 3.9  Rho=1e+14  DZ=  50  T=  50
!*************************************************************************
# GHZ S MA S11 mag    S11 phase  S12 mag    S12 phase  S21 mag    S21 phase  S22 mag    S22 phase  
1.000000000000000e+00  1.363466849087793e-02  4.505394309347436e+00  9.864081198058222e-01  -9.002020272631274e-01  9.864081198058222e-01  -9.002020272631274e-01  1.481852407070499e-02  23.7480519712587    
1.500000000000000e+00  1.372311979756819e-02  6.723557199488566e+00  9.863727457249346e-01  -1.350270212383274e+00  9.863727457249346e-01  -1.350270212383274e+00  1.625157107357292e-02  33.4229168725039    
2.000000000000000e+00  1.385254737992767e-02  8.906087028622151e+00  9.863171787941021e-01  -1.800428680220234e+00  9.863171787941021e-01  -1.800428680220234e+00  1.807399633314131e-02  41.3379857513872    
2.500000000000000e+00  1.401555023737258e-02  1.097843984383473e+01  9.862449092485291e-01  -2.249754361360720e+00  9.862449092485291e-01  -2.249754361360720e+00  2.016758234945874e-02  47.6757536238113    
3.000000000000000e+00  1.420944884451061e-02  1.302333379875611e+01  9.861617766452333e-01  -2.699488583241668e+00  9.861617766452333e-01  -2.699488583241668e+00  2.246527727959404e-02  52.7913242025838    
3.500000000000000e+00  1.444315121160956e-02  1.500752480211516e+01  9.860575542700947e-01  -3.149434563775281e+00  9.860575542700947e-01  -3.149434563775281e+00  2.491651965255412e-02  56.923929484342     
4.000000000000000e+00  1.470089802588762e-02  1.689679481048330e+01  9.859443746409532e-01  -3.598965663459346e+00  9.859443746409532e-01  -3.598965663459346e+00  2.746689549379292e-02  60.3061213424454    
4.500000000000000e+00  1.499452518759029e-02  1.869098411739821e+01  9.858098778487363e-01  -4.048371216376340e+00  9.858098778487363e-01  -4.048371216376340e+00  3.009974925554124e-02  63.0930109267743    
5.000000000000000e+00  1.530932030220637e-02  2.040458411850653e+01  9.856682743487472e-01  -4.497616546622792e+00  9.856682743487472e-01  -4.497616546622792e+00  3.278931266776385e-02  65.4377932930816    
5.500000000000000e+00  1.565507791509682e-02  2.201046114383972e+01  9.855066590398679e-01  -4.946568172264234e+00  9.855066590398679e-01  -4.946568172264234e+00  3.552539820516620e-02  67.4137386586559    
6.000000000000000e+00  1.602039413241386e-02  2.354655459457229e+01  9.853386541054231e-01  -5.395516645174656e+00  9.853386541054231e-01  -5.395516645174656e+00  3.829799896168097e-02  69.1174106538687    
6.500000000000000e+00  1.640873429185066e-02  2.499860257271186e+01  9.851586265367629e-01  -5.844345981649397e+00  9.851586265367629e-01  -5.844345981649397e+00  4.110051125934585e-02  70.5928585526297    
7.000000000000000e+00  1.681755987218192e-02  2.631734617102093e+01  9.849604155313205e-01  -6.292260419987377e+00  9.849604155313205e-01  -6.292260419987377e+00  4.391623692131027e-02  71.8693487673493    
7.500000000000001e+00  1.724841231867590e-02  2.760748197518652e+01  9.847567616876258e-01  -6.740819539881603e+00  9.847567616876258e-01  -6.740819539881603e+00  4.676348556024941e-02  73.0060236019047    
8.000000000000000e+00  1.769952425226497e-02  2.882437412459157e+01  9.845421680429636e-01  -7.189307348275880e+00  9.845421680429636e-01  -7.189307348275880e+00  4.962921810870781e-02  74.0157220758379    
8.500000000000000e+00  1.817799359737054e-02  2.996478235770106e+01  9.843093573728442e-01  -7.637891027927395e+00  9.843093573728442e-01  -7.637891027927395e+00  5.251558377542901e-02  74.9113884414866    
9.000000000000000e+00  1.866859660720984e-02  3.104546193503441e+01  9.840729459273589e-01  -8.086294987999590e+00  9.840729459273589e-01  -8.086294987999590e+00  5.541304897396412e-02  75.7239559585509    
9.500000000000000e+00  1.917822832834102e-02  3.206509037518655e+01  9.838262982402388e-01  -8.534693881997757e+00  9.838262982402388e-01  -8.534693881997757e+00  5.832479932576414e-02  76.4596163397066    
1.000000000000000e+01  1.970677231436119e-02  3.302752917664856e+01  9.835695685458199e-01  -8.983112253695010e+00  9.835695685458199e-01  -8.983112253695010e+00  6.125024969236145e-02  77.1291206981492    
1.050000000000000e+01  2.026274127575255e-02  3.391593524374228e+01  9.832917669821920e-01  -9.431575705522022e+00  9.832917669821920e-01  -9.431575705522022e+00  6.419075047421670e-02  77.7314424928241    
1.100000000000000e+01  2.082943639263005e-02  3.477250948247836e+01  9.830143751125374e-01  -9.880086230997588e+00  9.830143751125374e-01  -9.880086230997588e+00  6.714238720835564e-02  78.2932542453992    
1.150000000000000e+01  2.141532907050602e-02  3.558211444480349e+01  9.827271096545838e-01  -1.032868960343233e+01  9.827271096545838e-01  -1.032868960343233e+01  7.010721587598591e-02  78.8111058342725    
1.200000000000000e+01  2.203306138259681e-02  3.634013885907987e+01  9.824191561520217e-01  -1.077778512575668e+01  9.824191561520217e-01  -1.077778512575668e+01  7.309302307619725e-02  79.2821718613285    
1.250000000000000e+01  2.265872869791481e-02  3.706249551029389e+01  9.821114052751418e-01  -1.122664645741053e+01  9.821114052751418e-01  -1.122664645741053e+01  7.608462623735204e-02  79.7262380243402    
1.300000000000000e+01  2.330463293717033e-02  3.774576645927964e+01  9.817936763881806e-01  -1.167567187448279e+01  9.817936763881806e-01  -1.167567187448279e+01  7.908998782998951e-02  80.139331361693     
1.350000000000000e+01  2.397124020826765e-02  3.839209795584468e+01  9.814658832379738e-01  -1.212488426495050e+01  9.814658832379738e-01  -1.212488426495050e+01  8.210942571971629e-02  80.5245350452578    
1.400000000000000e+01  2.466158900841947e-02  3.898147945345129e+01  9.811193222942660e-01  -1.257404713824712e+01  9.811193222942660e-01  -1.257404713824712e+01  8.513947785303289e-02  80.8784453502709    
1.450000000000000e+01  2.537106637468428e-02  3.955870605035908e+01  9.807705734631443e-01  -1.302367868422863e+01  9.807705734631443e-01  -1.302367868422863e+01  8.818774764204196e-02  81.2153178832603    
1.500000000000000e+01  2.610284570256262e-02  4.010426823917007e+01  9.804113609921601e-01  -1.347356050163114e+01  9.804113609921601e-01  -1.347356050163114e+01  9.125119808524139e-02  81.5311741615602    
1.550000000000000e+01  2.685751570943501e-02  4.061957771721031e+01  9.800415189044944e-01  -1.392371226675603e+01  9.800415189044944e-01  -1.392371226675603e+01  9.433023066443567e-02  81.8277155695667    
1.600000000000000e+01  2.764454395456932e-02  4.109009057238910e+01  9.796495318154910e-01  -1.437427418465680e+01  9.796495318154910e-01  -1.437427418465680e+01  9.742781144464382e-02  82.0997346672246    
1.650000000000000e+01  2.844692384355505e-02  4.154770508140512e+01  9.792573397138145e-01  -1.482501138161993e+01  9.792573397138145e-01  -1.482501138161993e+01  1.005389798763201e-01  82.3617872216544    
1.700000000000000e+01  2.927402665254138e-02  4.197857655081306e+01  9.788539306754884e-01  -1.527607183533549e+01  9.788539306754884e-01  -1.527607183533549e+01  1.036669254127278e-01  82.6084487263231    
1.750000000000000e+01  3.012648533006834e-02  4.238366106224311e+01  9.784390889718276e-01  -1.572747195856480e+01  9.784390889718276e-01  -1.572747195856480e+01  1.068120445540962e-01  82.8407225840278    