
!*************************************************************************
!! ASITIC Ver 10.20.99.0.0.0
!!  Data generated by the <2Port> command in <slow> mode.
!! Generated on Thu Apr 11 17:21:13 1974
!# Spiral Data:	Name = <W3>, Wire
!# L1 = 100.00, Origin = <100.00,100.00>
!# Sides =   1, Metal =   2, Exit Metal =  -1
!# W =  8.00, S =  0.00, N =  0.25
!# Theta =  0.00, Phase =   1
!# Technolog File Data <CMOS.tek> @ <.>
!# Auto-Cell Mode:  <alpha> = 0.050000, <beta> = 0.800000
!# Metal Layers
!# Name=M1        Met=0  Lyr=  1  Mz=48.70  T=0.50  RS=0.07  Col=YELLOW  
!# Name=M2        Met=1  Lyr=  1  Mz=47.60  T=0.50  RS=0.06  Col=LIGHTSKYBLUE1
!# Name=M3        Met=2  Lyr=  1  Mz=46.50  T=0.50  RS=0.06  Col=MEDIUM PURPLE
!# Name=M4        Met=3  Lyr=  1  Mz=45.50  T=0.50  RS=0.06  Col=LIGHT GREEN
!# Name=M5        Met=4  Lyr=  1  Mz=44.00  T=1.00  RS=0.03  Col=GREY    
!# Substrate Layers
!# Lyr=    0  Eps=  12  Rho=  10  DZ=7.5e+02  T=7e+02
!# Lyr=    1  Eps= 3.9  Rho=1e+14  DZ=  50  T=  50
!*************************************************************************
# GHZ S MA S11 mag    S11 phase  S12 mag    S12 phase  S21 mag    S21 phase  S22 mag    S22 phase  
1.000000000000000e+00  6.838976467055246e-03  -2.838462493937779e+00  9.931648836974820e-01  -4.052927516445307e-01  9.931648836974820e-01  -4.052927516445307e-01  7.152500436894155e-03  17.3961425728296    
1.500000000000000e+00  6.852577949579859e-03  -4.254487705207424e+00  9.931561098883620e-01  -6.079119016709547e-01  9.931561098883620e-01  -6.079119016709547e-01  7.538237537813754e-03  25.1801699121015    
2.000000000000000e+00  6.874951738549593e-03  -5.674761369061713e+00  9.931405990910120e-01  -8.104255211720274e-01  9.931405990910120e-01  -8.104255211720274e-01  8.049036216619693e-03  32.0757995833659    
2.500000000000000e+00  6.904108531164507e-03  -7.092723093210594e+00  9.931203488408977e-01  -1.012859235033881e+00  9.931203488408977e-01  -1.012859235033881e+00  8.660882755527356e-03  38.0675586418519    
3.000000000000000e+00  6.937065132107267e-03  -8.498951472257080e+00  9.930982257331328e-01  -1.215276922485538e+00  9.930982257331328e-01  -1.215276922485538e+00  9.352249150626265e-03  43.2329219584372    
3.500000000000000e+00  6.979843816492862e-03  -9.948132368675710e+00  9.930692983795889e-01  -1.417232494855963e+00  9.930692983795889e-01  -1.417232494855963e+00  1.010437802573034e-02  47.6191242220898    
4.000000000000000e+00  7.025062013145369e-03  -1.134661565198907e+01  9.930392918163032e-01  -1.619415581259454e+00  9.930392918163032e-01  -1.619415581259454e+00  1.090829954364291e-02  51.4083233261496    
4.500000000000000e+00  7.078426208817398e-03  -1.268714865431773e+01  9.930020925915299e-01  -1.821806704420029e+00  9.930020925915299e-01  -1.821806704420029e+00  1.175779272743500e-02  54.6668660213238    
5.000000000000000e+00  7.134741495994892e-03  -1.406110376959048e+01  9.929649500475622e-01  -2.023807765641575e+00  9.929649500475622e-01  -2.023807765641575e+00  1.263204273093839e-02  57.4820853490554    
5.500000000000000e+00  7.200683457598005e-03  -1.547373672030913e+01  9.929219378616065e-01  -2.225277480155752e+00  9.929219378616065e-01  -2.225277480155752e+00  1.352556311397296e-02  59.9057544321842    
6.000000000000000e+00  7.267451700647189e-03  -1.682666325823707e+01  9.928788242407890e-01  -2.427007874193831e+00  9.928788242407890e-01  -2.427007874193831e+00  1.444241615609150e-02  62.0516212351696    
6.500000000000000e+00  7.338707642894311e-03  -1.816486737941411e+01  9.928332931897538e-01  -2.628624433399500e+00  9.928332931897538e-01  -2.628624433399500e+00  1.537462749109656e-02  63.9448807215025    
7.000000000000000e+00  7.417299165010522e-03  -1.945444712099753e+01  9.927813270320270e-01  -2.830306310124286e+00  9.927813270320270e-01  -2.830306310124286e+00  1.632376487840370e-02  65.6173439025481    
7.500000000000001e+00  7.497138897285090e-03  -2.075757880930052e+01  9.927310848388834e-01  -3.031703950800851e+00  9.927310848388834e-01  -3.031703950800851e+00  1.727867591025123e-02  67.1197217544834    
8.000000000000000e+00  7.580691068605479e-03  -2.204227038999067e+01  9.926790294562278e-01  -3.232995236379920e+00  9.926790294562278e-01  -3.232995236379920e+00  1.824190099311052e-02  68.4715394407277    
8.500000000000000e+00  7.672248904114397e-03  -2.330510915888678e+01  9.926209811609010e-01  -3.434107435090530e+00  9.926209811609010e-01  -3.434107435090530e+00  1.921222272901617e-02  69.6815613200306    
9.000000000000000e+00  7.762912517396543e-03  -2.454947774024684e+01  9.925653948121567e-01  -3.635188688109838e+00  9.925653948121567e-01  -3.635188688109838e+00  2.018805064966350e-02  70.7947143098891    
9.500000000000000e+00  7.856528576340066e-03  -2.577229651169754e+01  9.925084632761566e-01  -3.836180349897347e+00  9.925084632761566e-01  -3.836180349897347e+00  2.116888065955871e-02  71.8133412901863    
1.000000000000000e+01  7.952847716392765e-03  -2.697274772614945e+01  9.924503107979099e-01  -4.037089365535403e+00  9.924503107979099e-01  -4.037089365535403e+00  2.215406806234155e-02  72.7500853888797    
1.050000000000000e+01  8.055961955283478e-03  -2.813040887714593e+01  9.923859483076465e-01  -4.237960148280396e+00  9.923859483076465e-01  -4.237960148280396e+00  2.314507050278529e-02  73.603729802313     
1.100000000000000e+01  8.157303442305907e-03  -2.928339282087829e+01  9.923252846507916e-01  -4.438718734408770e+00  9.923252846507916e-01  -4.438718734408770e+00  2.413750883826358e-02  74.4061872082744    
1.150000000000000e+01  8.260644551527297e-03  -3.041220090566541e+01  9.922636683899774e-01  -4.639416042795360e+00  9.922636683899774e-01  -4.639416042795360e+00  2.513313292718970e-02  75.1537175321825    
1.200000000000000e+01  8.369291052442157e-03  -3.149417669172200e+01  9.921965211329353e-01  -4.840127732481522e+00  9.921965211329353e-01  -4.840127732481522e+00  2.613391176594614e-02  75.8432984080939    
1.250000000000000e+01  8.476206516408529e-03  -3.257278700403884e+01  9.921328698731731e-01  -5.040721034478195e+00  9.921328698731731e-01  -5.040721034478195e+00  2.713529422226170e-02  76.4987211844916    
1.300000000000000e+01  8.584473387843352e-03  -3.362634444142935e+01  9.920684121864338e-01  -5.241274291218363e+00  9.920684121864338e-01  -5.241274291218363e+00  2.813939276076786e-02  77.1156364395332    
1.350000000000000e+01  8.693886079405518e-03  -3.465474117309135e+01  9.920031777095604e-01  -5.441794327635830e+00  9.920031777095604e-01  -5.441794327635830e+00  2.914614308076797e-02  77.6980337811354    
1.400000000000000e+01  8.807157921253819e-03  -3.562750029052675e+01  9.919322534101140e-01  -5.642427526181553e+00  9.919322534101140e-01  -5.642427526181553e+00  3.015876302488005e-02  78.2409137461246    
1.450000000000000e+01  8.918451660539228e-03  -3.660466614257955e+01  9.918652269430536e-01  -5.842900241947022e+00  9.918652269430536e-01  -5.842900241947022e+00  3.117073498779173e-02  78.7638407431083    
1.500000000000000e+01  9.030315463770327e-03  -3.755678892108504e+01  9.917974586941446e-01  -6.043358337022299e+00  9.917974586941446e-01  -6.043358337022299e+00  3.218531334052249e-02  79.2613091919602    
1.550000000000000e+01  9.142566629465205e-03  -3.848402817385990e+01  9.917289501607449e-01  -6.243807584030037e+00  9.917289501607449e-01  -6.243807584030037e+00  3.320252146273685e-02  79.7356011796872    
1.600000000000000e+01  9.259604462003650e-03  -3.936997547018730e+01  9.916544309035241e-01  -6.444228002293384e+00  9.916544309035241e-01  -6.444228002293384e+00  3.422268009131341e-02  80.1798574445523    
1.650000000000000e+01  9.372335691496446e-03  -4.024757467795817e+01  9.915841772565526e-01  -6.644669579176392e+00  9.915841772565526e-01  -6.644669579176392e+00  3.524514257149026e-02  80.6133967016072    
1.700000000000000e+01  9.484941429163717e-03  -4.110102033141406e+01  9.915131578260740e-01  -6.845117781977533e+00  9.915131578260740e-01  -6.845117781977533e+00  3.627036011301280e-02  81.0291006830533    
1.750000000000000e+01  9.597258553617587e-03  -4.193062331271489e+01  9.914413590295013e-01  -7.045577353955232e+00  9.914413590295013e-01  -7.045577353955232e+00  3.729839050745067e-02  81.4283571347634    