
!*************************************************************************
!! ASITIC Ver 10.20.99.0.0.0
!!  Data generated by the <2Port> command in <slow> mode.
!! Generated on Thu Apr 11 17:21:13 1974
!# Spiral Data:	Name = <W6>, Wire
!# L1 = 300.00, Origin = <50.00,200.00>
!# Sides =   1, Metal =   4, Exit Metal =  -1
!# W = 12.00, S =  0.00, N =  0.25
!# Theta =  0.00, Phase =   1
!# Technolog File Data <CMOS.tek> @ <.>
!# Auto-Cell Mode:  <alpha> = 0.050000, <beta> = 0.800000
!# Metal Layers
!# Name=M1        Met=0  Lyr=  1  Mz=48.70  T=0.50  RS=0.07  Col=YELLOW  
!# Name=M2        Met=1  Lyr=  1  Mz=47.60  T=0.50  RS=0.06  Col=LIGHTSKYBLUE1
!# Name=M3        Met=2  Lyr=  1  Mz=46.50  T=0.50  RS=0.06  Col=MEDIUM PURPLE
!# Name=M4        Met=3  Lyr=  1  Mz=45.50  T=0.50  RS=0.06  Col=LIGHT GREEN
!# Name=M5        Met=4  Lyr=  1  Mz=44.00  T=1.00  RS=0.03  Col=GREY    
!# Substrate Layers
!# Lyr=    0  Eps=  12  Rho=  10  DZ=7.5e+02  T=7e+02
!# Lyr=    1  Eps= 3.9  Rho=1e+14  DZ=  50  T=  50
!*************************************************************************
# GHZ S MA S11 mag    S11 phase  S12 mag    S12 phase  S21 mag    S21 phase  S22 mag    S22 phase  
1.000000000000000e+00  7.938770621366475e-03  1.802384702097031e+01  9.924655995082888e-01  -1.326367980458413e+00  9.924655995082888e-01  -1.326367980458413e+00  1.198882054004179e-02  51.3664357255913    
1.500000000000000e+00  8.522432545409582e-03  2.553783739260352e+01  9.923432990130965e-01  -1.988911302766094e+00  9.923432990130965e-01  -1.988911302766094e+00  1.593730253475262e-02  61.7411541713293    
2.000000000000000e+00  9.262164601052825e-03  3.174762907195072e+01  9.921818454611736e-01  -2.650337877678124e+00  9.921818454611736e-01  -2.650337877678124e+00  2.018651238588489e-02  67.8214344977978    
2.500000000000000e+00  1.011985508727840e-02  3.676700843587864e+01  9.919829283253361e-01  -3.310764237218929e+00  9.919829283253361e-01  -3.310764237218929e+00  2.457309056864972e-02  71.7207190161761    
3.000000000000000e+00  1.105985691025726e-02  4.081894064024919e+01  9.917577866645634e-01  -3.970358096847952e+00  9.917577866645634e-01  -3.970358096847952e+00  2.902850850750138e-02  74.4223467879975    
3.500000000000000e+00  1.206780132600409e-02  4.405485318394475e+01  9.914990998908845e-01  -4.629173648240614e+00  9.914990998908845e-01  -4.629173648240614e+00  3.352395935856954e-02  76.3841046819336    
4.000000000000000e+00  1.311953732179136e-02  4.665401459561378e+01  9.912169390641876e-01  -5.287024203967943e+00  9.912169390641876e-01  -5.287024203967943e+00  3.803761053985689e-02  77.8796076952325    
4.500000000000000e+00  1.421381097842753e-02  4.877701876794812e+01  9.909125344173526e-01  -5.944599796446727e+00  9.909125344173526e-01  -5.944599796446727e+00  4.257234079878842e-02  79.0608947975974    
5.000000000000000e+00  1.533556765092767e-02  5.053160595510474e+01  9.905949522900803e-01  -6.601636115605912e+00  9.905949522900803e-01  -6.601636115605912e+00  4.711757095112115e-02  80.0279598086974    
5.500000000000000e+00  1.649263732906049e-02  5.196135498890522e+01  9.902514037417786e-01  -7.258451330556121e+00  9.902514037417786e-01  -7.258451330556121e+00  5.167776827992262e-02  80.8236365675143    
6.000000000000000e+00  1.767621715313923e-02  5.316539631027741e+01  9.898958161132667e-01  -7.915156873557564e+00  9.898958161132667e-01  -7.915156873557564e+00  5.625166367151579e-02  81.5033938247052    
6.500000000000000e+00  1.889534762987745e-02  5.414921923063311e+01  9.895135894788429e-01  -8.571947535900772e+00  9.895135894788429e-01  -8.571947535900772e+00  6.084327729733754e-02  82.0793731893332    
7.000000000000000e+00  2.014165770104857e-02  5.498497006111521e+01  9.891194132053037e-01  -9.228826835803776e+00  9.891194132053037e-01  -9.228826835803776e+00  6.545107457563967e-02  82.5856789448543    
7.500000000000001e+00  2.142624768402090e-02  5.566247053961851e+01  9.886971674805066e-01  -9.886033805875359e+00  9.886971674805066e-01  -9.886033805875359e+00  7.008028844944954e-02  83.0224771051568    
8.000000000000000e+00  2.274030003562435e-02  5.623801715106125e+01  9.882623114990574e-01  -1.054347374563991e+01  9.882623114990574e-01  -1.054347374563991e+01  7.472853098866385e-02  83.4138988485969    
8.500000000000000e+00  2.409222246655727e-02  5.669184730674176e+01  9.877985568233927e-01  -1.120120001061149e+01  9.877985568233927e-01  -1.120120001061149e+01  7.939777248509930e-02  83.7555800869775    
9.000000000000000e+00  2.548033949563837e-02  5.707510423637525e+01  9.873204130096072e-01  -1.185948872502393e+01  9.873204130096072e-01  -1.185948872502393e+01  8.409266524381763e-02  84.0652801914042    
9.500000000000000e+00  2.690601840341216e-02  5.736213396565597e+01  9.868130250703795e-01  -1.251799055670019e+01  9.868130250703795e-01  -1.251799055670019e+01  8.880796209504321e-02  84.3377791177903    
1.000000000000000e+01  2.837518938697262e-02  5.759790426270489e+01  9.862887924968881e-01  -1.317736078913628e+01  9.862887924968881e-01  -1.317736078913628e+01  9.355532919348770e-02  84.5858989547669    
1.050000000000000e+01  2.989201441203938e-02  5.775750404525097e+01  9.857320439653355e-01  -1.383741580119652e+01  9.857320439653355e-01  -1.383741580119652e+01  9.833213897498642e-02  84.8033400900906    
1.100000000000000e+01  3.155418596748785e-02  5.809583789120045e+01  9.852310276710171e-01  -1.450620222797312e+01  9.852310276710171e-01  -1.450620222797312e+01  1.032800733634723e-01  85.0420661306114    
1.150000000000000e+01  3.316810396498934e-02  5.816616829141206e+01  9.846365154440400e-01  -1.516815468670192e+01  9.846365154440400e-01  -1.516815468670192e+01  1.081273180421268e-01  85.2204309635807    
1.200000000000000e+01  3.480895224568778e-02  5.816204905820917e+01  9.840072439745821e-01  -1.582932178209126e+01  9.840072439745821e-01  -1.582932178209126e+01  1.129797667903616e-01  85.3756679032192    
1.250000000000000e+01  3.652198672447530e-02  5.814602265167612e+01  9.833591056353205e-01  -1.649277100246464e+01  9.833591056353205e-01  -1.649277100246464e+01  1.178917423855574e-01  85.5172193775307    
1.300000000000000e+01  7.593071689287266e-02  6.584596048680974e+01  9.834776915931310e-01  -1.700209958026635e+01  9.834776915931310e-01  -1.700209958026635e+01  1.184541799644772e-01  77.3905250528511    
1.350000000000000e+01  7.882734800411692e-02  6.542783265728461e+01  9.828856895443772e-01  -1.764929938262373e+01  9.828856895443772e-01  -1.764929938262373e+01  1.228862683602725e-01  77.226812348231     
1.400000000000000e+01  8.173288827438155e-02  6.499595642454680e+01  9.822759247580223e-01  -1.829612250454396e+01  9.822759247580223e-01  -1.829612250454396e+01  1.273146175110016e-01  77.0535829746764    
1.450000000000000e+01  8.461871976947487e-02  6.454262769949997e+01  9.816398363417941e-01  -1.894078204898444e+01  9.816398363417941e-01  -1.894078204898444e+01  1.317084471092309e-01  76.8680304505751    
1.500000000000000e+01  8.754165245031238e-02  6.408718080869073e+01  9.809940863674732e-01  -1.958675149038514e+01  9.809940863674732e-01  -1.958675149038514e+01  1.361276211618613e-01  76.6783340362892    
1.550000000000000e+01  9.047437058174451e-02  6.362159911781944e+01  9.803304348671701e-01  -2.023232151051623e+01  9.803304348671701e-01  -2.023232151051623e+01  1.405427339895899e-01  76.4814222648755    
1.600000000000000e+01  9.339193023647709e-02  6.313848859240031e+01  9.796394793878532e-01  -2.087591466997455e+01  9.796394793878532e-01  -2.087591466997455e+01  1.449265156853975e-01  76.2743270880075    
1.650000000000000e+01  9.634394571550922e-02  6.265529977132924e+01  9.789396430709589e-01  -2.152059183949925e+01  9.789396430709589e-01  -2.152059183949925e+01  1.493319353750194e-01  76.0647092846566    
1.700000000000000e+01  9.930656082861739e-02  6.216445638060849e+01  9.782218411497980e-01  -2.216484127603633e+01  9.782218411497980e-01  -2.216484127603633e+01  1.537328913146508e-01  75.8494312623476    
1.750000000000000e+01  1.022513917382148e-01  6.165896414207068e+01  9.774770493708346e-01  -2.280688800638755e+01  9.774770493708346e-01  -2.280688800638755e+01  1.580986442166524e-01  75.6259297241137    