
!*************************************************************************
!! ASITIC Ver 10.20.99.0.0.0
!!  Data generated by the <2Port> command in <slow> mode.
!! Generated on Thu Apr 11 17:21:13 1974
!# Spiral Data:	Name = <W4>, Wire
!# L1 = 150.00, Origin = <50.00,50.00>
!# Sides =   1, Metal =   4, Exit Metal =  -1
!# W = 12.00, S =  0.00, N =  0.25
!# Theta =  0.00, Phase =   1
!# Technolog File Data <CMOS.tek> @ <.>
!# Auto-Cell Mode:  <alpha> = 0.050000, <beta> = 0.800000
!# Metal Layers
!# Name=M1        Met=0  Lyr=  1  Mz=48.70  T=0.50  RS=0.07  Col=YELLOW  
!# Name=M2        Met=1  Lyr=  1  Mz=47.60  T=0.50  RS=0.06  Col=LIGHTSKYBLUE1
!# Name=M3        Met=2  Lyr=  1  Mz=46.50  T=0.50  RS=0.06  Col=MEDIUM PURPLE
!# Name=M4        Met=3  Lyr=  1  Mz=45.50  T=0.50  RS=0.06  Col=LIGHT GREEN
!# Name=M5        Met=4  Lyr=  1  Mz=44.00  T=1.00  RS=0.03  Col=GREY    
!# Substrate Layers
!# Lyr=    0  Eps=  12  Rho=  10  DZ=7.5e+02  T=7e+02
!# Lyr=    1  Eps= 3.9  Rho=1e+14  DZ=  50  T=  50
!*************************************************************************
# GHZ S MA S11 mag    S11 phase  S12 mag    S12 phase  S21 mag    S21 phase  S22 mag    S22 phase  
1.000000000000000e+00  3.761724858976768e-03  -3.122515037775919e+00  9.962362777281673e-01  -5.971150780525309e-01  9.962362777281673e-01  -5.971150780525309e-01  5.018857408585999e-03  41.749746749338     
1.500000000000000e+00  3.799207548984932e-03  -4.789023527417408e+00  9.961968990405349e-01  -8.951024959638455e-01  9.961968990405349e-01  -8.951024959638455e-01  6.258253009227158e-03  53.0778766935834    
2.000000000000000e+00  3.847628148580578e-03  -6.449343878050024e+00  9.961461021556560e-01  -1.192923931180627e+00  9.961461021556560e-01  -1.192923931180627e+00  7.657662725028059e-03  60.452340960085     
2.500000000000000e+00  3.906895095907158e-03  -8.245616219496991e+00  9.960853224893562e-01  -1.489974583648315e+00  9.960853224893562e-01  -1.489974583648315e+00  9.132366699085570e-03  65.4569979905977    
3.000000000000000e+00  3.972012062623667e-03  -1.008011742897697e+01  9.960194901579114e-01  -1.786609798718994e+00  9.960194901579114e-01  -1.786609798718994e+00  1.064922122366255e-02  69.0617743986109    
3.500000000000000e+00  4.047055379566259e-03  -1.196137661232222e+01  9.959451713558440e-01  -2.082715662448697e+00  9.959451713558440e-01  -2.082715662448697e+00  1.218902496083062e-02  71.7532898865964    
4.000000000000000e+00  4.127228327774798e-03  -1.383014560367651e+01  9.958667862712123e-01  -2.378532122085632e+00  9.958667862712123e-01  -2.378532122085632e+00  1.374392531866078e-02  73.8556918805185    
4.500000000000000e+00  4.211729770666685e-03  -1.573067039672494e+01  9.957860822196177e-01  -2.673864403262773e+00  9.957860822196177e-01  -2.673864403262773e+00  1.530435814635822e-02  75.549416256448     
5.000000000000000e+00  4.296553128118203e-03  -1.763480214872475e+01  9.957068604514537e-01  -2.968864905875766e+00  9.957068604514537e-01  -2.968864905875766e+00  1.686853613788959e-02  76.9627618052289    
5.500000000000000e+00  4.387173866417346e-03  -1.949656401904964e+01  9.956230770375377e-01  -3.263631105522968e+00  9.956230770375377e-01  -3.263631105522968e+00  1.843724023680471e-02  78.149901406713     
6.000000000000000e+00  4.476756793703479e-03  -2.133841110290571e+01  9.955417713652112e-01  -3.558174541687881e+00  9.955417713652112e-01  -3.558174541687881e+00  2.000783437820276e-02  79.1838977950972    
6.500000000000000e+00  4.571321585294434e-03  -2.310901966194113e+01  9.954558741664296e-01  -3.852601967545489e+00  9.954558741664296e-01  -3.852601967545489e+00  2.158245621905554e-02  80.0805356833471    
7.000000000000000e+00  4.663946746034306e-03  -2.484916393041058e+01  9.953727943912952e-01  -4.146874144915805e+00  9.953727943912952e-01  -4.146874144915805e+00  2.315861128849529e-02  80.8855907204455    
7.500000000000001e+00  4.760794766070077e-03  -2.649914501759504e+01  9.952847734811896e-01  -4.441122516314969e+00  9.952847734811896e-01  -4.441122516314969e+00  2.473924973306560e-02  81.5994090946652    
8.000000000000000e+00  4.855025419257226e-03  -2.811559262662790e+01  9.951995983258599e-01  -4.735256609153953e+00  9.951995983258599e-01  -4.735256609153953e+00  2.632152213463162e-02  82.2546778627593    
8.500000000000000e+00  4.953809464447545e-03  -2.967861590372888e+01  9.951098869546846e-01  -5.029194716563712e+00  9.951098869546846e-01  -5.029194716563712e+00  2.790469186241521e-02  82.845949824132     
9.000000000000000e+00  5.048423817800996e-03  -3.116229518491965e+01  9.950221418136034e-01  -5.323273721323602e+00  9.950221418136034e-01  -5.323273721323602e+00  2.949380749564979e-02  83.397147346676     
9.500000000000000e+00  5.146146166672174e-03  -3.255703879107464e+01  9.949289740407836e-01  -5.617355041945945e+00  9.949289740407836e-01  -5.617355041945945e+00  3.108708321196561e-02  83.9001707810777    
1.000000000000000e+01  5.239660021662865e-03  -3.390424850976300e+01  9.948381264888230e-01  -5.911456672900157e+00  9.948381264888230e-01  -5.911456672900157e+00  3.268418768149516e-02  84.3754991544485    
1.050000000000000e+01  5.335208268704887e-03  -3.515292643953618e+01  9.947414420972269e-01  -6.205640107897170e+00  9.947414420972269e-01  -6.205640107897170e+00  3.428677723964520e-02  84.8133061735544    
1.100000000000000e+01  5.355694683689721e-03  -3.597534865535043e+01  9.946873841497704e-01  -6.503743895985235e+00  9.946873841497704e-01  -6.503743895985235e+00  3.595926988661148e-02  85.3008266703324    
1.150000000000000e+01  5.439488813281995e-03  -3.711421865315825e+01  9.945937883694349e-01  -6.798246704811065e+00  9.945937883694349e-01  -6.798246704811065e+00  3.757522658799600e-02  85.695608321368     
1.200000000000000e+01  5.532543211159422e-03  -3.826824525876658e+01  9.944929646282321e-01  -7.092088355486326e+00  9.944929646282321e-01  -7.092088355486326e+00  3.918385359397047e-02  86.0609136208747    
1.250000000000000e+01  5.612205629315125e-03  -3.927932440652705e+01  9.943951620347244e-01  -7.386709326627545e+00  9.943951620347244e-01  -7.386709326627545e+00  4.080995950459723e-02  86.4156980120706    
1.300000000000000e+01  5.701355667011440e-03  -4.030616516687513e+01  9.942896937692628e-01  -7.680644921449439e+00  9.942896937692628e-01  -7.680644921449439e+00  4.242839650300131e-02  86.7456487359003    
1.350000000000000e+01  5.775639817588153e-03  -4.119285799440933e+01  9.941873172376195e-01  -7.975419316717004e+00  9.941873172376195e-01  -7.975419316717004e+00  4.406561747010946e-02  87.0680234554543    
1.400000000000000e+01  5.846428688162116e-03  -4.201783967842611e+01  9.940826617745279e-01  -8.270302105913460e+00  9.940826617745279e-01  -8.270302105913460e+00  4.570911630114281e-02  87.3763612189094    
1.450000000000000e+01  5.926192754073980e-03  -4.285424002804995e+01  9.939700427429067e-01  -8.564518019746597e+00  9.939700427429067e-01  -8.564518019746597e+00  4.734544014672975e-02  87.6651531123304    
1.500000000000000e+01  5.989844439068586e-03  -4.355901869200873e+01  9.938602994128586e-01  -8.859603505542214e+00  9.938602994128586e-01  -8.859603505542214e+00  4.900152155107414e-02  87.9488494309401    
1.550000000000000e+01  6.049207252243996e-03  -4.420370335774444e+01  9.937480189924958e-01  -9.154818789103409e+00  9.937480189924958e-01  -9.154818789103409e+00  5.066457219279359e-02  88.2216342186166    
1.600000000000000e+01  6.117217356860150e-03  -4.485208227645619e+01  9.936270983167512e-01  -9.449397259326961e+00  9.936270983167512e-01  -9.449397259326961e+00  5.232117040194802e-02  88.4780446769619    
1.650000000000000e+01  6.167910889629980e-03  -4.537853779722281e+01  9.935092462023626e-01  -9.744858529895804e+00  9.935092462023626e-01  -9.744858529895804e+00  5.399820614975787e-02  88.7313060534627    
1.700000000000000e+01  6.213644769046264e-03  -4.584503745745754e+01  9.933886125305960e-01  -1.004046880524855e+01  9.933886125305960e-01  -1.004046880524855e+01  5.568287578708023e-02  88.9757511461031    
1.750000000000000e+01  6.268545806811512e-03  -4.632076589270540e+01  9.932589562540913e-01  -1.033537871359015e+01  9.932589562540913e-01  -1.033537871359015e+01  5.736019690810451e-02  89.206375200388     